<Qucs Dataset 0.0.19>
<indep time 13>
  +0.
  +0.01
  +0.02
  +0.0744444444444444375
  +0.128888888888888875
  +0.237777777777777776
  +0.346666666666666678
  +0.455555555555555624
  +0.56444444444444457
  +0.673333333333333428
  +0.782222222222222374
  +0.89111111111111132
  +1.
</indep>
<dep _net0.Vt time>
  +5.04882590884894888
  +5.33150067287680418
  +5.56685265949480623
  +5.94872684055257749
  +4.79837330464675471
  -0.595478713771172962
  -5.41532141913384279
  -5.01508680532473682
  +0.219420580115694008
  +5.2424183791425456
  +5.21200804954433749
  +0.157503506325906013
  -5.04882590885549209
</dep>
<dep _net1.Vt time>
  +5.04882590859650903
  +5.33150067261023075
  +5.56685265921646355
  +5.94872684025514075
  +4.7983733044068364
  -0.595478713741399179
  -5.41532141886307627
  -5.01508680507398274
  +0.219420580104723006
  +5.24241837888042638
  +5.21200804928373973
  +0.157503506318031005
  -5.04882590860305136
</dep>
<dep _net2.Vt time>
  +2.00000000000096322
  +2.00000000000101607
  +2.00000000000106226
  +2.00000000000113464
  +2.00000000000091482
  +1.99999999999988595
  +1.99999999999896704
  +1.99999999999904432
  +2.00000000000004218
  +2.00000000000100053
  +2.00000000000099431
  +2.00000000000003019
  +1.99999999999903721
</dep>
<dep Pr1.Vt time>
  +5.04882590859554536
  +5.33150067260921378
  +5.56685265921540306
  +5.94872684025400566
  +4.7983733044059198
  -0.595478713741285492
  -5.41532141886204421
  -5.01508680507302795
  +0.219420580104681128
  +5.24241837887942629
  +5.21200804928274408
  +0.157503506318000452
  -5.04882590860209035
</dep>
