! [1,1] [1,2] [2,1] [2,2] ?
# HZ S RI R 50
5.00000000000000000000e+008 -5.30110926020313510953e-002 -7.15907509814555556682e-002 +7.25216899985915648408e-001 -6.88037113723029114531e-001 +7.20216899985915648408e-001 -6.88037113723029114531e-001 -6.87949078093686716695e-002 -5.62121674894459424920e-002
5.10000000000000000000e+008 -5.47193096918588486877e-002 -7.17072082104605046382e-002 +7.09609311737184667024e-001 -6.98797895055063400527e-001 +7.09609311737184667024e-001 -6.98797895055063400527e-001 -7.08587189659010824316e-002 -5.58136946367407058012e-002
5.20000000000000000000e+008 -5.64300780484043237872e-002 -7.20748586299446852843e-002 +6.98843886795965096859e-001 -7.09392756470513252687e-001 +6.98843886795965096859e-001 -7.09392756470513252687e-001 -7.29121399438164008444e-002 -5.53440042270962606619e-002
5.30000000000000000000e+008 -5.81419308753805680334e-002 -7.23937322115554282576e-002 +6.87923328625756003163e-001 -7.19819531093053299742e-001 +6.87923328625756003163e-001 -7.19819531093053299742e-001 -7.49528125621276297696e-002 -5.48033984207410077016e-002
5.40000000000000000000e+008 -5.98534047715708131254e-002 -7.26639032021771241743e-002 +6.76850363025971790698e-001 -7.30076100951322470856e-001 +6.76850363025971790698e-001 -7.30076100951322470856e-001 -7.69783891073305831521e-002 -5.41922549979724499369e-002
5.50000000000000000000e+008 -6.15630410567653343912e-002 -7.28854899037628400915e-002 +6.65627737043880562950e-001 -7.40160396816240462314e-001 +6.65627737043880562950e-001 -7.40160396816240462314e-001 -7.89865346842664461935e-002 -5.35110269125875781526e-002
5.60000000000000000000e+008 -6.32693870845080358345e-002 -7.30586544143408261887e-002 +6.54258217913094686224e-001 -7.50070398006945637803e-001 +6.54258217913094686224e-001 -7.50070398006945637803e-001 -8.09749295443210198586e-002 -5.27602417751819388614e-002
5.70000000000000000000e+008 -6.49709975405851763997e-002 -7.31836023309725275388e-002 +6.42744592019675375916e-001 -7.59804132166905343837e-001 +6.42744592019675375916e-001 -7.59804132166905343837e-001 -8.29412713890264607919e-002 -5.19405012675899155350e-002
5.80000000000000000000e+008 -6.66664357262311546570e-002 -7.32605824154640150603e-002 +6.31089663896846397861e-001 -7.69359675011806687372e-001 +6.31089663896846397861e-001 -7.69359675011806687372e-001 -8.48832776472060179795e-002 -5.10524804897865419617e-002
5.90000000000000000000e+008 -6.83542748250739601312e-002 -7.32898862236548986893e-002 +6.19296255249231042406e-001 -7.78735150050863467186e-001 +6.19296255249231042406e-001 -7.78735150050863467186e-001 -8.67986877238781234789e-002 -5.00969272406072627102e-002
6.00000000000000000000e+008 -7.00330991528862328854e-002 -7.32718476991274236809e-002 +6.07367204007440708580e-001 -7.87928728283200596749e-001 +6.07367204007440708580e-001 -7.87928728283200596749e-001 -8.86852652192110929574e-002 -4.90746612336783599728e-002
6.10000000000000000000e+008 -7.17015053892566950333e-002 -7.32068427321936193719e-002 +5.95305363413758725777e-001 -7.96938627870999116709e-001 +5.95305363413758725777e-001 -7.96938627870999116709e-001 -9.05408001158944930609e-002 -4.79865732499767938535e-002
6.20000000000000000000e+008 -7.33581037903395377642e-002 -7.30952886850347455239e-002 +5.83113601139586656963e-001 -8.05763113791118867901e-001 +5.83113601139586656963e-001 -8.05763113791118867901e-001 -9.23631109333673122608e-002 -4.68336242284673881509e-002
6.30000000000000000000e+008 -7.50015193818843045603e-002 -7.29376438838757884531e-002 +5.70794798435235506417e-001 -8.14400497466913897426e-001 +5.70794798435235506417e-001 -8.14400497466913897426e-001 -9.41500468474166379851e-002 -4.56168442962848683098e-002
6.40000000000000000000e+008 -7.66303931317950937085e-002 -7.27344070790894720036e-002 +5.58351849312554771032e-001 -8.22849136381979540111e-001 +5.58351849312554771032e-001 -8.22849136381979540111e-001 -9.58994897737322493647e-002 -4.43373317399456887133e-002
6.50000000000000000000e+008 -7.82433831015090508476e-002 -7.24861168741288697248e-002 +5.45787659760822885247e-001 -8.31107433677587215115e-001 +5.45787659760822885247e-001 -8.31107433677587215115e-001 -9.76093564140737002255e-002 -4.29962519190885197884e-002
6.60000000000000000000e+008 -7.98391655755276846707e-002 -7.21933511241934916525e-002 +5.33105146996224021905e-001 -8.39173837735541550131e-001 +5.33105146996224021905e-001 -8.39173837735541550131e-001 -9.92776002637758281377e-002 -4.15948361242539782490e-002
6.70000000000000000000e+008 -8.14164361684757004189e-002 -7.18567263055365362812e-002 +5.20307238745171596328e-001 -8.47046841748229750735e-001 +5.20307238745171596328e-001 -8.47046841748229750735e-001 -1.00902213579386695885e-001 -4.01343803802190549068e-002
6.80000000000000000000e+008 -8.29739109091051640910e-002 -7.14768968563195827848e-002 +5.07396872561643008659e-001 -8.54724983277605598886e-001 +5.07396872561643008659e-001 -8.54724983277605598886e-001 -1.02481229305296475673e-001 -3.86162441964042757458e-002
6.90000000000000000000e+008 -8.45103273006973937376e-002 -7.10545544899217201840e-002 +4.94376995178619216276e-001 -8.62206843804853462210e-001 +4.94376995178619216276e-001 -8.62206843804853462210e-001 -1.04012722958281983443e-001 -3.70418492658765585723e-002
7.00000000000000000000e+008 -8.60244453573581063788e-002 -7.05904274816060439690e-002 +4.81250561893638184596e-001 -8.69491048272482247583e-001 +4.81250561893638184596e-001 -8.69491048272482247583e-001 -1.05494814468950953712e-001 -3.54126781144631502807e-002
7.10000000000000000000e+008 -8.75150486157363072248e-002 -7.00852799294405109931e-002 +4.68020535988399155602e-001 -8.76576264620556711016e-001 +4.68020535988399155602e-001 -8.76576264620556711016e-001 -1.06925669979130430476e-001 -3.37302727014889974777e-002
7.20000000000000000000e+008 -8.89809451217318525540e-002 -6.95399109903657303144e-002 +4.54689888182268964201e-001 -8.83461203318793852901e-001 +4.54689888182268964201e-001 -8.83461203318793852901e-001 -1.08303503594301908652e-001 -3.19962329736434986094e-002
7.30000000000000000000e+008 -9.04209683917921586138e-002 -6.89551540922924560695e-002 +4.41261596119472299105e-001 -8.90144616896206386514e-001 +4.41261596119472299105e-001 -8.90144616896206386514e-001 -1.09626579090238263081e-001 -3.02122153734710498230e-002
7.40000000000000000000e+008 -9.18339783484317523365e-002 -6.83318761231035409764e-002 +4.27738643889676972698e-001 -8.96625299469971936972e-001 +4.27738643889676972698e-001 -8.96625299469971936972e-001 -1.10893211573051014840e-001 -2.83799313039676953663e-002
7.50000000000000000000e+008 -9.32188622296368507580e-002 -6.76709765974235488706e-002 +4.14124021581595225250e-001 -9.02902086275167325979e-001 +4.14124021581595225250e-001 -9.02902086275167325979e-001 -1.12101769091905223430e-001 -2.65011455507536027032e-002
7.60000000000000000000e+008 -9.45745354718497965862e-002 -6.69733868020088302098e-002 +4.00420724869174848859e-001 -9.08973853196997971793e-001 +4.00420724869174848859e-001 -9.08973853196997971793e-001 -1.13250674203705617438e-001 -2.45776746632747900012e-002
7.70000000000000000000e+008 -9.58999425662523663494e-002 -6.62400689205975418128e-002 +3.86631754629866153383e-001 -9.14839516307103250981e-001 +3.86631754629866153383e-001 -9.14839516307103250981e-001 -1.14338405489102776236e-001 -2.26113852964717303162e-002
7.80000000000000000000e+008 -9.71940578880974431764e-002 -6.54720151390454918605e-002 +3.72760116594389401268e-001 -9.20498031405507788349e-001 +3.72760116594389401268e-001 -9.20498031405507788349e-001 -1.15363499019207116358e-001 -2.06041925143316748126e-002
7.90000000000000000000e+008 -9.84558864988588772205e-002 -6.46702467315604934139e-002 +3.58808821027359725608e-001 -9.25948393569727801200e-001 +3.58808821027359725608e-001 -9.25948393569727801200e-001 -1.16324549772437418893e-001 -1.85580580567263238312e-002
8.00000000000000000000e+008 -9.96844649209946143120e-002 -6.38358131288321584140e-002 +3.44780882438066815787e-001 -9.31189636712535628860e-001 +3.44780882438066815787e-001 -9.31189636712535628860e-001 -1.17220213000968562223e-001 -1.64749885709139509693e-002
8.10000000000000000000e+008 -1.00878861885138559895e-001 -6.29697909688400891959e-002 +3.30679319320636211366e-001 -9.36220833149818632002e-001 +3.30679319320636211366e-001 -9.36220833149818632002e-001 -1.18049205546270560840e-001 -1.43570338090654309182e-002
8.20000000000000000000e+008 -1.02038179049556990141e-001 -6.20732831311055985313e-002 +3.16507153922748529773e-001 -9.41041093179940779656e-001 +3.16507153922748529773e-001 -9.41041093179940779656e-001 -1.18810307103265649920e-001 -1.22062847931523749123e-002
8.30000000000000000000e+008 -1.03161551691720476676e-001 -6.11474177551395159380e-002 +3.02267412042021788032e-001 -9.45649564675970943917e-001 +3.02267412042021788032e-001 -9.45649564675970943917e-001 -1.19502361432654913287e-001 -1.00248719485166032372e-002
8.40000000000000000000e+008 -1.04248149371862497414e-001 -6.01933472438193062359e-002 +2.87963122849122843405e-001 -9.50045432692093627658e-001 +2.87963122849122843405e-001 -9.50045432692093627658e-001 -1.20124277520990349610e-001 -7.81496320741641159469e-003
8.50000000000000000000e+008 -1.05297176568406467001e-001 -5.92122472524150081363e-002 +2.73597318736599981470e-001 -9.54227919085468778704e-001 +2.73597318736599981470e-001 -9.54227919085468778704e-001 -1.20675030688089532371e-001 -5.57876208382608596015e-003
8.60000000000000000000e+008 -1.06307873285157172827e-001 -5.82053156639671040451e-002 +2.59173035192397316351e-001 -9.58196282154760714533e-001 +2.59173035192397316351e-001 -9.58196282154760714533e-001 -1.21153663641412376317e-001 -3.31850572074705862935e-003
8.70000000000000000000e+008 -1.07279515630167104900e-001 -5.71737715517019184919e-002 +2.44693310696942001314e-001 -9.61949816296505000324e-001 +2.44693310696942001314e-001 -9.61949816296505000324e-001 -1.21559287477029182023e-001 -1.03646291126291423268e-003
8.80000000000000000000e+008 -1.08211416366190305016e-001 -5.61188541291584783166e-002 +2.30161186642665160917e-001 -9.65487851680430719803e-001 +2.30161186642665160917e-001 -9.65487851680430719803e-001 -1.21891082626832916724e-001 +1.26506790543856606490e-003
8.90000000000000000000e+008 -1.09102925432655026294e-001 -5.50418216886812070032e-002 +2.15579707274758863855e-001 -9.68809753944785967406e-001 +2.15579707274758863855e-001 -9.68809753944785967406e-001 -1.22148299751649216938e-001 +3.58376067188133362595e-003
9.00000000000000000000e+008 -1.09953430439083038594e-001 -5.39439505289217025030e-002 +2.00951919651934679534e-001 -9.71914923912691741670e-001 +2.00951919651934679534e-001 -9.71914923912691741670e-001 -1.22330260579918873032e-001 +5.91726376276770216212e-003
9.10000000000000000000e+008 -1.10762357129896446550e-001 -5.28265338719774921183e-002 +1.86280873625911308489e-001 -9.74802797330449499746e-001 +1.86280873625911308489e-001 -9.74802797330449499746e-001 -1.22436358691625085671e-001 +8.26320205692965964461e-003
9.20000000000000000000e+008 -1.11529169820555162929e-001 -5.16908807707818704347e-002 +1.71569621838309094297e-001 -9.77472844628707759895e-001 +1.71569621838309094297e-001 -9.77472844628707759895e-001 -1.22466060247149621798e-001 +1.06191790296109450642e-002
9.30000000000000000000e+008 -1.12253371804967624903e-001 -5.05383150073478518149e-002 +1.56821219733608296920e-001 -9.79924570707305209183e-001 +1.56821219733608296920e-001 -9.79924570707305209183e-001 -1.22418904660744065627e-001 +1.29827788639361486889e-002
9.40000000000000000000e+008 -1.12934505734125417709e-001 -4.93701739824559948655e-002 +1.42038725586782543786e-001 -9.82157514744561255249e-001 +1.42038725586782543786e-001 -9.82157514744561255249e-001 -1.22294505218302082539e-001 +1.53515685804377771673e-002
9.50000000000000000000e+008 -1.13572153965908861917e-001 -4.81878075973655450870e-002 +1.27225200544187455609e-001 -9.84171250031718014561e-001 +1.27225200544187455609e-001 -9.84171250031718014561e-001 -1.22092549639123387761e-001 +1.77231001835181714577e-002
9.60000000000000000000e+008 -1.14165938886010134845e-001 -4.69925771281194809559e-002 +1.12383708676269220006e-001 -9.85965383833175335049e-001 +1.12383708676269220006e-001 -9.85965383833175335049e-001 -1.21812800581355823448e-001 +2.00949128237296117949e-002
9.70000000000000000000e+008 -1.14715523199924382403e-001 -4.57858540930033350302e-002 +9.75173170406087030937e-002 -9.87539557273096502144e-001 +9.75173170406087030937e-002 -9.87539557273096502144e-001 -1.21455096090801198394e-001 +2.24645349747641664973e-002
9.80000000000000000000e+008 -1.15220610195950159960e-001 -4.45690191137116248354e-002 +8.26290957538156206619e-002 -9.88893445248890778920e-001 +8.26290957538156206619e-002 -9.88893445248890778920e-001 -1.21019349992767574764e-001 +2.48294866240426313764e-002
9.90000000000000000000e+008 -1.15680943979145453571e-001 -4.33434607707679150912e-002 +6.77221180707480163719e-002 -9.90026756372027749720e-001 +6.77221180707480163719e-002 -9.90026756372027749720e-001 -1.20505552226646661662e-001 +2.71872814757970759914e-002
1.00000000000000000000e+009 -1.16096309676174125336e-001 -4.21105744537404458328e-002 +5.27994604695208591405e-002 -9.90939232936549396769e-001 +5.27994604695208591405e-002 -9.90939232936549396769e-001 -1.19913769122890132013e-001 +2.95354291655352263479e-002
1.01000000000000000000e+009 -1.16466533610982789226e-001 -4.08717612067893421024e-002 +3.78642027407515430193e-002 -9.91630650915603761852e-001 +3.78642027407515430193e-002 -9.91630650915603761852e-001 -1.19244143622053849763e-001 +3.18714374847757289655e-002
1.02000000000000000000e+009 -1.16791483451234787139e-001 -3.96284265700807408761e-002 +2.29194280794710603111e-002 -9.92100819986229787162e-001 +2.29194280794710603111e-002 -9.92100819986229787162e-001 -1.18496895435573873501e-001 +3.41928146149304695856e-002
1.03000000000000000000e+009 -1.17071068325432139923e-001 -3.83819794175990214313e-002 +7.96822317812261038394e-003 -9.92349583582576633134e-001 +7.96822317812261038394e-003 -9.92349583582576633134e-001 -1.17672321147931691065e-001 +3.64970713692075454659e-002
1.04000000000000000000e+009 -1.17305238910642581351e-001 -3.71338307918905596861e-002 -6.98632168094660832569e-003 -9.92376818977653840648e-001 -6.98632168094660832569e-003 -9.92376818977653840648e-001 -1.16770794259862170650e-001 +3.87817234413922115599e-002
1.05000000000000000000e+009 -1.17493987490751863878e-001 -3.58853927362722396888e-002 -2.19411125350914698595e-002 -9.92182437393652194579e-001 -2.19411125350914698595e-002 -9.92182437393652194579e-001 -1.15792765172252176686e-001 +4.10442936603511512872e-002
1.06000000000000000000e+009 -1.17637347985151449747e-001 -3.46380771250395236294e-002 -3.68930516546773917819e-002 -9.91766384140794321489e-001 -3.68930516546773917819e-002 -9.91766384140794321489e-001 -1.14738761110371623175e-001 +4.32823142490888906897e-002
1.07000000000000000000e+009 -1.17735395947767176872e-001 -3.33932944922152932787e-002 -5.18390374616945689978e-002 -9.91128638784604665268e-001 -5.18390374616945689978e-002 -9.91128638784604665268e-001 -1.13609385988078348539e-001 +4.54933290871657250443e-002
1.08000000000000000000e+009 -1.17788248536333461924e-001 -3.21524528593829725387e-002 -6.67759644552746167712e-002 -9.90269215341432418320e-001 -6.67759644552746167712e-002 -9.90269215341432418320e-001 -1.12405320211631909455e-001 +4.76748959752654466460e-002
1.09000000000000000000e+009 -1.17796064451807167006e-001 -3.09169565631558784791e-002 -8.17007231457145544073e-002 -9.89188162501960732698e-001 -8.17007231457145544073e-002 -9.89188162501960732698e-001 -1.11127320422751266205e-001 +4.98245889006779935082e-002
1.10000000000000000000e+009 -1.17759043847817684858e-001 -2.96882050828417703991e-002 -9.66101999985905235402e-002 -9.87885563882395789648e-001 -9.66101999985905235402e-002 -9.87885563882395789648e-001 -1.09776219180550582699e-001 +5.19400003024340778390e-002
1.11000000000000000000e+009 -1.17677428210039444756e-001 -2.84675918688708715076e-002 -1.11501277390552849811e-001 -9.86361538302935381139e-001 -1.11501277390552849811e-001 -9.86361538302935381139e-001 -1.08352924581989001895e-001 +5.40187433348033874125e-002
1.12000000000000000000e+009 -1.17551500205375844543e-001 -2.72565031725666255535e-002 -1.26370833578364566430e-001 -9.84616240093051930948e-001 -1.26370833578364566430e-001 -9.84616240093051930948e-001 -1.06858419820471145512e-001 +5.60584541278345699356e-002
1.13000000000000000000e+009 -1.17381583500838757028e-001 -2.60563168778488382649e-002 -1.41215742682742589897e-001 -9.82649859423059157670e-001 -1.41215742682742589897e-001 -9.82649859423059157670e-001 -1.05293762682241220929e-001 +5.80567940435839577318e-002
1.14000000000000000000e+009 -1.17168042552005233214e-001 -2.48684013354733834955e-002 -1.56032874688542377850e-001 -9.80462622661353089271e-001 -1.56032874688542377850e-001 -9.80462622661353089271e-001 -1.03660084980220848494e-001 +6.00114519266455453961e-002
1.15000000000000000000e+009 -1.16911282360934204450e-001 -2.36941142004263062548e-002 -1.70819095462794973139e-001 -9.78054792756649082897e-001 -1.70819095462794973139e-001 -9.78054792756649082897e-001 -1.01958591924948341334e-001 +6.19201463475561805772e-002
1.16000000000000000000e+009 -1.16611748203426152104e-001 -2.25348012731039909484e-002 -1.85571266792102701482e-001 -9.75426669644467225773e-001 -1.85571266792102701482e-001 -9.75426669644467225773e-001 -1.00190561432289063082e-001 +6.37806278376140817210e-002
1.17000000000000000000e+009 -1.16269925325509976277e-001 -2.13917953449300826674e-002 -2.00286246440850745909e-001 -9.72578590677049437119e-001 -2.00286246440850745909e-001 -9.72578590677049437119e-001 -9.83573433676013658689e-002 +6.55906811136064693546e-002
1.18000000000000000000e+009 -1.15886338609043404446e-001 -2.02664150490740740951e-002 -2.14960888231682689664e-001 -9.69510931075815762803e-001 -2.14960888231682689664e-001 -9.69510931075815762803e-001 -9.64603587260576961215e-002 +6.73481272909013800598e-002
1.19000000000000000000e+009 -1.15461552206317680236e-001 -1.91599637169577938223e-002 -2.29592042149641600846e-001 -9.66224104405406514218e-001 -2.29592042149641600846e-001 -9.66224104405406514218e-001 -9.45010987488449777372e-002 +6.90508260833163634018e-002
1.20000000000000000000e+009 -1.14996169143564211379e-001 -1.80737282412524596920e-002 -2.44176554471351697773e-001 -9.62718563068285626549e-001 -2.44176554471351697773e-001 -9.62718563068285626549e-001 -9.24811239749839392177e-002 +7.06966779881312706868e-002
1.21000000000000000000e+009 -1.14490830893264936008e-001 -1.70089779460904089170e-002 -2.58711267920577026036e-001 -9.58994798818808336094e-001 -2.58711267920577026036e-001 -9.58994798818808336094e-001 -9.04020632285407604867e-002 +7.22836264545691498107e-002
1.22000000000000000000e+009 -1.13946216915178408224e-001 -1.59669634652357429749e-002 -2.73193021851445116965e-001 -9.55053343295595658091e-001 -2.73193021851445116965e-001 -9.55053343295595658091e-001 -8.82656125410306441337e-002 +7.38096600340208131019e-002
1.23000000000000000000e+009 -1.13363044166003804070e-001 -1.49489156289792889110e-002 -2.87618652460593593467e-001 -9.50894768570995307932e-001 -2.87618652460593593467e-001 -9.50894768570995307932e-001 -8.60735340088450706642e-002 +7.52728145102456169813e-002
1.24000000000000000000e+009 -1.12742066577614735712e-001 -1.39560443605444041426e-002 -3.01984993029435044853e-001 -9.46519687716334434668e-001 -3.01984993029435044853e-001 -9.46519687716334434668e-001 -8.38276545855762555970e-002 +7.66711750077310461027e-002
1.25000000000000000000e+009 -1.12084074503811775836e-001 -1.29895375828133711332e-002 -3.16288874197697189583e-001 -9.41928755381616689135e-001 -3.16288874197697189583e-001 -9.41928755381616689135e-001 -8.15298648091462574428e-002 +7.80028780763484252958e-002
