<Qucs Dataset 0.0.19>
<indep _net0.V 1>
0.
</indep>
<indep _net1.V 1>
0.
</indep>
<indep _net2.V 1>
0.
</indep>
<indep _net3.V 1>
0.
</indep>
<indep _net4.V 1>
0.
</indep>
<indep _net5.V 1>
0.
</indep>

<indep time 12>
  +0.
  +0.01
  +0.02
  +0.0363333333333333285
  +0.123939393939393927
  +0.211545454545454525
  +0.342954545454545467
  +0.474363636363636409
  +0.605772727272727351
  +0.737181818181818382
  +0.868590909090909413
  +1.
</indep>
<dep _net0.Vt time>
  +0.
  +0.
  +0.
  +0.
  +0.
  +0.
  +0.
  +0.
  +0.
  +0.
  +0.
  +0.
</dep>
<dep _net1.Vt time>
  +0.
  +0.
  +0.
  +0.
  +0.
  +0.
  +0.
  +0.
  +0.
  +0.
  +0.
  +0.
</dep>
<dep _net2.Vt time>
  +0.
  +0.
  +0.
  +0.
  +0.
  +0.
  +0.
  +0.
  +0.
  +0.
  +0.
  +0.
</dep>
<dep _net3.Vt time>
  +0.
  +0.
  +0.
  +0.
  +0.
  +0.
  +0.
  +0.
  +0.
  +0.
  +0.
  +0.
</dep>
<dep _net4.Vt time>
  +0.
  -0.177598408613614999
  -0.354495917445428077
  -0.64010505317550006
  -1.98662772128867857
  -2.74626791160747218
  +288.678728979936352
  -0.453629839633069931
  +1.74439330144710069
  +2.81925874017981072
  +2.07889583200443306
  -64.000000000000012E-15
</dep>
<dep _net5.Vt time>
  +0.
  +0.
  +0.
  +0.
  +0.
  +0.
  +291.038304567337036
  +0.
  +0.
  +0.
  +0.
  -64.999999999999964E-15
</dep>
<dep Pr1.It time>
  +0.
  +0.
  +0.
  +0.
  +0.
  +0.
  +0.
  +0.
  +0.
  +0.
  +0.
  +0.
</dep>
<dep Pr2.Vt time>
  +0.
  +0.
  +0.
  +0.
  +0.
  +0.
  +0.
  +0.
  +0.
  +0.
  +0.
  +0.
</dep>
