<Qucs Dataset 0.0.19>
<indep _net0.V 1>
0.
</indep>
<indep _net1.V 1>
0.
</indep>
<indep _net2.V 1>
0.
</indep>
<indep time 12>
  +0.
  +0.01
  +0.02
  +0.0363333333333333285
  +0.123939393939393927
  +0.211545454545454525
  +0.342954545454545467
  +0.474363636363636409
  +0.605772727272727351
  +0.737181818181818382
  +0.868590909090909413
  +1.
</indep>
<dep _net0.Vt time>
  +0.
  -0.158730506896973011
  +0.0825405120849610085
  -0.176307678222656001
  -0.400535583496094016
  +0.372909545898438032
  -0.646514892578125088
  -0.0300960540771480022
  +0.792762756347656072
  +0.0253143310546870026
  -1.87353515625000017
  +0.
</dep>
<dep _net1.Vt time>
  +0.
  -0.158731386088135995
  +0.0825387571723990021
  -0.17631084702755098
  -0.400545418187472002
  +0.372895950650034979
  -0.646526573527423042
  -0.0300982997467450008
  +0.792771391870848951
  +0.025328287640175997
  -1.87352486479040969
  +0.
</dep>
<dep _net2.Vt time>
  +0.
  -0.246650502456065989
  -0.0929524989777780064
  -0.49319133653863405
  -1.3840145560661432
  -0.986628889596017089
  -1.81462150335909626
  -0.254665259383571029
  +1.65632371116609906
  +1.42098683652195916
  -0.844378905668797941
  +1.0000000000000002E-15
</dep>
<dep Pr1.It time>
  +0.
  +0.0879191163677406173
  +0.175491256150517287
  +0.316880489512061336
  +0.983469137877390586
  +1.35952484024426367
  +1.16809492982650175
  +0.224566959636934804
  -0.863552319296800696
  -1.39565854888196149
  -1.02914595911940387
  -288.15399999999996E-18
</dep>
<dep Pr2.Vt time>
  +0.
  -0.0879199955590938486
  -0.175493011062739023
  -0.316883658315978067
  -0.983478972570049059
  -1.35953843549445441
  -1.16810661078097144
  -0.224569205306422858
  +0.863560954818442638
  +1.39567250546727116
  +1.02915625058120152
  +288.15699999999999E-18
</dep>
