<Qucs Dataset 0.0.19>
<indep time 310>
  +0.
  +1.00000000000000022E-9
  +1.02777777777777767E-9
  +1.04217444445071993E-9
  +4.62425293060170794E-9
  +8.20633141675269683E-9
  +21.4337463064274835E-9
  +34.6611611961022703E-9
  +55.5665021923263413E-9
  +76.4718431885504035E-9
  +97.3771841847744923E-9
  +129.136316208186974E-9
  +160.89544823159942E-9
  +192.654580255011875E-9
  +247.916484425817262E-9
  +303.178388596622605E-9
  +402.151969981219892E-9
  +501.125551365817134E-9
  +734.094631894418725E-9
  +1.15470902239490702E-6
  +4.63377836511502039E-6
  +52.9205717063463509E-6
  +384.48988598280156E-6
  +0.00100000299999999953
  +0.00100000399999999967
  +0.00100000471400013646
  +0.00100000542800027325
  +0.00100000666906642865
  +0.00100000868740038928
  +0.00100001070573435013
  +0.00100003307245783057
  +0.00100005543918131101
  +0.00100007780590479145
  +0.00100010017262827211
  +0.00100012253935175254
  +0.00100014490607523298
  +0.00100016727279871342
  +0.00100018963952219408
  +0.00100021200624567452
  +0.00100023437296915496
  +0.00100025673969263539
  +0.00100027910641611583
  +0.00100030147313959627
  +0.00100032383986307671
  +0.00100034620658655737
  +0.00100038371452101371
  +0.00100042122245547004
  +0.00100047763270743206
  +0.00100053404295939429
  +0.00100063026203068661
  +0.00100072648110197892
  +0.00100096055069177536
  +0.00100138753111734501
  +0.00100368661452789242
  +0.0010220839834143387
  +0.0011156039419204391
  +0.00170789701245907661
  +0.00200000200000000027
  +0.00200000201999999971
  +0.00200000237014004422
  +0.00200000258126163821
  +0.00200000299999999997
  +0.00200000302434088084
  +0.00200000303534088086
  +0.00200000572796432329
  +0.00200000842058776573
  +0.00200002026812692479
  +0.0020000321156660834
  +0.00200005194952679588
  +0.0020000717833875079
  +0.00200009161724822037
  +0.00200012174078771121
  +0.00200015186432720293
  +0.00200018198786669465
  +0.00200023347039127541
  +0.00200028495291585661
  +0.00200037431623590133
  +0.00200046367955594561
  +0.00200066015594844115
  +0.00200099403214711601
  +0.00200218595674372634
  +0.00200777102241639138
  +0.00202925550891527173
  +0.0021264597100260616
  +0.00254085656739311094
  +0.00300000499999999936
  +0.0030000059999999995
  +0.00300000671400008389
  +0.00300000742800016872
  +0.003000008142000254
  +0.00300000944248791068
  +0.00300001141516198632
  +0.00300003322959127238
  +0.00300005504402055933
  +0.00300007685844984539
  +0.0030000986728791319
  +0.00300012048730841796
  +0.0030001423017377049
  +0.00300016411616699141
  +0.00300018593059627747
  +0.00300020774502556353
  +0.00300022955945485003
  +0.00300025137388413654
  +0.00300027318831342304
  +0.00300029500274270954
  +0.0030003168171719956
  +0.00300033863160128211
  +0.00300037397004060313
  +0.00300040930847992326
  +0.00300044464691924339
  +0.00300050581740656863
  +0.00300056698789389297
  +0.00300068268865116793
  +0.00300079838940844201
  +0.00300110581689605959
  +0.00300172267695097882
  +0.0030040089485364243
  +0.00301566893362219623
  +0.00305959554410256018
  +0.00325238455676637894
  +0.00400000400000000055
  +0.00400000401999999954
  +0.00400000437013984111
  +0.00400000458126144042
  +0.00400000500000000069
  +0.00400000502434088378
  +0.0040000050353408838
  +0.00400000772796097336
  +0.00400001042058106293
  +0.00400002226810626826
  +0.0040000341156314727
  +0.00400005394950820569
  +0.00400007378338493868
  +0.00400009361726167167
  +0.00400012374075174648
  +0.00400015386424182306
  +0.00400018398773189787
  +0.0040002354701802405
  +0.00400028695262858313
  +0.00400037631519054137
  +0.00400046567775250139
  +0.00400066215189195073
  +0.00400099602344006743
  +0.0040021879574707766
  +0.00400777251244519838
  +0.00402925003032173911
  +0.00412713117736564516
  +0.00454662180755381317
  +0.00500000700000000009
  +0.00500000799999999934
  +0.00500000871400009216
  +0.00500000942800018588
  +0.00500000998302242738
  +0.00500001105205948537
  +0.00500001270459330449
  +0.00500003452583020191
  +0.00500005634706710022
  +0.00500007816830399853
  +0.00500009998954089596
  +0.00500012181077779427
  +0.00500014363201469258
  +0.00500016545325159
  +0.0050001872744884892
  +0.00500020909572538752
  +0.00500023091696228494
  +0.00500025273819918325
  +0.00500027455943608067
  +0.00500029638067297987
  +0.00500031820190987819
  +0.00500034002314677561
  +0.00500037521665367279
  +0.00500041041016056908
  +0.00500044560366746715
  +0.00500050646325670555
  +0.00500056732284594218
  +0.00500068210983857586
  +0.00500079689683120864
  +0.00500109998905281472
  +0.00500170459718186144
  +0.00500397758281297555
  +0.00501576065455162289
  +0.00506066371171782414
  +0.00525823716324911138
  +0.00600000599999999995
  +0.00600000601999999894
  +0.00600000637013986537
  +0.00600000658126146468
  +0.00600000700000000009
  +0.0060000070243408814
  +0.00600000703534088053
  +0.00600000972796151543
  +0.00600001242058215034
  +0.00600002426807944555
  +0.00600003611557674076
  +0.00600005594938717123
  +0.00600007578319759904
  +0.00600009561700802862
  +0.00600012574039927226
  +0.00600015586379051768
  +0.00600018598718176043
  +0.00600023746947762859
  +0.00600028895177349586
  +0.0060003783148158174
  +0.00600046767785813894
  +0.00600066414749129428
  +0.00600099800973793406
  +0.00600218996264114235
  +0.0060077734962128737
  +0.00602923707956656684
  +0.0061260849556746999
  +0.00655651996059973374
  +0.00700000900000000036
  +0.00700000999999999962
  +0.00700001071400011376
  +0.00700001142800022613
  +0.00700001189707972759
  +0.00700001283868612134
  +0.00700001431418494579
  +0.00700003613813528779
  +0.00700005796208562891
  +0.00700007978603597091
  +0.00700010160998631114
  +0.00700012343393665403
  +0.00700014525788699337
  +0.00700016708183733626
  +0.00700018890578767649
  +0.0070002107297380185
  +0.00700023255368835961
  +0.00700025437763870161
  +0.00700027620158904184
  +0.00700029802553938473
  +0.00700031984948972407
  +0.00700034167344006696
  +0.00700037678426627785
  +0.00700041189509248962
  +0.00700044700591870139
  +0.00700050768753538221
  +0.00700056836915206037
  +0.00700068263756727038
  +0.00700079690598248127
  +0.00700109751769883015
  +0.00700169526585157075
  +0.00700396155816763155
  +0.00701580360734483488
  +0.00706101870420324662
  +0.00725695079058969838
  +0.00800000800000000111
  +0.00800000801999999922
  +0.0080000083701398772
  +0.00800000858126147385
  +0.00800000899999999859
  +0.00800000902434087102
  +0.00800000903534087193
  +0.00800001172795951553
  +0.00800001442057815914
  +0.00800002626806191052
  +0.00800003811554566013
  +0.00800005794935387015
  +0.0080000777831620784
  +0.00800009761697028665
  +0.0080001277405187583
  +0.00800015786406722995
  +0.0080001879876157016
  +0.00800023946945409392
  +0.00800029095129248801
  +0.00800038031178264219
  +0.00800046967227279814
  +0.00800066612838674195
  +0.00800099996272830438
  +0.0080021912619161899
  +0.00800777173325161761
  +0.00802919354257149286
  +0.00812304146911570867
  +0.00849843317529256481
  +0.00900001099999999887
  +0.0090000119999999999
  +0.00900001271399970192
  +0.00900001283299965137
  +0.0090000129519996026
  +0.00900001321575552282
  +0.00900001367534565588
  +0.00900003536137802662
  +0.00900005704741039735
  +0.00900007873344276809
  +0.00900010041947513883
  +0.00900012210550751134
  +0.00900014379153988031
  +0.00900016547757225104
  +0.00900018716360462178
  +0.0090002088496369943
  +0.00900023053566936503
  +0.009000252221701734
  +0.00900027390773410651
  +0.00900029559376647725
  +0.00900031727979884799
  +0.00900033896583121872
  +0.00900037302815349704
  +0.0090004070904757718
  +0.00900044115279805012
  +0.00900049945991157684
  +0.00900055776702510534
  +0.00900066528017409162
  +0.00900077279332307789
  +0.00900104270883001511
  +0.00900155684022022128
  +0.00900386805123822853
  +0.00901873569226452431
  +0.00908415331278022009
  +0.00938943554185348183
  +0.0100000000000000022
</indep>
<dep _net0.Vt time>
  +0.
  -0.152014995313964007
  +0.147806004618938002
  -0.096209912536443003
  +0.408606445755787994
  +0.827743985474353038
  +0.929953648656122133
  +0.695911334476275023
  +1.57248384707715116
  +2.42733915888460405
  +0.811116857210148012
  +0.129917660941392011
  -0.473762259079586023
  +0.263598842926446019
  +0.0912638309547920201
  +0.318049506422491035
  -0.0718489851247860045
  +1.79724834045487424
  -1.94558801780237331
  +0.27116767830052102
  -0.0372876763706810043
  +4.51287569102270236
  +3.85447425924356856
  -1.49596912029578144
  -6.80891247994074522
  -1.64133277850433945
  -0.984962941847206074
  -0.63562920291019207
  -0.740279295365509071
  -0.742404658476135015
  -0.388623281439977041
  -0.394745266254581004
  -0.398629509492998046
  -0.401093575965241999
  -0.402657072347445055
  -0.403648831336672042
  -0.404278093195480003
  -0.404677323616437067
  -0.404930603972350056
  -0.405091287208897021
  -0.405193233714598033
  -0.405257910544009014
  -0.405298944884388046
  -0.405324975369432038
  -0.405341491234759043
  -0.448161331008979058
  -0.448169187801418988
  -0.364377054440052017
  -0.364378124121992064
  -0.358711403500374981
  -0.358711411189204021
  -0.402490407828674978
  -0.324726753271989032
  -0.419224325881632076
  -0.405832704510596009
  -0.399510006054278044
  -0.418965203817792986
  -0.497692680090051009
  +0.0600547082228120032
  +9.54707792207792138
  -4.99789915966386466
  -0.638602723505031999
  +4.63855421686747071
  +0.511705685618729066
  -48.2988338192419863
  -1.22412536443148711
  +0.662086425526601018
  +0.87471138849373613
  +1.66367798703676061
  -0.0377933526185980017
  +2.13936587956499479
  +0.835954220922444157
  +0.508693544353273097
  -0.46862510855344599
  -0.212884598427214033
  +0.46173405047557301
  +0.00807560581424100121
  +0.111000966264069012
  +0.0643354417239420151
  -0.175463760141346014
  -1.97561171642701225
  +0.08688861353351502
  +0.220642529128596009
  +0.650196864084630021
  +0.896458982790142044
  +0.833069815804090119
  +0.536125124373767025
  +0.829845755581922084
  +0.674807422969188053
  +0.676164215686275049
  +1.05654011314838802
  +0.413117558142617991
  -0.613422587911518046
  -0.630190219696327069
  -0.640952370854186082
  -0.647859704432569039
  -0.652293274804196077
  -0.655139177528957983
  -0.656965562294417004
  -0.658137941678212001
  -0.658890393940679075
  -0.659373350628175014
  -0.659683334967978041
  -0.659882290444364105
  -0.66000998330158298
  -0.660091945668219004
  -0.66014455621147503
  -18.2295955779572658
  -18.2302450762061862
  -18.2305553945071068
  +0.749731630393339987
  +0.749733765653352079
  +12.256630332238918
  +12.2566294675381248
  -0.999573715561579945
  -5.82335091991366038
  -0.46800296546129303
  -0.540629369769263057
  -0.565783018724910036
  -0.579561074893532079
  -0.486530716590613021
  +0.0902271220159150111
  +72.2836538461538502
  -1.303350970017636
  -0.192764273600904001
  +1.26839826839826841
  +0.857664233576642054
  -1.87068135378255817
  -0.883833994879864981
  +2.15554248974885709
  +1.75057841647513434
  +0.831450594040256163
  -0.439817672646164048
  +1.33996510244982403
  +1.77588389496325511
  +2.63087631607659222
  +2.21361622972793936
  +1.56834518200452821
  +2.11198269582816333
  +1.09831148975473702
  +0.130329800385315008
  -147.769482796798179
  +1.89185203460406725
  +0.550751519283208068
  +0.857329057819131001
  +0.243127710914722028
  +0.367956482742303014
  -2.72603372882642958
  +0.936438775111196086
  +0.529309915578390022
  +0.498766272441079028
  +0.38306609307782601
  +0.284681766540163039
  +0.24902826203743702
  +0.897466873041640056
  +0.277385048310659021
  +0.287326034463645996
  +0.293705774901867009
  +0.297799942301244016
  +0.300427456207815035
  +0.302113621450717007
  +0.303195774357929037
  +0.303890199198414023
  +0.30433583903493
  +0.304621826138087037
  +0.304805372990097023
  +0.304923157224463015
  +0.304998747522154989
  +0.305047257908362023
  +0.305078389653453019
  +0.510060896848386047
  +0.510084163043008054
  +0.510095316304738055
  +0.572863574850878976
  +0.572865698163803038
  +0.853633378251483065
  +0.853633303387353059
  +0.405619592862958988
  +0.247497238963199039
  +0.209723134801414001
  +0.375916133186442991
  +0.270892578741480027
  +0.260682918161353027
  +0.219965767306779014
  +0.0506465517241379981
  +7.10962962962963107
  -5.1049382716049374
  -5.82130584192439748
  +4.02040816326530681
  +1.21014492753623192
  +2.49050139086776622
  -0.256971300630979015
  +394.020070838252642
  -218.325855962219605
  +0.204513565040309019
  +0.926562656783836047
  +1.67383616017160115
  -5.877320597794915
  -2.58817753807915318
  -2.74602200305907828
  +15.7553103556552986
  +12.0804948544385371
  +8.48368284984608322
  +12.5085091041159257
  +2.04155015707826725
  +1.56262372743531807
  +2.43964722834177916
  +2.48100540983952999
  +1.72686828596919621
  +2.88041912875802239
  +1.90590635702997808
  +1.45293583836238715
  +0.34623551129386203
  +0.542617345352813007
  +0.315636226677483033
  +0.56396704492460703
  +0.534764096379612041
  +0.546138529011443019
  +0.686902632185970052
  +0.671549837250429071
  +0.661696952610401112
  +0.655375092908220047
  +0.651318015224132995
  +0.648714534690007038
  +0.647043916754235048
  +0.64597172386395707
  +0.645283770535920009
  +0.644842280288080083
  +0.644558982302585992
  +0.644377186546890001
  +0.644260518652126101
  +0.64418565545147004
  +0.644137611489863015
  +14.1980635041490144
  +14.197590047890185
  +14.1973626577948426
  +0.641142409402515056
  +0.64114065566204399
  +0.579150245870709046
  +0.579150282323244081
  +0.450677469007635078
  +0.76843682626390013
  +0.457132128710479079
  +0.893688301725653033
  +2.88498722350022429
  -4.18418502867410868
  -3.19453258018254526
  +0.0625414456233420068
  -0.188178913738019009
  -13.5339912280701746
  -0.383741864007754998
  -0.163387510692900006
  -0.69856459330143501
  -6.09010687322286514
  -2.15393666045690723
  +1.93470899676124403
  +2.67670034714814919
  +1.46443968396768404
  +0.705475562721013105
  +1.20254913138619001
  -10.3567676658688756
  +2.40120085729980026
  +2.42688245478086939
  +0.679682452589975039
  +0.251553383408641018
  -0.0873852759998170114
  +0.179007524215549018
  +0.196189114845337009
  +2.82975452260119819
  +71.8970614698493371
  +18.3774880672898266
  +11.0652352127475905
  +4.09807269461105505
  +14.5375119650574635
  -6.54995468453988749
  -9.73313905079100827
  -0.891030166574443072
  +0.293548387096774021
  +0.293548387096774021
  +0.284435080326574016
  -0.0644889103182260114
  -0.323965422107780032
  -0.208489976089754991
  -0.134182453558948
  -0.086354607320213006
  -0.0555747654956780046
  -0.0357674268898290037
  -0.0230186683833000005
  -0.0148142357917970013
  -0.00953421004230300184
  -0.0061359665256579996
  -0.00394898381460400038
  -0.00254144059223800011
  -0.00163558143277500001
  -0.00105262552878400006
  -677.447351481000126E-6
  +0.00205564810559600008
  +0.00101104714165800024
  +497.279170638000067E-6
  +7.50488786100000027E-6
  +1.97652975400000041E-6
  -84.9731960000000086E-9
  +3.07651999999999992E-9
  -1.79791800000000012E-9
  -601.81300000000002E-12
  -642.88400000000009E-12
  -468.90600000000004E-12
  +756.35399999999997E-12
  -630.69500000000005E-12
  +299.73900000000002E-12
</dep>
<dep _net1.Vt time>
  +0.
  -1.13240695994188
  -0.832041600337296038
  -1.07577542737347808
  -0.503208355243624083
  -0.0210060151435899999
  +0.279508385872067011
  +0.197438239252041025
  +1.24638937835031415
  +2.21401249478995509
  +0.671561390988410078
  +0.0576388947846690058
  -0.511196980750931029
  +0.244210598479378004
  +0.0856771841879160156
  +0.316439736013045047
  -0.0718572894006709983
  +1.79724829757298687
  -1.94558800067222126
  +0.271167667819474056
  -0.0372876664862840057
  +4.51287568095520263
  +3.8544742688851441
  -1.49596913005224401
  -5.82852052496021233
  -0.674743715139353028
  -0.0320789162220350032
  +0.293892921748055044
  +0.152463446003543996
  +0.115013988293899016
  +0.155349975937542028
  -0.0496315859571730122
  -0.179678576309080018
  -0.262184242954343993
  -0.314528638649832048
  -0.347737391420942021
  -0.368806123678618025
  -0.382172794606739039
  -0.390653025564862055
  -0.396033144061112984
  -0.399446463850486033
  -0.40161197965542108
  -0.402985852073236028
  -0.403857476800086079
  -0.404410464149743997
  -0.447738214934872047
  -0.447976897779416027
  -0.364323465378062039
  -0.364363189445258051
  -0.358711115706018057
  -0.358711405625990042
  -0.402490410034484025
  -0.324726751873686048
  -0.419224327127496998
  -0.405832703236922043
  -0.399510007284762025
  -0.418965202546559023
  -0.497692681314324048
  +0.0400627078769599975
  +9.17830716146027469
  -5.57579285952220615
  -1.62866905248384323
  +3.64896963491659942
  -0.477661211713845013
  -49.236317886124068
  -2.11244735905442526
  -0.0380431812284920045
  +0.322905321289239033
  +1.2945321927244251
  -0.28474355044537102
  +1.97416177552444338
  +0.747239453165888001
  +0.461053626063498001
  -0.494207791925855044
  -0.221078332728150028
  +0.459109725223391063
  +0.00792819522079399963
  +0.110992686082839009
  +0.0643381361715529997
  -0.175465212549386029
  -1.97561048876622216
  +0.086887429152285005
  +0.220643702520477003
  +0.65019569306204703
  +0.896460153172163032
  +0.833068645847306044
  +1.51651594189580514
  +1.79643369849281313
  +1.62769034501731884
  +1.61553643710734888
  +1.97179316660332748
  +1.29295925000856914
  -0.0487035187479670028
  -0.267729983913235036
  -0.408310284372383058
  -0.498540316921896042
  -0.556453868337778967
  -0.593625451913147106
  -0.617483489324156131
  -0.632796701643114101
  -0.642625329865562111
  -0.64893375457423108
  -0.652982767092348037
  -0.655581586694228057
  -0.657249612372216063
  -0.65832022454345207
  -0.659007391737684056
  -18.229052266873861
  -18.2299854942917765
  -18.2304313718169002
  +0.749761510520874985
  +0.749740964407819987
  +12.2566298079050128
  +12.2566295050620643
  -0.999573735080333136
  -5.82335090555385459
  -0.46800297832324107
  -0.540629357077223993
  -0.565783031305390071
  -0.579561062270198945
  -0.486530729158519026
  +0.0702351103309650071
  +71.914883275302941
  -1.88124448605984326
  -1.18283061414339885
  +0.278813675365785984
  -0.131702674826508014
  -2.80816549412379821
  -1.77215611877993017
  +1.45541258291918111
  +1.19877195656322822
  +0.46230466013719198
  -0.686767881480321129
  +1.17476104615592102
  +1.68716905641629333
  +2.58323630795499781
  +2.18803347025380068
  +1.56015140625537807
  +2.10935835179842934
  +1.0981640669459194
  +0.130321518867885011
  -147.769480097176746
  +1.89185058489568351
  +0.550752744454725995
  +0.857327875682938156
  +0.243128882037873017
  +0.367955313977398024
  -2.72603256050596476
  +0.936437607390902115
  +1.50970073528471226
  +1.46535421734039728
  +1.33594901692108303
  +1.22704565116427
  +1.1714568282988842
  +1.78990417310440008
  +0.850106623241412151
  +0.654870065141847135
  +0.529577130896123016
  +0.449170368519856033
  +0.39756941664879001
  +0.364454467768993062
  +0.343203008120259012
  +0.329564838663892034
  +0.320812537112126028
  +0.315195745972211005
  +0.311591185299281026
  +0.30927795179427302
  +0.307793436627629013
  +0.30684074944113604
  +0.306229362713922048
  +0.510612628510638089
  +0.510348641707520034
  +0.510222097066188062
  +0.572894423181420009
  +0.572873204171967032
  +0.853632861464494041
  +0.853633338920903028
  +0.405619574913653035
  +0.247497251790298999
  +0.209723123034016012
  +0.375916144727425027
  +0.270892567220267999
  +0.26068292964495705
  +0.219965755802797024
  +0.0306545411026869984
  +6.74085903573887623
  -5.68283181058266961
  -6.81137218140352906
  +3.03082357124412826
  +0.220778020144147024
  +1.55301726169884712
  -1.14529340426654235
  +393.319940548941904
