<Qucs Dataset 0.0.19>
<indep time 247>
  +0.
  +1.00000000000000022E-9
  +2.00000000000000044E-9
  +5.08699937735210205E-9
  +11.3380627856715365E-9
  +17.5891261939909737E-9
  +36.3704110068047281E-9
  +67.9015153864563636E-9
  +125.702920539397688E-9
  +245.381630591093147E-9
  +466.156007293733853E-9
  +893.797192941114815E-9
  +1.72249818770384148E-6
  +3.30400364512432531E-6
  +6.35642990355329562E-6
  +12.2281358789331151E-6
  +23.5010160867447037E-6
  +45.1890573561213404E-6
  +86.8409859864304678E-6
  +166.785816744604442E-6
  +320.429788357969957E-6
  +613.750097801668026E-6
  +0.00100000299999999953
  +0.00100000314285714231
  +0.00100000328571428509
  +0.00100000399999999967
  +0.00100000471428571402
  +0.00100000693387450434
  +0.00100000915346329466
  +0.00100001137305208498
  +0.00100001605655298919
  +0.00100002543993243309
  +0.00100004121566151082
  +0.00100007247973921398
  +0.0010001308624443026
  +0.00100023954732767683
  +0.00100044663832249214
  +0.001000835337556357
  +0.00100156822823657876
  +0.00100295238940743924
  +0.00100556022929456778
  +0.00101047791096253103
  +0.00101975502354151736
  +0.00103722631727003578
  +0.00107017769110360183
  +0.00113219034602649371
  +0.00124887205199982931
  +0.00146765025069983341
  +0.00187395261971412718
  +0.00200000200000000027
  +0.00200000214285714283
  +0.00200000228571428584
  +0.00200000299999999997
  +0.0020000037142857141
  +0.00200000592730810833
  +0.00200001043427846569
  +0.00200001494124882306
  +0.00200002713947193289
  +0.00200004716368344048
  +0.0020000822605858417
  +0.00200015124204463701
  +0.00200027369120826215
  +0.00200050035729810371
  +0.00200092058736968958
  +0.00200168913842778239
  +0.00200310878891794441
  +0.00200572300637825229
  +0.00201053304067044313
  +0.00201939054284264907
  +0.00203571080758121203
  +0.00206576472906203756
  +0.00212086358511021799
  +0.00222187815453188175
  +0.00240707153180493227
  +0.00273719885650906569
  +0.00300000499999999936
  +0.00300000514285714237
  +0.00300000528571428493
  +0.0030000059999999995
  +0.00300000671428571408
  +0.00300000745446555772
  +0.00300000819464540047
  +0.00300000951392694936
  +0.00300001151820881339
  +0.00300001628450240254
  +0.00300002532522023113
  +0.00300004346151413026
  +0.00300008164253988907
  +0.00300015844993057401
  +0.00300031650628006829
  +0.00300064160420834502
  +0.00300130637373971431
  +0.00300267250562069509
  +0.00300547479937094674
  +0.00301122214957688694
  +0.00302300760969564441
  +0.00304714945187662866
  +0.00309646044867182945
  +0.00319798308913253759
  +0.00340410481370427886
  +0.00381634826284776185
  +0.00400000400000000055
  +0.00400000414285714356
  +0.00400000428571428567
  +0.00400000500000000069
  +0.00400000571428571483
  +0.00400000793285832223
  +0.00400001244950638401
  +0.00400001696615444402
  +0.00400002920122971872
  +0.00400004928783958035
  +0.00400008450646517488
  +0.00400015375437032183
  +0.00400027670959801273
  +0.00400050438580059353
  +0.00400092661787985282
  +0.00400169909706889725
  +0.00400312624455948284
  +0.00400575529925279383
  +0.00401059326914847336
  +0.004019506076783669
  +0.00403589099164179643
  +0.00406601275431027175
  +0.00412147057903634284
  +0.00422282453457019979
  +0.00440918503345503243
  +0.00473805650207532469
  +0.00500000700000000009
  +0.0050000071428571422
  +0.00500000728571428521
  +0.00500000799999999934
  +0.00500000871428571436
  +0.00500000945446295919
  +0.00500001001471630779
  +0.00500001109616069339
  +0.00500001276904735814
  +0.00500001667999273813
  +0.0050000244489725274
  +0.00500004029971973906
  +0.00500007443752630109
  +0.00500014515082996879
  +0.00500029408014157272
  +0.0050006084479685251
  +0.00500126817237496901
  +0.00500265825352836834
  +0.00500558409764222833
  +0.00501173485614266756
  +0.00502469138898385647
  +0.00505187886773257766
  +0.00510875382327588134
  +0.00522805251051305486
  +0.00547920764153868411
  +0.00600000599999999995
  +0.00600000614285714206
  +0.00600000628571428507
  +0.00600000700000000009
  +0.00600000771428571422
  +0.00600000992901908336
  +0.00600001443897208996
  +0.00600001894892509746
  +0.0060000311585067676
  +0.00600005120194545416
  +0.00600008633636970856
  +0.00600015539922972607
  +0.00600027800358850527
  +0.00600050497680360006
  +0.00600092579909139445
  +0.00600169544385677244
  +0.00600311731603178699
  +0.00600573478995711163
  +0.00601055296270746453
  +0.0060194184005681155
  +0.00603573225958218095
  +0.00606576459094898101
  +0.00612040674940802276
  +0.00621988349942320084
  +0.00639988904706971695
  +0.00672717186097246955
  +0.00700000900000000036
  +0.00700000914285714337
  +0.00700000928571428637
  +0.00700000999999999962
  +0.00700001071428571375
  +0.00700001126941984885
  +0.00700001171177568881
  +0.00700001258677314641
  +0.00700001395120570357
  +0.00700001727555886255
  +0.00700002417210258087
  +0.00700003880691629376
  +0.00700007184067936183
  +0.00700014335437836177
  +0.00700030077758604463
  +0.00700064848817169682
  +0.00700141129374439064
  +0.00700309211701022871
  +0.00700679200328552465
  +0.00701492572066790209
  +0.00703280041695132851
  +0.00707184251672828256
  +0.00715796479564803966
  +0.0073474338092715028
  +0.00772637183651843173
  +0.00800000800000000111
  +0.00800000814285714234
  +0.00800000828571428712
  +0.00800000899999999859
  +0.00800000971428571361
  +0.00800001192944554873
  +0.00800001644014063195
  +0.00800002095083571163
  +0.00800003316318037782
  +0.00800005321136535485
  +0.00800008835487397718
  +0.00800015743645066379
  +0.00800028007351226655
  +0.00800050710801800057
  +0.00800092805388999472
  +0.00800169781590236084
  +0.00800312009503695165
  +0.00800573723776953727
  +0.00801055429758168635
  +0.00801943575161033983
  +0.00803566988479386168
  +0.00806543246229698418
  +0.00811917044945540133
  +0.0082181614784314334
  +0.00839634533058829113
  +0.00871707626447063432
  +0.00900001099999999887
  +0.00900001114285714365
  +0.00900001128571428488
  +0.0090000119999999999
  +0.00900001271428571314
  +0.0090000128993303754
  +0.00900001300135244797
  +0.00900001327656507577
  +0.00900001375687255311
  +0.00900001544620401361
  +0.00900003077986273858
  +0.0090000963903358162
  +0.00900047456870558271
  +0.00900277762269474024
  +0.00901493887119846171
  +0.00908530038039857323
  +0.00939020025359904764
  +0.0100000000000000022
</indep>
<dep _net0.Vt time>
  +0.
  -0.151819734150759995
  +1.25095314312251604
  +0.544525946296671037
  +1.224141484709786
  +0.564037431462629079
  +0.698789635639300055
  +2.00188445812855331
  +0.388305337440023023
  +0.55051328428740307
  +0.562062742190689057
  +0.584767539037286088
  +0.379468972676465021
  +1.46130459089532038
  -4.13206561119881055
  -0.859760177149751037
  -1.15532688331717814
  -2.49872730940134113
  -0.903656334593821064
  -12.3907145266625318
  +9.60498686837263448
  +8.98954421541071724
  +5.17580477814948114
  +0.902204219846331056
  -6.20173344296918305
  +4.11204675687388743
  +0.611849247122191997
  -0.540791851225815101
  -0.541253051332286094
  -0.540831616079182087
  -0.636627398541678068
  -0.44616326492085907
  -0.82656682157120116
  -2.12764620329609499
  -0.979303681426103089
  -0.641390183672951064
  -0.562187620737204074
  -0.970074665069094166
  -1.1187091744786004
  -1.43564138267384722
  -3.47608968393910311
  -1.02677250500123418
  -0.877038230286368047
  -0.562410271209341061
  -1.15235901628277304
  -10.1522097167024738
  -0.983123182551613084
  -3.23608360039813991
  -5.48707991556900953
  +47.7560881360477829
  +0.17537055770106102
  -0.870253562469478048
  -0.464759567189202993
  -0.146806708074898022
  -2.35357877174068796
  +0.755351679066860093
  -0.78996053941165103
  -0.503232412510334992
  +0.569941849970125069
  +0.355129204405233034
  +0.207871801194057015
  -0.334053016308005057
  -0.962800654312302128
  -0.336716258570558046
  +0.738889210847980137
  -1.93818055202275818
  -1.58799580362820824
  -0.434096362430698068
  -1.12161433186179015
  -0.34301523866316903
  -0.570313755607991001
  -0.31284554458414906
  -0.672245402744858022
  -0.113264739631488997
  -0.788326217803061091
  -0.579113587662464013
  +0.487180254455107064
  -4.4793978210918226
  -2.91251896036981783
  -0.440639452167936074
  +236.095604775000023E-6
  -179.894608255000036E-6
  +0.00324807838582200014
  +332.457015756000062E-6
  -293.998155305999997E-6
  +173.251163607999991E-6
  -205.128900940000047E-6
  -0.0188553778617160006
  -567.393475688000048E-6
  +276.944746509000028E-6
  -254.285282686999991E-6
  +213.108156321999997E-6
  -844.066259178000066E-6
  -483.145285444000016E-6
  -915.199350083000062E-6
  +230.346773630000045E-6
  -142.875948834000006E-6
  +107.133234825000012E-6
  -209.912301800000022E-6
  +205.587194193000044E-6
  -0.0020415332503550001
  +0.0394687868514149986
  +0.220917958161708005
  -0.504800372838414013
  -131.640035395157894
  +0.250265917181414998
  +4.97262580247836627
  +1.06572550258276299
  +0.952021011872923139
  -3.14160039525854717
  -0.481814847098185072
  +1.10295080607691797
  -2.78669394298990447
  +1.14194422692488029
  +1.29936074150477542
  +1.52302433913911805
  +0.962949248297632109
  +1.37895341517680902
  +1.54112580277978716
  +1.81591504077296548
  +2.05152700109985897
  +2.05562560011010431
  +2.31235911388154224
  +2.06772289555589505
  +1.52700533591044518
  +1.51503357545254129
  +1.74664537305085687
  +0.933429040019674083
  +2.03435925607153311
  -8.15261683418134275
  -1.285815899897361
  +0.0105601386120800011
  +238.026829062000055E-6
  -136.185246864999998E-6
  +59.831544312000009E-6
  -72.5160908230000167E-6
  +90.7030599140000148E-6
  -135.695641301000002E-6
  +99.8207845920000025E-6
  -68.4971973470000072E-6
  +64.2098462840000028E-6
  -52.9698708349999947E-6
  +42.346328625000007E-6
  -50.4732693130000065E-6
  +65.1936109110000128E-6
  -62.4220302720000042E-6
  +58.6523237809999997E-6
  -46.3755507140000045E-6
  +36.1859441809999982E-6
  -41.7215570439999972E-6
  +33.4649880850000025E-6
  -36.143152662000002E-6
  +31.3183885750000001E-6
  +0.37216236696157301
  -1.03042779634027725
  -110.093368879430064
  +1.40937487686246409
  +8.32191292403177484
  +3.69393884084979129
  +5.55171276966623672
  +0.107138789780974996
  +1.43706969860132094
  +0.655595988594039003
  +0.58908190196765009
  +0.948819854378294991
  +1.02914429276435637
  +1.16369038315581718
  +1.25809703217846813
  +1.5343084289529032
  +1.37740572592051502
  +1.41523680087843111
  +1.51677897845794902
  +1.47630120075642228
  +1.33950384483930662
  +1.30476530636940912
  +1.48536176559546895
  +1.55871936378053321
  +1.490626389076324
  +1.44019589970247707
  +3.2537224600597514
  -3.60677064854892437
  +1.49069754793140436
  +0.42453019770349103
  +198.357377095000035E-6
  -150.815351356000011E-6
  +67.3166581840000155E-6
  -128.339747358000021E-6
  +333.07050212E-6
  -0.00327334252234500056
  -318.431608217000006E-6
  +89.3006021300000085E-6
  -104.197161434999996E-6
  +96.6839140730000146E-6
  -64.8316035470000073E-6
  +46.4172624589999927E-6
  -39.2514758459999981E-6
  +39.9523518340000052E-6
  -53.5984630799999983E-6
  +86.2570282690000134E-6
  -62.758942996E-6
  +114.15986236700002E-6
  -0.00140460687985000003
  +167.962011433000029E-6
  +729.433077181000033E-6
  +0.102277783366649011
  -0.264339944006411009
  +1.48193133405289412
  -0.565044296532053014
  +7.5877804641959079
  -0.643235475538426104
  -0.771370016153902149
  -0.375273271460852031
  -1.15249503860272706
  -1.13357727648019501
  -2.7753397995223783
  -2.68125257969867547
  -0.782642470412939061
  -0.0638902489193450051
  -0.25562165867801001
  -0.987820814882379139
  -0.415340260906054048
  -2.31505224353310534
  -2.68837408581007419
  +0.596238575893626077
  -0.310632017203193999
  -0.387708910249904015
  +22.6868410667095066
  -23.6849973189905549
  +3.90358034570992309
  +2.45614947306477038
  +2.15468517421443817
  -3.27367140445193882
  +2.11856626383235813
  +0.604998148971263027
  +473.676631475000053E-6
  +8.66845032699999862E-6
  +1.4056867480000001E-6
  +377.392006000000002E-9
  -188.743290000000012E-9
  +396.677374000000035E-9
  -796.388962000000155E-9
  +629.442989000000086E-9
  -361.908898999999983E-9
  +4.74440496299999914E-6
  +7.55552373900000073E-6
  +412.940651999999985E-9
  -4.93659908799999946E-6
</dep>
<dep _net1.Vt time>
  +0.
  -0.19943878130679602
  +1.24868556895703908
  +0.546651218834704
  +1.22208313860771111
  +0.566030958520418092
  +0.696817224957274028
  +2.00384439733730834
  +0.386352168032642051
  +0.552463192350784026
  +0.560114599698376025
  +0.5867147705743041
  +0.377522210982552008
  +1.46325110632176302
  -4.13401199895697324
  -0.857813855438067029
  -1.15727317039736332
  -2.49678104008639634
  -0.905602594393269022
  -12.3887682710673674
  +9.6030406154502188
  +8.99149046607635682
  +5.17385852778333088
  +0.938736671419895962
  -6.1493568179312783
  +4.1602538644910405
  +0.615002983701099026
  -0.543673665716114129
  -0.538619713162727009
  -0.543237901998374095
  -0.634321720317972115
  -0.448420317415023994
  -0.824338203020598925
  -2.12986061041598961
  -0.977096847014107972
  -0.643592960758559051
  -0.559986969916992016
  -0.972274183788228008
  -1.11651025580432405
  -1.43783998351749042
  -3.47389125145816324
  -1.02897084784953207
  -0.874839934735204138
  -0.564608541524016072
  -1.15016075922483418
  -10.1544079661054942
  -0.980924936359768118
  -3.23828184436945942
  -5.48488167224360889
  +47.7538898940968437
  +0.137763607919886998
  -0.922440570104674151
  -0.513109719355293059
  -0.149969802731887007
  -2.35068918017529382
  +0.752587531934891984
  -0.787316390778450081
  -0.505833560572191132
  +0.572517147092059008
  +0.352568540897867066
  +0.210425051210821045
  -0.336602099418503053
  -0.960253819342286973
  -0.33926188164917006
  +0.741434171545181097
  -1.94072515415176543
  -1.58545139598959021
  -0.436640664174571035
  -1.11907008748914038
  -0.345559451783814042
  -0.567769559372617038
  -0.315389731540357054
  -0.669701220776659056
  -0.115808918812818006
  -0.785782040117983981
  -0.581657763343006006
  +0.523557688346921068
  -4.42699384004593632
  -2.86433248950740715
  -0.437487065608167036
  -0.0021658832364370002
  +0.00165030682511300019
  +0.00167578233750199974
  +0.00175531525570499997
  -0.00165837827458499997
  +0.00150777847670000024
  -0.00152502026238499999
  -0.0175423823000390033
  -0.00187697455096700025
  +0.00158486976266700025
  -0.00156140591163300008
  +0.00151983558906200011
  -0.00215060240258799995
  +823.297613719000054E-6
  -0.00222159678751499978
  +0.0015367220416330003
  -0.00144924039438500029
  +0.0014134923819159999
  -0.00151626887535599985
  +0.00151194250019100024
  -0.00334788792248299982
  +0.0407751400990600032
  +0.184219607268964029
  -0.557147721377770022
  -131.688264582665626
  +0.247110736113295015
  +4.97550881742513251
  +1.062967383822776
  +0.954659644740046076
  -3.14419624541005227
  -0.479244715306425028
  +1.10039522823108404
  -2.78414573537162635
  +1.13940016095703411
  +1.30190257352069438
  +1.5204837106948541
  +0.965489218917020153
  +1.37641380036614791
  +1.54366522425571695
  +1.8133757241058424
  +2.05406626059294383
  +2.05308637140657079
  +2.31489832550697016
  +2.06518369286872127
  +1.52954453340732321
  +1.51249438052859925
  +1.74918456626752805
  +0.930889848607680114
  +2.07073798201157233
  -8.10021308108131066
  -1.23762925698636316
  +0.0137125364044940023
  -0.00216395826944200031
  +0.00153820475293300003
  -0.00133111044440299997
  +0.00116151318833499983
  -0.001081793119049
  +0.00100700006945100017
  -0.00102854712166500017
  +0.00105327935131599992
  -0.00105439843677099998
  +0.00106413721960899998
  -0.00107405028703100002
  +0.00106558495424200017
  -0.00105070404962099983
  +0.0010533993541690001
  -0.00105713277884300005
  +0.00106939232852600007
  -0.00107957372713200006
  +0.00107403419072200012
  -0.00108228888915800002
  +0.0010796098360830002
  -0.00108443417169200007
  +0.334836062612369023
  -1.08266432961376102
  -110.141681665336266
  +1.40621422668505307
  +8.32480048390740456
  +3.69117655543523071
  +5.55435521453687819
  +0.104539277776656014
  +1.43964340051134893
  +0.653036895601832068
  +0.591633594701993104
  +0.94627232065856397
  +1.03168958258538312
  +1.16114630261246709
  +1.26064045158136206
  +1.53176536714171929
  +1.37994859327929986
  +1.41269403893103024
  +1.51932168289590325
  +1.47375852734095325
  +1.34204650118113
  +1.30222265920193036
  +1.48790440751140407
  +1.55617672453746536
  +1.49316902661313815
  +1.43765326388297109
  +3.29010029318482821
  -3.55436673806296354
  +1.53888407179214503
  +0.427682587691801963
  -0.00199166771905800015
  +0.00123161248208300011
  -0.00103153544514200001
  +820.440261064000075E-6
  -560.295818045999993E-6
  -0.00240551356826100004
  -0.00117448125980700024
  +940.183018000000103E-6
  -952.703264956000062E-6
  +944.112708053000027E-6
  -911.77310415800008E-6
  +893.13673253400001E-6
  -885.870201330000028E-6
  +886.525313964000005E-6
  -900.150609077000041E-6
  +932.799702242000172E-6
  -909.297280417000131E-6
  +960.696233888999984E-6
  -0.00225114235772000004
  +0.00101449704257100004
  -117.101335272000017E-6
  +0.0650212763353870037
  -0.316588794461465017
  +1.43362783512722202
  -0.568204339117944012
  +7.59066751940275619
  -0.645997298089917038
  -0.768727994259267077
  -0.377872376656988029
  -1.14992173322984303
  -1.136135978732836
  -2.7727884941386085
  -2.68379972745775585
  -0.780097565335264064
  -0.0664339451051429996
  -0.25307862329509998
  -0.990363492628149089
  -0.412797777392186038
  -2.31759462135099303
  -2.68583176499277387
  +0.593696286501428005
  -0.308089744909022034
  -0.390251173047443078
  +22.6893833232557451
  -23.6875395726333648
  +3.90612259875651712
  +2.45360722149725063
  +2.19106310677624804
  -3.22126751149109935
  +2.16675280087165633
  +0.608150539870033135
  -466.856490400000012E-6
  +18.0823113080000013E-6
  -2.99029278300000012E-6
  +3.25831946100000058E-6
  -2.74765908200000019E-6
  +2.92243296300000032E-6
  -3.31445701999999986E-6
  +3.14617971699999987E-6
  -2.87842708000000069E-6
  +7.26088175700000171E-6
  +5.03905409699999928E-6
  +2.92940864300000036E-6
  -7.45306625300000114E-6
</dep>
<dep gnd.Vt time>
  +0.
  -1.15181972462695103
  +0.250953143576031045
  -0.455474054128383087
  +0.224141485121455019
  -0.435962568936076078
  -0.30121036396621803
  +1.00188445773656531
  -0.611694662169343139
  -0.449486716102578043
  -0.437937257419683056
  -0.415232461352159987
  -0.620531026934182072
  +0.461304590506017042
  -5.13206561080953349
  -1.85976017753901619
  -2.15532688292792062
  -3.49872730979059509
  -1.90365633420456816
  -13.3907145270517835
  +8.60498686876188578
  +7.98954421502146683
  +4.17580477853873066
  +0.0450613553217899998
  -6.91601916788061021
  +4.11204674713979034
  +0.611849246491444986
  -0.540791850649451966
  -0.541253051858952982
  -0.540831615597924031
  -0.636627399002814087
  -0.446163264469448073
  -0.826566822016925151
  -2.12764620285321326
  -0.979303681867470032
  -0.641390183232395028
  -0.562187621177334051
  -0.970074664629190053
  -1.11870917491838284
  -1.43564138223412607
  -3.47608968437878917
  -1.02677250456156499
  -0.877038230726028089
  -0.562410270769687059
  -1.15235901672242513
  -10.1522097162628255
  -0.983123182991262112
  -3.23608359995849159
  -5.48707991600865785
  +47.7560881364874312
  +0.0325134224405020066
  -1.15596783759597498
  -1.46475955742649848
  -1.14680670744227919
  -3.35357877231860612
  -0.244648320380309991
  -1.78996053994048098
  -1.50323241199010499
  -0.430058150544934036
  -0.644870795082634007
  -0.79212819931659304
  -1.33405301579818802
  -1.96280065482166943
  -1.33671625806143423
  -0.261110789661012043
  -2.93818055151383727
  -2.58799580413708918
  -1.4340963619218372
  -2.12161433237063912
  -1.34301523815432588
