<Qucs Dataset 0.0.19>
<indep time 12>
  +0.
  +0.01
  +0.02
  +0.0363333333333333285
  +0.123939393939393927
  +0.211545454545454525
  +0.342954545454545467
  +0.474363636363636409
  +0.605772727272727351
  +0.737181818181818382
  +0.868590909090909413
  +1.
</indep>
<dep _net0.Vt time>
  +0.
  +0.0627905153401400095
  +0.125333225202489018
  +0.226311296787351023
  +0.702378919847820082
  +0.970952266847631051
  +0.834235893629194968
  +0.160382357176379031
  -0.616736125108238031
  -0.996758420049893167
  -0.735000621058600067
  +0.
</dep>
<dep post.Vt time>
  +0.
  +0.0418603435607909979
  +0.0835554834697189896
  +0.150874197860748004
  +0.468252613239684034
  +0.647301511242543092
  +0.556157262428732046
  +0.106921571452701003
  -0.411157416745678006
  -0.664505613377670023
  -0.490000414047233068
  +0.
</dep>
<dep pre.Vt time>
  +0.
  +0.0627905153432790097
  +0.125333225208756005
  +0.226311296798666017
  +0.702378919882939101
  +0.970952266896179061
  +0.834235893670906136
  +0.160382357184397967
  -0.616736125139075053
  -0.99675842009973099
  -0.735000621095350048
  +0.
</dep>
<dep Pr1.Vt time>
  +0.
  +0.0418603435607906781
  +0.0835554834697187587
  +0.150874197860748227
  +0.468252613239684567
  +0.647301511242542648
  +0.556157262428732401
  +0.106921571452701225
  -0.411157416745678006
  -0.664505613377670467
  -0.490000414047233068
  +0.
</dep>
<dep Pr2.Vt time>
  +0.
  +0.0627905153401395033
  +0.12533322520248924
  +0.226311296787350535
  +0.702378919847820615
  +0.970952266847631584
  +0.834235893629194791
  +0.160382357176378835
  -0.616736125108238297
  -0.996758420049893167
  -0.735000621058599712
  +0.
</dep>
