<Qucs Dataset 0.0.19>
<indep time 21>
  +0.
  +1.00000000000000022E-9
  +0.00100000299999999953
  +0.00100000399999999967
  +0.00200000200000000027
  +0.00200000299999999997
  +0.00300000499999999936
  +0.0030000059999999995
  +0.00400000400000000055
  +0.00400000500000000069
  +0.00500000700000000009
  +0.00500000799999999934
  +0.00600000599999999995
  +0.00600000700000000009
  +0.00700000900000000036
  +0.00700000999999999962
  +0.00800000800000000111
  +0.00800000899999999859
  +0.00900001099999999887
  +0.0090000119999999999
  +0.0100000000000000022
</indep>
<dep _net0.Vt time>
  +0.
  +0.120563520549119007
  +0.120563520549119007
  +52.849000000000003E-12
  +0.
  -0.130875026003500005
  +0.120563520549119007
  +52.849000000000003E-12
  +0.
  +1.04575392264558897
  +0.120563520549119007
  +52.849000000000003E-12
  +0.
  +1.04575392264558897
  +0.120563520549119007
  +52.849000000000003E-12
  +0.
  -1.3075044453041682
  +0.120563520549119007
  -1.50700800000000034E-9
  +0.
</dep>
<dep _net1.Vt time>
  +0.
  +0.620563470552137985
  +0.620563470552137985
  +99.187000000000011E-12
  +0.
  +0.369124923946896066
  +0.620563470552137985
  +99.187000000000011E-12
  +0.
  +1.54575387284224134
  +0.620563470552137985
  +99.187000000000011E-12
  +0.
  +1.54575387284224134
  +0.620563470552137985
  +99.187000000000011E-12
  +0.
  -0.807504495600027993
  +0.620563470552137985
  -1.02699000000000006E-9
  +0.
</dep>
<dep gnd.Vt time>
  +0.
  -0.379436429447872036
  -0.379436429447872036
  +6.5120000000000013E-12
  +0.
  -0.630874975960439066
  -0.379436429447872036
  +6.5120000000000013E-12
  +0.
  +0.545753972501224993
  -0.379436429447872036
  +6.5120000000000013E-12
  +0.
  +0.545753972501224993
  -0.379436429447872036
  +6.5120000000000013E-12
  +0.
  -1.80750439507368216
  -0.379436429447872036
  -1.98702700000000014E-9
  +0.
</dep>
<dep Pr1.Vt time>
  +0.
  +0.499999949996990977
  +0.499999949996990977
  +46.337513507463699E-12
  -26.769694883981505E-18
  +0.49999994995693946
  +0.499999949996990977
  +46.337513507463699E-12
  -26.769694883981505E-18
  +0.499999950144364024
  +0.499999949996990977
  +46.337513507463699E-12
  -26.769694883981505E-18
  +0.499999950144364024
  +0.499999949996990977
  +46.337513507463699E-12
  -26.769694883981505E-18
  +0.499999949769514451
  +0.499999949996990977
  +480.01837718661191E-12
  +11.244337735660228E-18
</dep>
<dep Pr0.Vt time>
  +0.
  +0.999999900000009844
  +0.999999900000009844
  +92.675027017569888E-12
  -53.539389768643905E-18
  +0.999999899907334999
  +0.999999900000009844
  +92.675027017569888E-12
  -53.539389768643905E-18
  +0.999999900341015646
  +0.999999900000009844
  +92.675027017569888E-12
  -53.539389768643905E-18
  +0.999999900341015646
  +0.999999900000009844
  +92.675027017569888E-12
  -53.539389768643905E-18
  +0.999999899473653997
  +0.999999900000009844
  +960.03675429787342E-12
  +22.488675473464896E-18
</dep>
