<Qucs Dataset 0.0.19>
<indep time 21>
  +0.
  +1.00000000000000022E-9
  +0.00100000299999999953
  +0.00100000399999999967
  +0.00200000200000000027
  +0.00200000299999999997
  +0.00300000499999999936
  +0.0030000059999999995
  +0.00400000400000000055
  +0.00400000500000000069
  +0.00500000700000000009
  +0.00500000799999999934
  +0.00600000599999999995
  +0.00600000700000000009
  +0.00700000900000000036
  +0.00700000999999999962
  +0.00800000800000000111
  +0.00800000899999999859
  +0.00900001099999999887
  +0.0090000119999999999
  +0.0100000000000000022
</indep>
<dep _net1.Vt time>
  +0.
  +0.
  +0.
  +0.
  +0.
  +0.
  +0.
  +0.
  +0.
  +0.
  +0.
  +0.
  +0.
  +0.
  +0.
  +0.
  +0.
  +0.
  +0.
  -135.525271999999996E-9
  +0.
</dep>
<dep gnd.Vt time>
  +0.
  -1.
  -1.
  -92.675E-12
  +0.
  -0.999999999907325154
  -1.
  -92.675E-12
  +0.
  -1.00000000034100611
  -1.
  -92.675E-12
  +0.
  -1.00000000034100611
  -1.
  -92.675E-12
  +0.
  -0.999999999473643974
  -1.
  -136.485308000000005E-9
  +0.
</dep>
<dep Pr1.Vt time>
  +0.
  +1.
  +1.
  +92.675036285072582E-12
  -53.539395122582895E-18
  +0.999999999907324976
  +1.
  +92.675036285072582E-12
  -53.539395122582895E-18
  +1.00000000034100589
  +1.
  +92.675036285072582E-12
  -53.539395122582895E-18
  +1.00000000034100589
  +1.
  +92.675036285072582E-12
  -53.539395122582895E-18
  +0.999999999473643974
  +1.
  +960.03685030154315E-12
  +22.488677722332446E-18
</dep>
