<Qucs Dataset>
default plugins: ignored
parameter pos.Vt-neg.Vt not specified, using default
parameter pos.Vt-neg.Vt value is "NOT_INPUT"
parameter pos.Vt-neg.Vt not specified, using default
parameter pos.Vt-neg.Vt value is "NOT_INPUT"
parameter pos.Vt-neg.Vt not specified, using default
parameter pos.Vt-neg.Vt value is "NOT_INPUT"
parameter pos.Vt-neg.Vt not specified, using default
parameter pos.Vt-neg.Vt value is "NOT_INPUT"
parameter pos.Vt-neg.Vt not specified, using default
parameter pos.Vt-neg.Vt value is "NOT_INPUT"
parameter pos.Vt-neg.Vt not specified, using default
parameter pos.Vt-neg.Vt value is "NOT_INPUT"
parameter pos.Vt-neg.Vt not specified, using default
parameter pos.Vt-neg.Vt value is "NOT_INPUT"
parameter pos.Vt-neg.Vt not specified, using default
parameter pos.Vt-neg.Vt value is "NOT_INPUT"
parameter pos.Vt-neg.Vt not specified, using default
parameter pos.Vt-neg.Vt value is "NOT_INPUT"
parameter pos.Vt-neg.Vt not specified, using default
parameter pos.Vt-neg.Vt value is "NOT_INPUT"
parameter pos.Vt-neg.Vt not specified, using default
parameter pos.Vt-neg.Vt value is "NOT_INPUT"
parameter pos.Vt-neg.Vt not specified, using default
parameter pos.Vt-neg.Vt value is "NOT_INPUT"
parameter pos.Vt-neg.Vt not specified, using default
parameter pos.Vt-neg.Vt value is "NOT_INPUT"
parameter pos.Vt-neg.Vt not specified, using default
parameter pos.Vt-neg.Vt value is "NOT_INPUT"
parameter pos.Vt-neg.Vt not specified, using default
parameter pos.Vt-neg.Vt value is "NOT_INPUT"
parameter pos.Vt-neg.Vt not specified, using default
parameter pos.Vt-neg.Vt value is "NOT_INPUT"
parameter pos.Vt-neg.Vt not specified, using default
parameter pos.Vt-neg.Vt value is "NOT_INPUT"
parameter pos.Vt-neg.Vt not specified, using default
parameter pos.Vt-neg.Vt value is "NOT_INPUT"
parameter pos.Vt-neg.Vt not specified, using default
parameter pos.Vt-neg.Vt value is "NOT_INPUT"
parameter pos.Vt-neg.Vt not specified, using default
parameter pos.Vt-neg.Vt value is "NOT_INPUT"
parameter pos.Vt-neg.Vt not specified, using default
parameter pos.Vt-neg.Vt value is "NOT_INPUT"
parameter pos.Vt-neg.Vt not specified, using default
parameter pos.Vt-neg.Vt value is "NOT_INPUT"
parameter pos.Vt-neg.Vt not specified, using default
parameter pos.Vt-neg.Vt value is "NOT_INPUT"
parameter pos.Vt-neg.Vt not specified, using default
parameter pos.Vt-neg.Vt value is "NOT_INPUT"
parameter pos.Vt-neg.Vt not specified, using default
parameter pos.Vt-neg.Vt value is "NOT_INPUT"
parameter pos.Vt-neg.Vt not specified, using default
parameter pos.Vt-neg.Vt value is "NOT_INPUT"
parameter pos.Vt-neg.Vt not specified, using default
parameter pos.Vt-neg.Vt value is "NOT_INPUT"
parameter pos.Vt-neg.Vt not specified, using default
parameter pos.Vt-neg.Vt value is "NOT_INPUT"
parameter pos.Vt-neg.Vt not specified, using default
parameter pos.Vt-neg.Vt value is "NOT_INPUT"
parameter pos.Vt-neg.Vt not specified, using default
parameter pos.Vt-neg.Vt value is "NOT_INPUT"
parameter pos.Vt-neg.Vt not specified, using default
parameter pos.Vt-neg.Vt value is "NOT_INPUT"
parameter pos.Vt-neg.Vt not specified, using default
parameter pos.Vt-neg.Vt value is "NOT_INPUT"
parameter pos.Vt-neg.Vt not specified, using default
parameter pos.Vt-neg.Vt value is "NOT_INPUT"
parameter pos.Vt-neg.Vt not specified, using default
parameter pos.Vt-neg.Vt value is "NOT_INPUT"
parameter pos.Vt-neg.Vt not specified, using default
parameter pos.Vt-neg.Vt value is "NOT_INPUT"
parameter pos.Vt-neg.Vt not specified, using default
parameter pos.Vt-neg.Vt value is "NOT_INPUT"
parameter pos.Vt-neg.Vt not specified, using default
parameter pos.Vt-neg.Vt value is "NOT_INPUT"
parameter pos.Vt-neg.Vt not specified, using default
parameter pos.Vt-neg.Vt value is "NOT_INPUT"
parameter pos.Vt-neg.Vt not specified, using default
parameter pos.Vt-neg.Vt value is "NOT_INPUT"
parameter pos.Vt-neg.Vt not specified, using default
parameter pos.Vt-neg.Vt value is "NOT_INPUT"
parameter pos.Vt-neg.Vt not specified, using default
parameter pos.Vt-neg.Vt value is "NOT_INPUT"
parameter pos.Vt-neg.Vt not specified, using default
parameter pos.Vt-neg.Vt value is "NOT_INPUT"
parameter pos.Vt-neg.Vt not specified, using default
parameter pos.Vt-neg.Vt value is "NOT_INPUT"
parameter pos.Vt-neg.Vt not specified, using default
parameter pos.Vt-neg.Vt value is "NOT_INPUT"
parameter pos.Vt-neg.Vt not specified, using default
parameter pos.Vt-neg.Vt value is "NOT_INPUT"
parameter pos.Vt-neg.Vt not specified, using default
parameter pos.Vt-neg.Vt value is "NOT_INPUT"
parameter pos.Vt-neg.Vt not specified, using default
parameter pos.Vt-neg.Vt value is "NOT_INPUT"
parameter pos.Vt-neg.Vt not specified, using default
parameter pos.Vt-neg.Vt value is "NOT_INPUT"
parameter pos.Vt-neg.Vt not specified, using default
parameter pos.Vt-neg.Vt value is "NOT_INPUT"
parameter pos.Vt-neg.Vt not specified, using default
parameter pos.Vt-neg.Vt value is "NOT_INPUT"
parameter pos.Vt-neg.Vt not specified, using default
parameter pos.Vt-neg.Vt value is "NOT_INPUT"
parameter pos.Vt-neg.Vt not specified, using default
parameter pos.Vt-neg.Vt value is "NOT_INPUT"
parameter pos.Vt-neg.Vt not specified, using default
parameter pos.Vt-neg.Vt value is "NOT_INPUT"
parameter pos.Vt-neg.Vt not specified, using default
parameter pos.Vt-neg.Vt value is "NOT_INPUT"
parameter pos.Vt-neg.Vt not specified, using default
parameter pos.Vt-neg.Vt value is "NOT_INPUT"
parameter pos.Vt-neg.Vt not specified, using default
parameter pos.Vt-neg.Vt value is "NOT_INPUT"
parameter pos.Vt-neg.Vt not specified, using default
parameter pos.Vt-neg.Vt value is "NOT_INPUT"
parameter pos.Vt-neg.Vt not specified, using default
parameter pos.Vt-neg.Vt value is "NOT_INPUT"
parameter pos.Vt-neg.Vt not specified, using default
parameter pos.Vt-neg.Vt value is "NOT_INPUT"
parameter pos.Vt-neg.Vt not specified, using default
parameter pos.Vt-neg.Vt value is "NOT_INPUT"
parameter pos.Vt-neg.Vt not specified, using default
parameter pos.Vt-neg.Vt value is "NOT_INPUT"
parameter pos.Vt-neg.Vt not specified, using default
parameter pos.Vt-neg.Vt value is "NOT_INPUT"
Gnucap   System status
iterations: op=0, dc=10, tran=506, fourier=0, total=575
transient timesteps: accepted=59, rejected=0, total=59
transient timesteps: accepted=0, rejected=0, total=0
nodes: user=9, subckt=1, model=0, total=10
dctran density=56.0%, ac density=56.0%

<indep _net0.V 1>
 0.7505094
</indep>
<indep _net1.V 1>
 9.168043
</indep>
<indep _net2.V 1>
 9.900496
</indep>
<indep _net3.V 1>
 9.900496
</indep>
<indep _net4.V 1>
 10.
</indep>
<indep _net5.V 1>
-2.E-15
</indep>
<indep _net6.V 1>
 0.
</indep>
<indep neg.V 1>
 9.701491
</indep>
<indep pos.V 1>
 9.701491
</indep>
<indep time 59>
 0.
 10.E-6
 20.E-6
 38.49057E-6
 53.05889E-6
 67.62722E-6
 82.19554E-6
 96.76387E-6
 111.3322E-6
 125.9005E-6
 140.4688E-6
 165.0269E-6
 182.7923E-6
 200.5576E-6
 218.323E-6
 236.0884E-6
 253.8538E-6
 271.6192E-6
 289.3846E-6
 307.15E-6
 324.9154E-6
 342.6807E-6
 360.4461E-6
 378.2115E-6
 395.9769E-6
 413.7423E-6
 431.5077E-6
 449.2731E-6
 467.0384E-6
 484.8038E-6
 502.5692E-6
 520.3346E-6
 538.1E-6
 555.8654E-6
 573.6308E-6
 591.3961E-6
 609.1615E-6
 626.9269E-6
 644.6923E-6
 662.4577E-6
 680.2231E-6
 697.9885E-6
 715.7538E-6
 733.5192E-6
 751.2846E-6
 769.05E-6
 786.8154E-6
 804.5808E-6
 822.3462E-6
 840.1115E-6
 857.8769E-6
 875.6423E-6
 893.4077E-6
 911.1731E-6
 928.9385E-6
 946.7039E-6
 964.4692E-6
 982.2346E-6
 0.001
</indep>
<dep _net0.Vt time>
 0.7505094
 0.7513089
 0.7520814
 0.7534346
 0.7544287
 0.7553565
 0.7562165
 0.7570072
 0.7577278
 0.7583774
 0.7589556
 0.7597678
 0.7602277
 0.7605803
 0.7608256
 0.7609634
 0.7609938
 0.7609168
 0.7607324
 0.7604405
 0.7600413
 0.7595349
 0.7589214
 0.7582012
 0.7573751
 0.756444
 0.7554095
 0.7542739
 0.7530405
 0.7517138
 0.7502998
 0.7488067
 0.7472455
 0.7456301
 0.7439783
 0.7423127
 0.7406606
 0.739055
 0.737534
 0.7361403
 0.7349191
 0.7339156
 0.7331714
 0.7327199
 0.7325826
 0.7327662
 0.7332616
 0.7340456
 0.7350832
 0.7363322
 0.7377472
 0.7392829
 0.7408975
 0.7425534
 0.7442187
 0.7458664
 0.747475
 0.7490272
 0.7505094
</dep>
<dep _net1.Vt time>
 9.168043
 9.234151
 9.239439
 9.195536
 9.149939
 9.159542
 9.137295
 9.096992
 9.087688
 9.079714
 9.049466
 9.032575
 9.020114
 9.111898
 9.001693
 8.993476
 8.983731
 9.000276
 8.996818
 9.000414
 9.028985
 9.028244
 9.052047
 9.084367
 9.084099
 9.126423
 9.158988
 9.151109
 9.214799
 9.240856
 9.190789
 9.305728
 9.307363
 9.260874
 9.384818
 9.313091
 9.327028
 9.434179
 9.284177
 9.382862
 9.445672
 9.247493
 9.424674
 9.432032
 9.242879
 9.449273
 9.399824
 9.284473
 9.454178
 9.351661
 9.320267
 9.433631
 9.291056
 9.342627
 9.379045
 9.22272
 9.315766
 9.298107
 9.168043
</dep>
<dep _net2.Vt time>
 9.900496
 9.985476
 9.991727
 9.94908
 9.808247
 9.468128
 9.444318
 9.752642
 9.845645
 9.838479
 9.808648
 9.38799
 9.339796
 9.861715
 9.762929
 9.754797
 9.624921
 9.273231
 9.448812
 9.761069
 9.789452
 9.787971
 9.506345
 9.353412
 9.716411
 9.883105
 9.914677
 9.896292
 9.529538
 9.584808
 9.93983
 10.05465
 10.05456
 9.826318
 9.630842
 9.798054
 10.06756
 10.17315
 10.02154
 9.766379
 9.707301
 9.91612
 10.15772
 10.16463
 9.930102
 9.716591
 9.764645
 10.01828
 10.18914
 10.08786
 9.820491
 9.673404
 9.830667
 10.08506
 10.12327
 9.967976
 9.668924
 9.598205
 9.900496
</dep>
<dep _net3.Vt time>
 9.900496
 9.691738
 9.51644
 9.618392
 9.903662
 9.915166
 9.893804
 9.853488
 9.519202
 9.339609
 9.527034
 9.792688
 9.780726
 9.844228
 9.306635
 9.371631
 9.744626
 9.761629
 9.757847
 9.544154
 9.289814
 9.566267
 9.811213
 9.842944
 9.841318
 9.503308
 9.456167
 9.873492
 9.968037
 9.992701
 9.859532
 9.576195
 9.714725
 10.00635
 10.12881
 10.05528
 9.795479
 9.676971
 9.857934
 10.11887
 10.18047
 9.979108
 9.739879
 9.734694
 9.970389
 10.18191
 10.13296
 9.876414
 9.69623
 9.796915
 10.05788
 10.17283
 10.03181
 9.762298
 9.638681
 9.865229
 10.06324
 10.04723
 9.900496
</dep>
<dep _net4.Vt time>
 10.
 10.
 10.
 10.
 10.
 10.
 10.
 10.
 10.
 10.
 10.
 10.
 10.
 10.
 10.
 10.
 10.
 10.
 10.
 10.
 10.
 10.
 10.
 10.
 10.
 10.
 10.
 10.
 10.
 10.
 10.
 10.
 10.
 10.
 10.
 10.
 10.
 10.
 10.
 10.
 10.
 10.
 10.
 10.
 10.
 10.
 10.
 10.
 10.
 10.
 10.
 10.
 10.
 10.
 10.
 10.
 10.
 10.
 10.
</dep>
<dep _net5.Vt time>
-2.E-15
 0.2937385
 0.4752865
 0.3306874
-0.09541434
-0.4470375
-0.449486
-0.1008459
 0.3264428
 0.4988697
 0.2816143
-0.4046982
-0.4409299
 0.01748707
 0.4562943
 0.3831659
-0.1197052
-0.4883981
-0.309035
 0.2169151
 0.4996378
 0.2217048
-0.3048675
-0.4895319
-0.1249071
 0.3797971
 0.4585097
 0.02280026
-0.4384986
-0.4078926
 0.08029802
 0.4784593
 0.3398345
-0.1800364
-0.4979662
-0.2572228
 0.2720818
 0.4961784
 0.1636017
-0.3524953
-0.4731697
-0.06298868
 0.4178399
 0.4299306
-0.04028724
-0.4653225
-0.3683123
 0.1418689
 0.4929132
 0.2909489
-0.2373918
-0.4994296
-0.2011471
 0.322764
 0.484588
 0.1027468
-0.3943191
-0.4490251
 0.
</dep>
<dep _net6.Vt time>
 0.
 0.2938926
 0.4755283
 0.3308782
-0.09550739
-0.4473034
-0.4497638
-0.100967
 0.3266832
 0.4991999
 0.2818507
-0.4050042
-0.44126
 0.01751544
 0.456641
 0.3834801
-0.1198912
-0.4887615
-0.3093106
 0.217143
 0.4999929
 0.2219216
-0.3051143
-0.4898552
-0.1250479
 0.3800454
 0.4587816
 0.0228298
-0.4387338
-0.4081002
 0.08036401
 0.4786712
 0.3399771
-0.1801232
-0.4981508
-0.2573237
 0.2721841
 0.4963399
 0.1636727
-0.3526121
-0.473316
-0.06302641
 0.4179699
 0.4300632
-0.04031353
-0.4654642
-0.36843
 0.1419305
 0.493065
 0.2910504
-0.2374816
-0.4995929
-0.2012317
 0.3228829
 0.4847687
 0.1028126
-0.3944846
-0.449226
 0.
</dep>
<dep neg.Vt time>
 9.701491
 9.386009
 9.369775
 9.33464
 9.983018
 10.
 10.
 9.984677
 9.216372
 9.198997
 9.178262
 10.
 10.
 9.415862
 9.119877
 9.114247
 9.991239
 10.
 9.999994
 9.129756
 9.146434
 9.159291
 9.999994
 10.
 9.993785
 9.254454
 9.284278
 9.51168
 10.
 10.
 9.43327
 9.44376
 9.474592
 9.999532
 10.
 9.999979
 9.59207
 9.61693
 9.639142
 10.
 10.
 9.974693
 9.694615
 9.699901
 9.948062
 10.
 10.
 9.685413
 9.671253
 9.654916
 9.999962
 10.
 9.999827
 9.561166
 9.53311
 9.510312
 10.
 10.
 9.701491
</dep>
<dep pos.Vt time>
 9.701491
 9.999993
 10.
 9.999998
 9.323129
 9.285575
 9.261787
 9.249864
 9.999997
 10.
 9.999984
 9.154039
 9.139543
 9.702906
 10.
 10.
 9.118303
 9.117238
 9.121042
 9.999798
 10.
 9.999838
 9.179624
 9.204244
 9.230433
 10.
 10.
 9.797764
 9.345846
 9.377734
 9.97458
 10.
 9.999999
 9.506131
 9.537495
 9.565182
 9.999989
 10.
 9.999354
 9.65747
 9.673308
 9.710998
 10.
 10.
 9.753418
 9.699373
 9.693543
 9.998695
 10.
 9.999995
 9.635544
 9.613578
 9.588467
 9.999998
 10.
 9.990781
 9.470434
 9.438733
 9.701491
</dep>
