<Qucs Dataset>
default plugins: ignored
;: already installed, replacing
stashing as ;:0
*: already installed, replacing
stashing as *:0
': already installed, replacing
stashing as ':0
": already installed, replacing
stashing as ":0
store: already installed, replacing
stashing as store:0
alarm: already installed, replacing
stashing as alarm:0
iplot: already installed, replacing
stashing as iplot:0
plot: already installed, replacing
stashing as plot:0
iprint: already installed, replacing
stashing as iprint:0
print: already installed, replacing
stashing as print:0
probe: already installed, replacing
stashing as probe:0
d: already installed, replacing
stashing as d:0
diode: already installed, replacing
stashing as diode:0
npn: already installed, replacing
stashing as npn:0
pnp: already installed, replacing
stashing as pnp:0
npn1: already installed, replacing
stashing as npn1:0
pnp1: already installed, replacing
stashing as pnp1:0
Q: already installed, replacing
stashing as Q:0
bjt: already installed, replacing
stashing as bjt:0
L: already installed, replacing
stashing as L:0
parameter pos.Vt-neg.Vt not specified, using default
parameter pos.Vt-neg.Vt value is "NOT_INPUT"
parameter pos.Vt-neg.Vt not specified, using default
parameter pos.Vt-neg.Vt value is "NOT_INPUT"
parameter pos.Vt-neg.Vt not specified, using default
parameter pos.Vt-neg.Vt value is "NOT_INPUT"
parameter pos.Vt-neg.Vt not specified, using default
parameter pos.Vt-neg.Vt value is "NOT_INPUT"
parameter pos.Vt-neg.Vt not specified, using default
parameter pos.Vt-neg.Vt value is "NOT_INPUT"
parameter pos.Vt-neg.Vt not specified, using default
parameter pos.Vt-neg.Vt value is "NOT_INPUT"
parameter pos.Vt-neg.Vt not specified, using default
parameter pos.Vt-neg.Vt value is "NOT_INPUT"
parameter pos.Vt-neg.Vt not specified, using default
parameter pos.Vt-neg.Vt value is "NOT_INPUT"
parameter pos.Vt-neg.Vt not specified, using default
parameter pos.Vt-neg.Vt value is "NOT_INPUT"
parameter pos.Vt-neg.Vt not specified, using default
parameter pos.Vt-neg.Vt value is "NOT_INPUT"
parameter pos.Vt-neg.Vt not specified, using default
parameter pos.Vt-neg.Vt value is "NOT_INPUT"
parameter pos.Vt-neg.Vt not specified, using default
parameter pos.Vt-neg.Vt value is "NOT_INPUT"
parameter pos.Vt-neg.Vt not specified, using default
parameter pos.Vt-neg.Vt value is "NOT_INPUT"
parameter pos.Vt-neg.Vt not specified, using default
parameter pos.Vt-neg.Vt value is "NOT_INPUT"
parameter pos.Vt-neg.Vt not specified, using default
parameter pos.Vt-neg.Vt value is "NOT_INPUT"
parameter pos.Vt-neg.Vt not specified, using default
parameter pos.Vt-neg.Vt value is "NOT_INPUT"
parameter pos.Vt-neg.Vt not specified, using default
parameter pos.Vt-neg.Vt value is "NOT_INPUT"
parameter pos.Vt-neg.Vt not specified, using default
parameter pos.Vt-neg.Vt value is "NOT_INPUT"
parameter pos.Vt-neg.Vt not specified, using default
parameter pos.Vt-neg.Vt value is "NOT_INPUT"
parameter pos.Vt-neg.Vt not specified, using default
parameter pos.Vt-neg.Vt value is "NOT_INPUT"
parameter pos.Vt-neg.Vt not specified, using default
parameter pos.Vt-neg.Vt value is "NOT_INPUT"
parameter pos.Vt-neg.Vt not specified, using default
parameter pos.Vt-neg.Vt value is "NOT_INPUT"
parameter pos.Vt-neg.Vt not specified, using default
parameter pos.Vt-neg.Vt value is "NOT_INPUT"
parameter pos.Vt-neg.Vt not specified, using default
parameter pos.Vt-neg.Vt value is "NOT_INPUT"
parameter pos.Vt-neg.Vt not specified, using default
parameter pos.Vt-neg.Vt value is "NOT_INPUT"
parameter pos.Vt-neg.Vt not specified, using default
parameter pos.Vt-neg.Vt value is "NOT_INPUT"
parameter pos.Vt-neg.Vt not specified, using default
parameter pos.Vt-neg.Vt value is "NOT_INPUT"
parameter pos.Vt-neg.Vt not specified, using default
parameter pos.Vt-neg.Vt value is "NOT_INPUT"
parameter pos.Vt-neg.Vt not specified, using default
parameter pos.Vt-neg.Vt value is "NOT_INPUT"
parameter pos.Vt-neg.Vt not specified, using default
parameter pos.Vt-neg.Vt value is "NOT_INPUT"
parameter pos.Vt-neg.Vt not specified, using default
parameter pos.Vt-neg.Vt value is "NOT_INPUT"
parameter pos.Vt-neg.Vt not specified, using default
parameter pos.Vt-neg.Vt value is "NOT_INPUT"
parameter pos.Vt-neg.Vt not specified, using default
parameter pos.Vt-neg.Vt value is "NOT_INPUT"
parameter pos.Vt-neg.Vt not specified, using default
parameter pos.Vt-neg.Vt value is "NOT_INPUT"
parameter pos.Vt-neg.Vt not specified, using default
parameter pos.Vt-neg.Vt value is "NOT_INPUT"
parameter pos.Vt-neg.Vt not specified, using default
parameter pos.Vt-neg.Vt value is "NOT_INPUT"
parameter pos.Vt-neg.Vt not specified, using default
parameter pos.Vt-neg.Vt value is "NOT_INPUT"
parameter pos.Vt-neg.Vt not specified, using default
parameter pos.Vt-neg.Vt value is "NOT_INPUT"
parameter pos.Vt-neg.Vt not specified, using default
parameter pos.Vt-neg.Vt value is "NOT_INPUT"
parameter pos.Vt-neg.Vt not specified, using default
parameter pos.Vt-neg.Vt value is "NOT_INPUT"
parameter pos.Vt-neg.Vt not specified, using default
parameter pos.Vt-neg.Vt value is "NOT_INPUT"
parameter pos.Vt-neg.Vt not specified, using default
parameter pos.Vt-neg.Vt value is "NOT_INPUT"
parameter pos.Vt-neg.Vt not specified, using default
parameter pos.Vt-neg.Vt value is "NOT_INPUT"
parameter pos.Vt-neg.Vt not specified, using default
parameter pos.Vt-neg.Vt value is "NOT_INPUT"
parameter pos.Vt-neg.Vt not specified, using default
parameter pos.Vt-neg.Vt value is "NOT_INPUT"
parameter pos.Vt-neg.Vt not specified, using default
parameter pos.Vt-neg.Vt value is "NOT_INPUT"
parameter pos.Vt-neg.Vt not specified, using default
parameter pos.Vt-neg.Vt value is "NOT_INPUT"
parameter pos.Vt-neg.Vt not specified, using default
parameter pos.Vt-neg.Vt value is "NOT_INPUT"
parameter pos.Vt-neg.Vt not specified, using default
parameter pos.Vt-neg.Vt value is "NOT_INPUT"
parameter pos.Vt-neg.Vt not specified, using default
parameter pos.Vt-neg.Vt value is "NOT_INPUT"
parameter pos.Vt-neg.Vt not specified, using default
parameter pos.Vt-neg.Vt value is "NOT_INPUT"
parameter pos.Vt-neg.Vt not specified, using default
parameter pos.Vt-neg.Vt value is "NOT_INPUT"
parameter pos.Vt-neg.Vt not specified, using default
parameter pos.Vt-neg.Vt value is "NOT_INPUT"
parameter pos.Vt-neg.Vt not specified, using default
parameter pos.Vt-neg.Vt value is "NOT_INPUT"
parameter pos.Vt-neg.Vt not specified, using default
parameter pos.Vt-neg.Vt value is "NOT_INPUT"
parameter pos.Vt-neg.Vt not specified, using default
parameter pos.Vt-neg.Vt value is "NOT_INPUT"
parameter pos.Vt-neg.Vt not specified, using default
parameter pos.Vt-neg.Vt value is "NOT_INPUT"
parameter pos.Vt-neg.Vt not specified, using default
parameter pos.Vt-neg.Vt value is "NOT_INPUT"
parameter pos.Vt-neg.Vt not specified, using default
parameter pos.Vt-neg.Vt value is "NOT_INPUT"
parameter pos.Vt-neg.Vt not specified, using default
parameter pos.Vt-neg.Vt value is "NOT_INPUT"
parameter pos.Vt-neg.Vt not specified, using default
parameter pos.Vt-neg.Vt value is "NOT_INPUT"
parameter pos.Vt-neg.Vt not specified, using default
parameter pos.Vt-neg.Vt value is "NOT_INPUT"
Gnucap   System status
iterations: op=0, dc=10, tran=507, fourier=0, total=576
transient timesteps: accepted=59, rejected=0, total=59
transient timesteps: accepted=0, rejected=0, total=0
nodes: user=9, subckt=1, model=0, total=10
dctran density=56.0%, ac density=56.0%

<indep _net0.V 1>
 0.7507278
</indep>
<indep _net1.V 1>
 9.167816
</indep>
<indep _net2.V 1>
 9.900497
</indep>
<indep _net3.V 1>
 9.900497
</indep>
<indep _net4.V 1>
 10.
</indep>
<indep _net5.V 1>
-5.E-15
</indep>
<indep _net6.V 1>
 0.
</indep>
<indep neg.V 1>
 9.701491
</indep>
<indep pos.V 1>
 9.701491
</indep>
<indep time 59>
 0.
 10.E-6
 20.E-6
 38.49057E-6
 53.05889E-6
 67.62722E-6
 82.19554E-6
 96.76387E-6
 111.3322E-6
 125.9005E-6
 140.4688E-6
 165.0269E-6
 182.7923E-6
 200.5576E-6
 218.323E-6
 236.0884E-6
 253.8538E-6
 271.6192E-6
 289.3846E-6
 307.15E-6
 324.9153E-6
 342.6807E-6
 360.4461E-6
 378.2115E-6
 395.9769E-6
 413.7423E-6
 431.5077E-6
 449.273E-6
 467.0384E-6
 484.8038E-6
 502.5692E-6
 520.3346E-6
 538.1E-6
 555.8654E-6
 573.6307E-6
 591.3961E-6
 609.1615E-6
 626.9269E-6
 644.6923E-6
 662.4577E-6
 680.2231E-6
 697.9884E-6
 715.7538E-6
 733.5192E-6
 751.2846E-6
 769.05E-6
 786.8154E-6
 804.5808E-6
 822.3461E-6
 840.1115E-6
 857.8769E-6
 875.6423E-6
 893.4077E-6
 911.1731E-6
 928.9385E-6
 946.7038E-6
 964.4692E-6
 982.2346E-6
 0.001
</indep>
<dep _net0.Vt time>
 0.7507278
 0.7515269
 0.752299
 0.7536516
 0.7546451
 0.7555725
 0.7564321
 0.7572224
 0.7579426
 0.7585919
 0.7591698
 0.7599816
 0.7604413
 0.7607937
 0.7610389
 0.7611766
 0.761207
 0.76113
 0.7609457
 0.760654
 0.760255
 0.7597488
 0.7591356
 0.7584158
 0.7575901
 0.7566594
 0.7556255
 0.7544905
 0.7532577
 0.7519316
 0.7505183
 0.749026
 0.7474656
 0.7458509
 0.7442
 0.7425352
 0.740884
 0.7392791
 0.7377589
 0.7363659
 0.7351453
 0.7341423
 0.7333985
 0.7329473
 0.73281
 0.7329935
 0.7334887
 0.7342723
 0.7353094
 0.7365577
 0.737972
 0.739507
 0.7411207
 0.7427758
 0.7444402
 0.7460872
 0.747695
 0.7492463
 0.7507278
</dep>
<dep _net1.Vt time>
 9.167816
 9.234134
 9.239454
 9.195543
 9.149861
 9.159565
 9.137321
 9.096962
 9.087713
 9.079744
 9.049492
 9.032606
 9.020145
 9.111677
 9.001725
 8.993507
 8.983736
 9.000308
 8.996848
 9.00044
 9.029017
 9.028268
 9.052073
 9.084397
 9.084092
 9.126447
 9.159012
 9.150887
 9.214816
 9.240864
 9.190587
 9.305729
 9.307297
 9.260669
 9.384779
 9.312877
 9.326809
 9.434049
 9.283952
 9.38264
 9.445467
 9.247261
 9.424454
 9.431811
 9.242646
 9.449053
 9.399599
 9.284246
 9.453982
 9.351435
 9.32004
 9.433507
 9.290833
 9.342442
 9.379005
 9.222501
 9.315733
 9.298104
 9.167819
</dep>
<dep _net2.Vt time>
 9.900497
 9.985676
 9.991959
 9.949304
 9.808388
 9.468367
 9.444559
 9.752829
 9.845884
 9.838723
 9.808888
 9.388234
 9.340041
 9.861716
 9.763174
 9.755041
 9.62514
 9.273475
 9.449055
 9.761308
 9.789697
 9.788209
 9.506585
 9.353655
 9.716619
 9.883344
 9.914917
 9.896294
 9.529772
 9.585033
 9.939848
 10.05487
 10.05471
 9.826335
 9.631024
 9.798062
 10.06757
 10.17324
 10.02154
 9.766383
 9.707322
 9.916118
 10.15772
 10.16463
 9.930102
 9.716599
 9.764647
 10.01828
 10.18917
 10.08786
 9.82049
 9.673504
 9.830666
 10.0851
 10.12345
 9.967979
 9.66911
 9.598421
 9.900499
</dep>
<dep _net3.Vt time>
 9.900497
 9.691938
 9.516673
 9.618616
 9.903802
 9.915405
 9.894045
 9.853675
 9.519441
 9.339853
 9.527274
 9.792932
 9.780971
 9.844229
 9.306879
 9.371875
 9.744845
 9.761874
 9.75809
 9.544392
 9.290059
 9.566504
 9.811453
 9.843187
 9.841527
 9.503547
 9.456407
 9.873493
 9.96827
 9.992926
 9.85955
 9.576415
 9.714879
 10.00637
 10.12899
 10.05529
 9.795484
 9.677064
 9.857934
 10.11888
 10.18049
 9.979107
 9.739885
 9.7347
 9.970389
 10.18192
 10.13296
 9.876414
 9.696261
 9.796915
 10.05788
 10.17293
 10.03181
 9.762336
 9.638861
 9.865232
 10.06343
 10.04745
 9.900499
</dep>
<dep _net4.Vt time>
 10.
 10.
 10.
 10.
 10.
 10.
 10.
 10.
 10.
 10.
 10.
 10.
 10.
 10.
 10.
 10.
 10.
 10.
 10.
 10.
 10.
 10.
 10.
 10.
 10.
 10.
 10.
 10.
 10.
 10.
 10.
 10.
 10.
 10.
 10.
 10.
 10.
 10.
 10.
 10.
 10.
 10.
 10.
 10.
 10.
 10.
 10.
 10.
 10.
 10.
 10.
 10.
 10.
 10.
 10.
 10.
 10.
 10.
 10.
</dep>
<dep _net5.Vt time>
-5.E-15
 0.2937386
 0.4752866
 0.3306875
-0.09541437
-0.4470376
-0.4494861
-0.100846
 0.3264428
 0.4988698
 0.2816145
-0.4046983
-0.4409301
 0.01748693
 0.4562944
 0.3831661
-0.1197051
-0.4883982
-0.3090353
 0.2169151
 0.499638
 0.2217051
-0.3048675
-0.4895321
-0.1249075
 0.379797
 0.4585099
 0.02280051
-0.4384986
-0.4078929
 0.08029773
 0.4784593
 0.3398348
-0.1800361
-0.4979662
-0.2572231
 0.2720815
 0.4961785
 0.1636021
-0.352495
-0.4731698
-0.06298908
 0.4178397
 0.4299308
-0.04028681
-0.4653223
-0.3683126
 0.1418685
 0.4929131
 0.2909493
-0.2373914
-0.4994296
-0.2011476
 0.3227637
 0.4845882
 0.1027473
-0.3943188
-0.4490254
-118.54E-12
</dep>
<dep _net6.Vt time>
 0.
 0.2938926
 0.4755283
 0.3308782
-0.09550735
-0.4473034
-0.4497639
-0.1009671
 0.3266831
 0.4991999
 0.2818508
-0.4050041
-0.44126
 0.01751531
 0.456641
 0.3834801
-0.1198911
-0.4887615
-0.3093108
 0.2171428
 0.4999929
 0.2219218
-0.3051142
-0.4898552
-0.1250481
 0.3800453
 0.4587817
 0.02283007
-0.4387337
-0.4081004
 0.08036372
 0.4786711
 0.3399773
-0.1801229
-0.4981507
-0.257324
 0.2721838
 0.4963399
 0.163673
-0.3526118
-0.4733162
-0.0630268
 0.4179697
 0.4300634
-0.0403131
-0.465464
-0.3684303
 0.1419301
 0.493065
 0.2910508
-0.2374811
-0.4995929
-0.2012322
 0.3228825
 0.4847688
 0.1028132
-0.3944843
-0.4492262
 0.
</dep>
<dep neg.Vt time>
 9.701491
 9.386003
 9.369768
 9.334633
 9.983049
 10.
 10.
 9.984706
 9.216365
 9.19899
 9.178255
 10.
 10.
 9.415797
 9.119869
 9.11424
 9.99126
 10.
 9.999994
 9.129748
 9.146427
 9.159284
 9.999994
 10.
 9.9938
 9.254446
 9.284271
 9.511615
 10.
 10.
 9.433232
 9.443754
 9.474587
 9.999533
 10.
 9.999979
 9.592069
 9.616928
 9.63914
 10.
 10.
 9.974722
 9.694615
 9.699901
 9.948095
 10.
 10.
 9.685409
 9.671252
 9.654916
 9.999963
 10.
 9.999828
 9.561164
 9.533104
 9.510294
 10.
 10.
 9.701491
</dep>
<dep pos.Vt time>
 9.701491
 9.999993
 10.
 9.999998
 9.323094
 9.285568
 9.26178
 9.249829
 9.999997
 10.
 9.999984
 9.154032
 9.139535
 9.702972
 10.
 10.
 9.118276
 9.117231
 9.121035
 9.999798
 10.
 9.999838
 9.179616
 9.204236
 9.230412
 10.
 10.
 9.797828
 9.345839
 9.377728
 9.974618
 10.
 9.999999
 9.506128
 9.53749
 9.565182
 9.999989
 10.
 9.999356
 9.657469
 9.673307
 9.71097
 10.
 10.
 9.753386
 9.699373
 9.693543
 9.998699
 10.
 9.999996
 9.635544
 9.613575
 9.588467
 9.999998
 10.
 9.990799
 9.470429
 9.438727
 9.701491
</dep>
