<Qucs Dataset 0.0.19>
<indep time 13>
  +0.
  +0.01
  +0.02
  +0.0744444444444444375
  +0.128888888888888875
  +0.237777777777777776
  +0.346666666666666678
  +0.455555555555555624
  +0.56444444444444457
  +0.673333333333333428
  +0.782222222222222374
  +0.89111111111111132
  +1.
</indep>
<dep _net0.Vt time>
  +5.04882590885101567
  +5.33150067287903439
  +5.56685265949716168
  +5.94872684055531841
  +4.79837330464912348
  -0.595478713770691037
  -5.41532141912910347
  -5.01508680532071693
  +0.219420580115230023
  +5.24241837914473851
  +5.21200804954693364
  +0.157503506326219007
  -5.04882590885102455
</dep>
<dep _net1.Vt time>
  +5.04882590859857405
  +5.33150067261246007
  +5.56685265921881811
  +5.94872684025788345
  +4.79837330440920606
  -0.595478713740918053
  -5.41532141885833695
  -5.01508680506996284
  +0.219420580104259022
  +5.24241837888261841
  +5.21200804928633321
  +0.157503506318342996
  -5.04882590859858559
</dep>
<dep _net2.Vt time>
  +2.
  +2.
  +2.
  +2.
  +2.
  +2.
  +2.
  +2.
  +2.
  +2.
  +2.
  +2.
  +2.
</dep>
<dep Pr1.Vt time>
  +5.04882590859857405
  +5.33150067261246007
  +5.56685265921881722
  +5.94872684025788345
  +4.79837330440920606
  -0.595478713740917697
  -5.41532141885833695
  -5.01508680506996373
  +0.219420580104258755
  +5.24241837888261752
  +5.21200804928633321
  +0.15750350631834344
  -5.04882590859858559
</dep>
