<Qucs Dataset>
default plugins: ignored
;: already installed, replacing
stashing as ;:0
*: already installed, replacing
stashing as *:0
': already installed, replacing
stashing as ':0
": already installed, replacing
stashing as ":0
L: already installed, replacing
stashing as L:0
Gnucap   System status
iterations: op=0, dc=0, tran=57, fourier=0, total=70
transient timesteps: accepted=13, rejected=0, total=13
transient timesteps: accepted=0, rejected=0, total=0
nodes: user=3, subckt=2, model=0, total=5
dctran density=76.0%, ac density=76.0%

<indep time 13>
 0.
 0.01
 0.02
 0.07444444
 0.1288889
 0.2377778
 0.3466667
 0.4555556
 0.5644444
 0.6733333
 0.7822222
 0.8911111
 1.
</indep>
<dep _net0.Vt time>
 5.048826
 5.331501
 5.566853
 5.948727
 4.798373
-0.5954787
-5.415321
-5.015087
 0.2194206
 5.242418
 5.212008
 0.1575035
-5.048826
</dep>
<dep _net1.Vt time>
 5.048826
 5.331501
 5.566853
 5.948727
 4.798373
-0.5954787
-5.415321
-5.015087
 0.2194206
 5.242418
 5.212008
 0.1575035
-5.048826
</dep>
<dep _net2.Vt time>
 2.
 2.
 2.
 2.
 2.
 2.
 2.
 2.
 2.
 2.
 2.
 2.
 2.
</dep>
<dep Pr1.Vt time>
 5.048826
 5.331501
 5.566853
 5.948727
 4.798373
-0.5954787
-5.415321
-5.015087
 0.2194206
 5.242418
 5.212008
 0.1575035
-5.048826
</dep>
