<Qucs Dataset>
default plugins: ignored
clear: already installed, replacing
stashing as clear:0
;: already installed, replacing
stashing as ;:0
*: already installed, replacing
stashing as *:0
': already installed, replacing
stashing as ':0
": already installed, replacing
stashing as ":0
T: already installed, replacing
stashing as T:0
tline: already installed, replacing
stashing as tline:0
Gnucap   System status
iterations: op=0, dc=0, tran=52, fourier=0, total=65
transient timesteps: accepted=13, rejected=0, total=13
transient timesteps: accepted=0, rejected=0, total=0
nodes: user=3, subckt=2, model=0, total=5
dctran density=76.0%, ac density=76.0%

<indep time 13>
 0.
 0.01
 0.02
 0.07444444
 0.1288889
 0.2740741
 0.3648148
 0.4555556
 0.5462963
 0.6597222
 0.7731481
 0.8865741
 1.
</indep>
<dep _net0.Vt time>
 5.048826
 5.331501
 5.566853
 5.948727
 4.798373
-2.563748
-5.776031
-5.015087
-0.8043551
 4.825991
 5.44685
 0.4137564
-5.048826
</dep>
<dep _net1.Vt time>
 5.048826
 5.331501
 5.566853
 5.948727
 4.798373
-2.563748
-5.776031
-5.015087
-0.8043551
 4.825991
 5.44685
 0.4137564
-5.048826
</dep>
<dep _net2.Vt time>
 2.
 2.
 2.
 2.
 2.
 2.
 2.
 2.
 2.
 2.
 2.
 2.
 2.
</dep>
<dep Pr1.Vt time>
 5.048826
 5.331501
 5.566853
 5.948727
 4.798373
-2.563748
-5.776031
-5.015087
-0.8043551
 4.825991
 5.44685
 0.4137564
-5.048826
</dep>
