<Qucs Dataset>
default plugins: ignored
;: already installed, replacing
stashing as ;:0
*: already installed, replacing
stashing as *:0
': already installed, replacing
stashing as ':0
": already installed, replacing
stashing as ":0
store: already installed, replacing
stashing as store:0
alarm: already installed, replacing
stashing as alarm:0
iplot: already installed, replacing
stashing as iplot:0
plot: already installed, replacing
stashing as plot:0
iprint: already installed, replacing
stashing as iprint:0
print: already installed, replacing
stashing as print:0
probe: already installed, replacing
stashing as probe:0
d: already installed, replacing
stashing as d:0
diode: already installed, replacing
stashing as diode:0
npn: already installed, replacing
stashing as npn:0
pnp: already installed, replacing
stashing as pnp:0
npn1: already installed, replacing
stashing as npn1:0
pnp1: already installed, replacing
stashing as pnp1:0
Q: already installed, replacing
stashing as Q:0
bjt: already installed, replacing
stashing as bjt:0
L: already installed, replacing
stashing as L:0
Gnucap   System status
iterations: op=0, dc=0, tran=74, fourier=0, total=92
transient timesteps: accepted=16, rejected=2, total=18
transient timesteps: accepted=0, rejected=0, total=0
nodes: user=3, subckt=0, model=1, total=4
dctran density=100.0%, ac density=100.0%

<indep time 16>
 0.
 15.E-6
 30.E-6
 54.5E-6
 100.E-6
 300.E-6
 400.E-6
 500.E-6
 700.E-6
 900.E-6
 0.001
 0.001000806
 0.001001613
 0.00100207
 0.001002527
 0.0015
</indep>
<dep c.Vt time>
 5.
 5.
 5.
 5.
 5.
 5.
 5.
 5.
 5.
 5.
 5.
 5.
 5.
 5.
 5.
 5.
</dep>
<dep in.Vt time>
 0.
 0.45
 0.9
 1.635
 3.
 3.
 3.
 3.
 3.
 3.
 1.628E-12
-1.625E-12
 1.622E-12
-1.618E-12
 1.614E-12
-1.614E-12
</dep>
<dep out.Vt time>
 593.337E-12
 70.58148E-6
 0.2307674
 0.9240349
 2.2572
 2.2572
 2.2572
 2.2572
 2.2572
 2.2572
-11.123E-6
 11.09938E-6
-11.07345E-6
 11.03112E-6
-10.98659E-6
 10.98773E-6
</dep>
