<Qucs Dataset>
default plugins: ignored
;: already installed, replacing
stashing as ;:0
*: already installed, replacing
stashing as *:0
': already installed, replacing
stashing as ':0
": already installed, replacing
stashing as ":0
store: already installed, replacing
stashing as store:0
alarm: already installed, replacing
stashing as alarm:0
iplot: already installed, replacing
stashing as iplot:0
plot: already installed, replacing
stashing as plot:0
iprint: already installed, replacing
stashing as iprint:0
print: already installed, replacing
stashing as print:0
probe: already installed, replacing
stashing as probe:0
d: already installed, replacing
stashing as d:0
diode: already installed, replacing
stashing as diode:0
npn: already installed, replacing
stashing as npn:0
pnp: already installed, replacing
stashing as pnp:0
npn1: already installed, replacing
stashing as npn1:0
pnp1: already installed, replacing
stashing as pnp1:0
Q: already installed, replacing
stashing as Q:0
bjt: already installed, replacing
stashing as bjt:0
L: already installed, replacing
stashing as L:0
R: already installed, replacing
stashing as R:1
Gnucap   System status
iterations: op=0, dc=0, tran=159, fourier=0, total=194
transient timesteps: accepted=20, rejected=15, total=35
transient timesteps: accepted=0, rejected=0, total=0
nodes: user=3, subckt=0, model=1, total=4
dctran density=100.0%, ac density=100.0%

<indep time 20>
 0.
 3.E-12
 73.82281E-6
 98.05491E-6
 98.0603E-6
 98.0603E-6
 100.E-6
 158.3333E-6
 191.0569E-6
 223.7805E-6
 276.9563E-6
 0.0011
 0.001171158
 0.001171158
 0.0012
 0.001200192
 0.001200383
 0.001200501
 0.001200619
 0.0015
</indep>
<dep c.Vt time>
 5.
 5.
 5.
 5.
 5.
 5.
 5.
 5.
 5.
 5.
 5.
 5.
 5.
 5.
 5.
 5.
 5.
 5.
 5.
 5.
</dep>
<dep in.Vt time>
 0.
 89.99979E-9
 2.214684
 2.941647
 2.941809
 2.941809
 3.
 3.
 3.
 3.
 3.
 3.
 0.8652455
 0.8652454
 1.152E-12
-1.145E-12
 1.138E-12
-1.126E-12
 1.115E-12
-1.115E-12
</dep>
<dep out.Vt time>
 1.096044E-9
 90.4993E-9
 1.4874
 2.199841
 2.2
 2.2
 2.2572
 2.2572
 2.2572
 2.2572
 2.2572
 2.2572
 0.2
 0.1999999
-7.844261E-6
 7.773101E-6
-7.698175E-6
 7.583933E-6
-7.466977E-6
 7.469178E-6
</dep>
