<Qucs Dataset>
default plugins: ignored
Gnucap   System status
iterations: op=0, dc=0, tran=159, fourier=0, total=194
transient timesteps: accepted=20, rejected=15, total=35
transient timesteps: accepted=0, rejected=0, total=0
nodes: user=3, subckt=0, model=1, total=4
dctran density=100.0%, ac density=100.0%

<indep time 20>
 0.
 3.E-12
 73.82241E-6
 98.04746E-6
 98.05287E-6
 98.05288E-6
 100.E-6
 155.3519E-6
 187.3674E-6
 219.3828E-6
 270.6075E-6
 900.E-6
 971.1672E-6
 971.1672E-6
 0.001
 0.001000201
 0.001000402
 0.001000526
 0.001000649
 0.0015
</indep>
<dep c.Vt time>
 5.
 5.
 5.
 5.
 5.
 5.
 5.
 5.
 5.
 5.
 5.
 5.
 5.
 5.
 5.
 5.
 5.
 5.
 5.
 5.
</dep>
<dep in.Vt time>
 0.
 89.99977E-9
 2.214672
 2.941424
 2.941586
 2.941586
 3.
 3.
 3.
 3.
 3.
 3.
 0.8649844
 0.8649843
 1.224E-12
-1.217E-12
 1.21E-12
-1.199E-12
 1.188E-12
-1.188E-12
</dep>
<dep out.Vt time>
 593.323E-12
 89.99707E-9
 1.487612
 2.19984
 2.2
 2.2
 2.257418
 2.257418
 2.257418
 2.257418
 2.257418
 2.257418
 0.2
 0.1999999
-7.825338E-6
 7.756732E-6
-7.686377E-6
 7.576509E-6
-7.465874E-6
 7.467033E-6
</dep>
