<Qucs Dataset>
default plugins: ignored
;: already installed, replacing
stashing as ;:0
*: already installed, replacing
stashing as *:0
': already installed, replacing
stashing as ':0
": already installed, replacing
stashing as ":0
spice_bjt: already installed, replacing
stashing as spice_bjt:0
spice_mos: already installed, replacing
stashing as spice_mos:0
Gnucap   System status
iterations: op=0, dc=0, tran=74, fourier=0, total=92
transient timesteps: accepted=16, rejected=2, total=18
transient timesteps: accepted=0, rejected=0, total=0
nodes: user=3, subckt=0, model=1, total=4
dctran density=100.0%, ac density=100.0%

<indep time 16>
 0.
 15.E-6
 30.E-6
 54.5E-6
 100.E-6
 300.E-6
 400.E-6
 500.E-6
 700.E-6
 900.E-6
 0.001
 0.001000806
 0.001001613
 0.00100207
 0.001002527
 0.0015
</indep>
<dep c.Vt time>
 5.
 5.
 5.
 5.
 5.
 5.
 5.
 5.
 5.
 5.
 5.
 5.
 5.
 5.
 5.
 5.
</dep>
<dep in.Vt time>
 0.
 0.45
 0.9
 1.635
 3.
 3.
 3.
 3.
 3.
 3.
 1.628E-12
-1.626E-12
 1.623E-12
-1.619E-12
 1.614E-12
-1.614E-12
</dep>
<dep out.Vt time>
 593.323E-12
 71.35063E-6
 0.2309984
 0.9242649
 2.257419
 2.257418
 2.257419
 2.257418
 2.257419
 2.257418
-11.13096E-6
 11.10733E-6
-11.08138E-6
 11.03902E-6
-10.99447E-6
 10.99561E-6
</dep>
