<Qucs Dataset>
default plugins: ignored
Gnucap   System status
iterations: op=0, dc=0, tran=468, fourier=0, total=588
transient timesteps: accepted=113, rejected=7, total=120
transient timesteps: accepted=0, rejected=0, total=0
nodes: user=3, subckt=0, model=1, total=4
dctran density=100.0%, ac density=100.0%

<indep time 113>
 0.
 793.5E-12
 2.9535E-9
 5.1135E-9
 7.2735E-9
 9.4335E-9
 11.5935E-9
 13.7535E-9
 15.9135E-9
 18.0735E-9
 20.2335E-9
 22.3935E-9
 24.5535E-9
 26.7135E-9
 28.8735E-9
 32.2905E-9
 35.7075E-9
 39.1245E-9
 42.5415E-9
 45.9585E-9
 51.396E-9
 56.8335E-9
 62.271E-9
 67.7085E-9
 73.146E-9
 81.801E-9
 90.456E-9
 99.111E-9
 107.766E-9
 116.421E-9
 130.1955E-9
 143.97E-9
 157.7445E-9
 171.519E-9
 185.2935E-9
 207.2175E-9
 229.1415E-9
 251.0655E-9
 272.9895E-9
 294.9135E-9
 329.808E-9
 364.7025E-9
 399.597E-9
 434.4915E-9
 469.386E-9
 524.925E-9
 580.464E-9
 636.003E-9
 691.542E-9
 747.081E-9
 835.476E-9
 923.871E-9
 1.012266E-6
 1.100661E-6
 1.189056E-6
 1.329738E-6
 1.47042E-6
 1.611102E-6
 1.751784E-6
 1.892466E-6
 2.116365E-6
 2.340264E-6
 2.564163E-6
 2.788062E-6
 3.011961E-6
 3.368303E-6
 3.724644E-6
 4.080986E-6
 4.437327E-6
 4.793669E-6
 5.360679E-6
 5.92769E-6
 6.4947E-6
 7.061711E-6
 7.628721E-6
 8.531003E-6
 9.433284E-6
 10.33557E-6
 11.23785E-6
 12.14013E-6
 13.57629E-6
 15.01245E-6
 16.4486E-6
 17.88476E-6
 19.32092E-6
 21.60592E-6
 23.89092E-6
 26.17592E-6
 28.46092E-6
 30.74592E-6
 34.38269E-6
 38.01945E-6
 41.65622E-6
 45.29299E-6
 48.92976E-6
 54.71092E-6
 60.49207E-6
 66.27323E-6
 72.05439E-6
 77.83555E-6
 87.0108E-6
 96.18606E-6
 100.E-6
 105.0341E-6
 108.7051E-6
 900.E-6
 933.5117E-6
 967.0233E-6
 995.0747E-6
 0.001
 0.001
 0.001
 0.0015
</indep>
<dep c.Vt time>
 5.
 5.
 5.
 5.
 5.
 5.
 5.
 5.
 5.
 5.
 5.
 5.
 5.
 5.
 5.
 5.
 5.
 5.
 5.
 5.
 5.
 5.
 5.
 5.
 5.
 5.
 5.
 5.
 5.
 5.
 5.
 5.
 5.
 5.
 5.
 5.
 5.
 5.
 5.
 5.
 5.
 5.
 5.
 5.
 5.
 5.
 5.
 5.
 5.
 5.
 5.
 5.
 5.
 5.
 5.
 5.
 5.
 5.
 5.
 5.
 5.
 5.
 5.
 5.
 5.
 5.
 5.
 5.
 5.
 5.
 5.
 5.
 5.
 5.
 5.
 5.
 5.
 5.
 5.
 5.
 5.
 5.
 5.
 5.
 5.
 5.
 5.
 5.
 5.
 5.
 5.
 5.
 5.
 5.
 5.
 5.
 5.
 5.
 5.
 5.
 5.
 5.
 5.
 5.
 5.
 5.
 5.
 5.
 5.
 5.
 5.
 5.
 5.
</dep>
<dep in.Vt time>
 0.
 23.805E-6
 88.605E-6
 153.405E-6
 218.205E-6
 283.005E-6
 347.805E-6
 412.605E-6
 477.405E-6
 542.205E-6
 607.005E-6
 671.805E-6
 736.605E-6
 801.405E-6
 866.205E-6
 968.715E-6
 0.001071225
 0.001173735
 0.001276245
 0.001378755
 0.00154188
 0.001705005
 0.00186813
 0.002031255
 0.00219438
 0.00245403
 0.00271368
 0.00297333
 0.00323298
 0.00349263
 0.003905865
 0.0043191
 0.004732335
 0.00514557
 0.005558805
 0.006216525
 0.006874245
 0.007531965
 0.008189685
 0.008847405
 0.00989424
 0.01094107
 0.01198791
 0.01303474
 0.01408158
 0.01574775
 0.01741392
 0.01908009
 0.02074626
 0.02241243
 0.02506428
 0.02771613
 0.03036798
 0.03301983
 0.03567168
 0.03989214
 0.0441126
 0.04833306
 0.05255352
 0.05677398
 0.06349095
 0.07020792
 0.07692489
 0.08364186
 0.09035883
 0.1010491
 0.1117393
 0.1224296
 0.1331198
 0.1438101
 0.1608204
 0.1778307
 0.194841
 0.2118513
 0.2288616
 0.2559301
 0.2829985
 0.310067
 0.3371354
 0.3642039
 0.4072886
 0.4503734
 0.4934581
 0.5365429
 0.5796276
 0.6481776
 0.7167276
 0.7852776
 0.8538276
 0.9223776
 1.031481
 1.140584
 1.249687
 1.35879
 1.467893
 1.641327
 1.814762
 1.988197
 2.161632
 2.335066
 2.610324
 2.885582
 3.
 3.
 3.
 3.
 1.99465
 0.9893002
 0.1477581
 1.482E-12
 24.E-15
 833.E-15
-833.E-15
</dep>
<dep out.Vt time>
 593.323E-12
 8.615207E-6
 15.51254E-6
 12.67295E-6
 13.84263E-6
 13.3616E-6
 13.56019E-6
 13.47898E-6
 13.51295E-6
 13.49951E-6
 13.50559E-6
 13.50363E-6
 13.50498E-6
 13.50497E-6
 13.50552E-6
 13.50608E-6
 13.50666E-6
 13.50729E-6
 13.50789E-6
 13.50851E-6
 13.50952E-6
 13.5104E-6
 13.51144E-6
 13.51236E-6
 13.51337E-6
 13.51494E-6
 13.51641E-6
 13.51803E-6
 13.51952E-6
 13.52112E-6
 13.5236E-6
 13.526E-6
 13.52854E-6
 13.53096E-6
 13.53349E-6
 13.53745E-6
 13.54133E-6
 13.54535E-6
 13.54926E-6
 13.55328E-6
 13.5596E-6
 13.56587E-6
 13.57228E-6
 13.57858E-6
 13.58501E-6
 13.59518E-6
 13.60531E-6
 13.6156E-6
 13.6258E-6
 13.63615E-6
 13.65259E-6
 13.66905E-6
 13.68605E-6
 13.70235E-6
 13.7195E-6
 13.74597E-6
 13.77343E-6
 13.80034E-6
 13.82823E-6
 13.8556E-6
 13.90052E-6
 13.94542E-6
 13.99153E-6
 14.03766E-6
 14.08502E-6
 14.16082E-6
 14.23926E-6
 14.31861E-6
 14.40076E-6
 14.48403E-6
 14.62163E-6
 14.76539E-6
 14.91598E-6
 15.07493E-6
 15.24414E-6
 15.54244E-6
 15.91071E-6
 16.42059E-6
 17.28881E-6
 19.08093E-6
 28.66396E-6
 74.82607E-6
 308.6771E-6
 0.001463924
 0.006295599
 0.03218039
 0.07749267
 0.1317597
 0.1902367
 0.251035
 0.3505809
 0.4521957
 0.5551083
 0.6589106
 0.7633615
 0.9303755
 1.098266
 1.266802
 1.435835
 1.605264
 1.874806
 2.144969
 2.257419
 2.257418
 2.257419
 2.257418
 1.273082
 0.3117854
-18.59107E-6
-9.372397E-6
-5.329158E-6
-3.793344E-6
 3.794514E-6
</dep>
