<Qucs Dataset>
default plugins: ignored
Gnucap   System status
iterations: op=0, dc=0, tran=468, fourier=0, total=588
transient timesteps: accepted=113, rejected=7, total=120
transient timesteps: accepted=0, rejected=0, total=0
nodes: user=3, subckt=0, model=1, total=4
dctran density=100.0%, ac density=100.0%

<indep time 113>
 0.
 793.5E-12
 2.9535E-9
 5.1135E-9
 7.2735E-9
 9.4335E-9
 11.5935E-9
 13.7535E-9
 15.9135E-9
 18.0735E-9
 20.2335E-9
 22.3935E-9
 24.5535E-9
 26.7135E-9
 28.8735E-9
 32.2905E-9
 35.7075E-9
 39.1245E-9
 42.5415E-9
 45.9585E-9
 51.396E-9
 56.8335E-9
 62.271E-9
 67.7085E-9
 73.146E-9
 81.801E-9
 90.456E-9
 99.111E-9
 107.766E-9
 116.421E-9
 130.1955E-9
 143.97E-9
 157.7445E-9
 171.519E-9
 185.2935E-9
 207.2175E-9
 229.1415E-9
 251.0655E-9
 272.9895E-9
 294.9135E-9
 329.808E-9
 364.7025E-9
 399.597E-9
 434.4915E-9
 469.386E-9
 524.9235E-9
 580.461E-9
 635.9985E-9
 691.536E-9
 747.0735E-9
 835.467E-9
 923.8605E-9
 1.012254E-6
 1.100648E-6
 1.189041E-6
 1.329722E-6
 1.470402E-6
 1.611083E-6
 1.751763E-6
 1.892444E-6
 2.116343E-6
 2.340242E-6
 2.564141E-6
 2.78804E-6
 3.011939E-6
 3.36828E-6
 3.724622E-6
 4.080963E-6
 4.437305E-6
 4.793646E-6
 5.360657E-6
 5.927667E-6
 6.494678E-6
 7.061688E-6
 7.628699E-6
 8.530979E-6
 9.433259E-6
 10.33554E-6
 11.23782E-6
 12.1401E-6
 13.57626E-6
 15.01242E-6
 16.44857E-6
 17.88473E-6
 19.32089E-6
 21.60589E-6
 23.89089E-6
 26.17589E-6
 28.46088E-6
 30.74588E-6
 34.38265E-6
 38.01942E-6
 41.65619E-6
 45.29295E-6
 48.92972E-6
 54.71088E-6
 60.49203E-6
 66.27319E-6
 72.05435E-6
 77.8355E-6
 87.01076E-6
 96.18601E-6
 100.E-6
 105.0341E-6
 108.7051E-6
 900.E-6
 933.5117E-6
 967.0233E-6
 995.0747E-6
 0.001
 0.001
 0.001
 0.0015
</indep>
<dep c.Vt time>
 5.
 5.
 5.
 5.
 5.
 5.
 5.
 5.
 5.
 5.
 5.
 5.
 5.
 5.
 5.
 5.
 5.
 5.
 5.
 5.
 5.
 5.
 5.
 5.
 5.
 5.
 5.
 5.
 5.
 5.
 5.
 5.
 5.
 5.
 5.
 5.
 5.
 5.
 5.
 5.
 5.
 5.
 5.
 5.
 5.
 5.
 5.
 5.
 5.
 5.
 5.
 5.
 5.
 5.
 5.
 5.
 5.
 5.
 5.
 5.
 5.
 5.
 5.
 5.
 5.
 5.
 5.
 5.
 5.
 5.
 5.
 5.
 5.
 5.
 5.
 5.
 5.
 5.
 5.
 5.
 5.
 5.
 5.
 5.
 5.
 5.
 5.
 5.
 5.
 5.
 5.
 5.
 5.
 5.
 5.
 5.
 5.
 5.
 5.
 5.
 5.
 5.
 5.
 5.
 5.
 5.
 5.
 5.
 5.
 5.
 5.
 5.
 5.
</dep>
<dep in.Vt time>
 0.
 23.805E-6
 88.605E-6
 153.405E-6
 218.205E-6
 283.005E-6
 347.805E-6
 412.605E-6
 477.405E-6
 542.205E-6
 607.005E-6
 671.805E-6
 736.605E-6
 801.405E-6
 866.205E-6
 968.715E-6
 0.001071225
 0.001173735
 0.001276245
 0.001378755
 0.00154188
 0.001705005
 0.00186813
 0.002031255
 0.00219438
 0.00245403
 0.00271368
 0.00297333
 0.00323298
 0.00349263
 0.003905865
 0.0043191
 0.004732335
 0.00514557
 0.005558805
 0.006216525
 0.006874245
 0.007531965
 0.008189685
 0.008847405
 0.00989424
 0.01094107
 0.01198791
 0.01303474
 0.01408158
 0.0157477
 0.01741383
 0.01907995
 0.02074608
 0.0224122
 0.02506401
 0.02771581
 0.03036762
 0.03301942
 0.03567123
 0.03989164
 0.04411206
 0.04833247
 0.05255289
 0.0567733
 0.06349027
 0.07020724
 0.07692421
 0.08364118
 0.09035815
 0.1010484
 0.1117386
 0.1224289
 0.1331191
 0.1438094
 0.1608197
 0.17783
 0.1948403
 0.2118506
 0.228861
 0.2559294
 0.2829978
 0.3100662
 0.3371346
 0.364203
 0.4072877
 0.4503725
 0.4934572
 0.536542
 0.5796267
 0.6481767
 0.7167266
 0.7852765
 0.8538265
 0.9223764
 1.031479
 1.140583
 1.249686
 1.358789
 1.467892
 1.641326
 1.814761
 1.988196
 2.16163
 2.335065
 2.610323
 2.88558
 3.
 3.
 3.
 3.
 1.99465
 0.9893002
 0.1477581
 1.482E-12
 24.E-15
 833.E-15
-833.E-15
</dep>
<dep out.Vt time>
 593.323E-12
 8.615207E-6
 15.51254E-6
 12.67295E-6
 13.84263E-6
 13.3616E-6
 13.56019E-6
 13.47898E-6
 13.51295E-6
 13.49951E-6
 13.50559E-6
 13.50363E-6
 13.50498E-6
 13.50497E-6
 13.50552E-6
 13.50608E-6
 13.50666E-6
 13.50729E-6
 13.50789E-6
 13.50851E-6
 13.50952E-6
 13.5104E-6
 13.51144E-6
 13.51236E-6
 13.51337E-6
 13.51494E-6
 13.51641E-6
 13.51803E-6
 13.51952E-6
 13.52112E-6
 13.5236E-6
 13.526E-6
 13.52854E-6
 13.53096E-6
 13.53349E-6
 13.53745E-6
 13.54133E-6
 13.54535E-6
 13.54926E-6
 13.55328E-6
 13.5596E-6
 13.56587E-6
 13.57228E-6
 13.57858E-6
 13.58501E-6
 13.59518E-6
 13.60531E-6
 13.6156E-6
 13.6258E-6
 13.63615E-6
 13.65259E-6
 13.66905E-6
 13.68605E-6
 13.70235E-6
 13.71949E-6
 13.74596E-6
 13.77343E-6
 13.80034E-6
 13.82823E-6
 13.85559E-6
 13.90052E-6
 13.94541E-6
 13.99153E-6
 14.03765E-6
 14.08502E-6
 14.16081E-6
 14.23926E-6
 14.3186E-6
 14.40076E-6
 14.48403E-6
 14.62163E-6
 14.76538E-6
 14.91597E-6
 15.07493E-6
 15.24413E-6
 15.54243E-6
 15.9107E-6
 16.42058E-6
 17.28877E-6
 19.08084E-6
 28.66357E-6
 74.82413E-6
 308.6672E-6
 0.001463877
 0.006295424
 0.03217987
 0.07749193
 0.1317589
 0.1902358
 0.251034
 0.3505798
 0.4521946
 0.5551072
 0.6589095
 0.7633604
 0.9303743
 1.098265
 1.2668
 1.435833
 1.605262
 1.874805
 2.144968
 2.257419
 2.257418
 2.257419
 2.257418
 1.273082
 0.3117854
-18.59109E-6
-9.372385E-6
-5.329151E-6
-3.793339E-6
 3.794509E-6
</dep>
