<Qucs Dataset>
default plugins: ignored
Gnucap   System status
iterations: op=0, dc=0, tran=158, fourier=0, total=193
transient timesteps: accepted=21, rejected=14, total=35
transient timesteps: accepted=0, rejected=0, total=0
nodes: user=3, subckt=0, model=1, total=4
dctran density=100.0%, ac density=100.0%

<indep time 21>
 0.
 3.E-12
 73.82241E-6
 98.04746E-6
 98.05287E-6
 98.05288E-6
 98.05288E-6
 100.E-6
 103.1891E-6
 108.4402E-6
 113.6914E-6
 122.2489E-6
 900.E-6
 971.1672E-6
 971.1672E-6
 0.001
 0.001000201
 0.001000402
 0.001000526
 0.001000649
 0.0015
</indep>
<dep c.Vt time>
 5.
 5.
 5.
 5.
 5.
 5.
 5.
 5.
 5.
 5.
 5.
 5.
 5.
 5.
 5.
 5.
 5.
 5.
 5.
 5.
 5.
</dep>
<dep in.Vt time>
 0.
 89.99977E-9
 2.214672
 2.941424
 2.941586
 2.941586
 2.941586
 3.
 3.
 3.
 3.
 3.
 3.
 0.8649844
 0.8649843
 1.268E-12
-1.261E-12
 1.254E-12
-1.243E-12
 1.232E-12
-1.232E-12
</dep>
<dep out.Vt time>
 593.323E-12
 89.99707E-9
 1.487612
 2.19984
 2.2
 2.2
 2.2
 2.257418
 2.257418
 2.257418
 2.257418
 2.257418
 2.257418
 0.2
 0.1999999
-7.906564E-6
 7.837234E-6
-7.766161E-6
 7.655142E-6
-7.543371E-6
 7.544531E-6
</dep>
