<Qucs Dataset>
default plugins: ignored
Gnucap   System status
iterations: op=0, dc=0, tran=77, fourier=0, total=96
transient timesteps: accepted=16, rejected=3, total=19
transient timesteps: accepted=0, rejected=0, total=0
nodes: user=3, subckt=0, model=1, total=4
dctran density=100.0%, ac density=100.0%

<indep time 16>
 0.
 15.E-6
 30.E-6
 54.5E-6
 100.E-6
 214.2334E-6
 289.8668E-6
 365.5001E-6
 507.3126E-6
 900.E-6
 0.001
 0.00100107
 0.001001896
 0.001002435
 0.001002819
 0.0015
</indep>
<dep c.Vt time>
 5.
 5.
 5.
 5.
 5.
 5.
 5.
 5.
 5.
 5.
 5.
 5.
 5.
 5.
 5.
 5.
</dep>
<dep in.Vt time>
 0.
 0.45
 0.9
 1.635
 3.
 3.
 3.
 3.
 3.
 3.
 1.629E-12
-1.626E-12
 1.624E-12
-1.62E-12
 1.615E-12
-1.615E-12
</dep>
<dep out.Vt time>
 593.323E-12
 71.35063E-6
 0.2309984
 0.9242649
 2.257419
 2.257418
 2.257419
 2.257418
 2.257419
 2.257418
-11.1312E-6
 11.11368E-6
-11.08831E-6
 11.05249E-6
-10.99969E-6
 11.00083E-6
</dep>
