<Qucs Dataset>
default plugins: ignored
;: already installed, replacing
stashing as ;:0
*: already installed, replacing
stashing as *:0
': already installed, replacing
stashing as ':0
": already installed, replacing
stashing as ":0
d: already installed, replacing
stashing as d:0
diode: already installed, replacing
stashing as diode:0
npn: already installed, replacing
stashing as npn:0
pnp: already installed, replacing
stashing as pnp:0
npn1: already installed, replacing
stashing as npn1:0
pnp1: already installed, replacing
stashing as pnp1:0
Q: already installed, replacing
stashing as Q:0
bjt: already installed, replacing
stashing as bjt:0
L: already installed, replacing
stashing as L:0
Gnucap   System status
iterations: op=0, dc=0, tran=456, fourier=0, total=574
transient timesteps: accepted=112, rejected=6, total=118
transient timesteps: accepted=0, rejected=0, total=0
nodes: user=3, subckt=0, model=1, total=4
dctran density=100.0%, ac density=100.0%

<indep time 112>
 0.
 771.605E-12
 2.787603E-9
 4.803601E-9
 6.819599E-9
 8.835597E-9
 10.85159E-9
 12.86759E-9
 14.88359E-9
 16.89959E-9
 18.91559E-9
 20.93158E-9
 22.94758E-9
 24.96358E-9
 26.97958E-9
 30.17184E-9
 33.3641E-9
 36.55636E-9
 39.74862E-9
 42.94088E-9
 48.02171E-9
 53.10254E-9
 58.18337E-9
 63.26419E-9
 68.34502E-9
 76.43169E-9
 84.51836E-9
 92.60503E-9
 100.6917E-9
 108.7784E-9
 121.6491E-9
 134.5198E-9
 147.3906E-9
 160.2613E-9
 173.1321E-9
 193.6173E-9
 214.1025E-9
 234.5878E-9
 255.073E-9
 275.5583E-9
 308.1624E-9
 340.7665E-9
 373.3706E-9
 405.9747E-9
 438.5789E-9
 490.4722E-9
 542.3655E-9
 594.2588E-9
 646.1522E-9
 698.0455E-9
 780.638E-9
 863.2305E-9
 945.823E-9
 1.028416E-6
 1.111008E-6
 1.242455E-6
 1.373902E-6
 1.505349E-6
 1.636796E-6
 1.768243E-6
 1.977464E-6
 2.186685E-6
 2.395906E-6
 2.605127E-6
 2.814348E-6
 3.147278E-6
 3.480207E-6
 3.813137E-6
 4.146067E-6
 4.478997E-6
 5.008948E-6
 5.538899E-6
 6.068849E-6
 6.5988E-6
 7.128751E-6
 7.972181E-6
 8.815611E-6
 9.659041E-6
 10.50247E-6
 11.3459E-6
 12.68824E-6
 14.03058E-6
 15.37292E-6
 16.71526E-6
 18.0576E-6
 20.19296E-6
 22.32832E-6
 24.46369E-6
 26.59905E-6
 28.73442E-6
 32.13226E-6
 35.5301E-6
 38.92794E-6
 42.32578E-6
 45.72363E-6
 51.12986E-6
 56.53609E-6
 61.94232E-6
 67.34855E-6
 72.75478E-6
 81.35265E-6
 89.95051E-6
 100.E-6
 110.0495E-6
 115.9143E-6
 900.E-6
 933.3333E-6
 966.6667E-6
 0.001
 0.001000001
 0.001000001
 0.0015
</indep>
<dep c.Vt time>
 5.
 5.
 5.
 5.
 5.
 5.
 5.
 5.
 5.
 5.
 5.
 5.
 5.
 5.
 5.
 5.
 5.
 5.
 5.
 5.
 5.
 5.
 5.
 5.
 5.
 5.
 5.
 5.
 5.
 5.
 5.
 5.
 5.
 5.
 5.
 5.
 5.
 5.
 5.
 5.
 5.
 5.
 5.
 5.
 5.
 5.
 5.
 5.
 5.
 5.
 5.
 5.
 5.
 5.
 5.
 5.
 5.
 5.
 5.
 5.
 5.
 5.
 5.
 5.
 5.
 5.
 5.
 5.
 5.
 5.
 5.
 5.
 5.
 5.
 5.
 5.
 5.
 5.
 5.
 5.
 5.
 5.
 5.
 5.
 5.
 5.
 5.
 5.
 5.
 5.
 5.
 5.
 5.
 5.
 5.
 5.
 5.
 5.
 5.
 5.
 5.
 5.
 5.
 5.
 5.
 5.
 5.
 5.
 5.
 5.
 5.
 5.
</dep>
<dep in.Vt time>
 0.
 23.14815E-6
 83.62808E-6
 144.108E-6
 204.588E-6
 265.0679E-6
 325.5478E-6
 386.0278E-6
 446.5077E-6
 506.9876E-6
 567.4676E-6
 627.9475E-6
 688.4275E-6
 748.9074E-6
 809.3873E-6
 905.1552E-6
 0.001000923
 0.001096691
 0.001192459
 0.001288226
 0.001440651
 0.001593076
 0.001745501
 0.001897926
 0.002050351
 0.002292951
 0.002535551
 0.002778151
 0.003020751
 0.003263351
 0.003649473
 0.004035595
 0.004421717
 0.004807839
 0.005193962
 0.005808519
 0.006423076
 0.007037633
 0.00765219
 0.008266748
 0.009244871
 0.01022299
 0.01120112
 0.01217924
 0.01315737
 0.01471417
 0.01627097
 0.01782777
 0.01938457
 0.02094136
 0.02341914
 0.02589692
 0.02837469
 0.03085247
 0.03333024
 0.03727365
 0.04121706
 0.04516046
 0.04910387
 0.05304728
 0.05932391
 0.06560054
 0.07187717
 0.0781538
 0.08443043
 0.09441833
 0.1044062
 0.1143941
 0.124382
 0.1343699
 0.1502684
 0.166167
 0.1820655
 0.197964
 0.2138625
 0.2391654
 0.2644683
 0.2897712
 0.3150741
 0.340377
 0.3806472
 0.4209174
 0.4611876
 0.5014577
 0.5417279
 0.6057888
 0.6698497
 0.7339106
 0.7979715
 0.8620325
 0.9639677
 1.065903
 1.167838
 1.269773
 1.371709
 1.533896
 1.696083
 1.85827
 2.020457
 2.182644
 2.440579
 2.698515
 3.
 3.
 3.
 3.
 2.
 1.
 2.376E-12
 2.E-15
 682.E-15
-682.E-15
</dep>
<dep out.Vt time>
 593.337E-12
 8.528426E-6
 15.40621E-6
 12.77485E-6
 13.78215E-6
 13.39725E-6
 13.545E-6
 13.48897E-6
 13.51091E-6
 13.50301E-6
 13.50653E-6
 13.50568E-6
 13.5065E-6
 13.50669E-6
 13.50711E-6
 13.50769E-6
 13.5082E-6
 13.5088E-6
 13.50936E-6
 13.50994E-6
 13.51088E-6
 13.5117E-6
 13.51267E-6
 13.51354E-6
 13.51448E-6
 13.51595E-6
 13.51732E-6
 13.51883E-6
 13.52023E-6
 13.52172E-6
 13.52405E-6
 13.52628E-6
 13.52866E-6
 13.53092E-6
 13.53328E-6
 13.53698E-6
 13.5406E-6
 13.54436E-6
 13.54801E-6
 13.55177E-6
 13.55768E-6
 13.56353E-6
 13.56952E-6
 13.57539E-6
 13.5814E-6
 13.59089E-6
 13.60034E-6
 13.60994E-6
 13.61945E-6
 13.6291E-6
 13.64443E-6
 13.65977E-6
 13.6753E-6
 13.69078E-6
 13.70679E-6
 13.73138E-6
 13.75696E-6
 13.78195E-6
 13.80789E-6
 13.83327E-6
 13.875E-6
 13.91658E-6
 13.95933E-6
 14.00197E-6
 14.04579E-6
 14.11572E-6
 14.18802E-6
 14.26096E-6
 14.33639E-6
 14.41261E-6
 14.53834E-6
 14.66896E-6
 14.8051E-6
 14.9475E-6
 15.09739E-6
 15.35459E-6
 15.65304E-6
 16.02033E-6
 16.54446E-6
 17.42592E-6
 21.15193E-6
 36.08806E-6
 102.5164E-6
 405.9589E-6
 0.001741819
 0.01307445
 0.04483985
 0.09031099
 0.142126
 0.1971855
 0.2884287
 0.3822307
 0.4775683
 0.5739278
 0.671016
 0.8265668
 0.9830693
 1.140263
 1.297982
 1.456117
 1.708279
 1.961084
 2.2572
 2.2572
 2.2572
 2.2572
 1.278064
 0.3213607
-18.50487E-6
-5.096455E-6
-1.953919E-6
 1.955094E-6
</dep>
