<Qucs Dataset>
default plugins: ignored
clear: already installed, replacing
stashing as clear:0
;: already installed, replacing
stashing as ;:0
*: already installed, replacing
stashing as *:0
': already installed, replacing
stashing as ':0
": already installed, replacing
stashing as ":0
Gnucap   System status
iterations: op=0, dc=0, tran=456, fourier=0, total=574
transient timesteps: accepted=112, rejected=6, total=118
transient timesteps: accepted=0, rejected=0, total=0
nodes: user=3, subckt=0, model=1, total=4
dctran density=100.0%, ac density=100.0%

<indep time 112>
 0.
 771.605E-12
 2.787603E-9
 4.803601E-9
 6.819599E-9
 8.835597E-9
 10.85159E-9
 12.86759E-9
 14.88359E-9
 16.89959E-9
 18.91559E-9
 20.93158E-9
 22.94758E-9
 24.96358E-9
 26.97958E-9
 30.17184E-9
 33.3641E-9
 36.55636E-9
 39.74862E-9
 42.94088E-9
 48.02171E-9
 53.10254E-9
 58.18337E-9
 63.26419E-9
 68.34502E-9
 76.43169E-9
 84.51836E-9
 92.60503E-9
 100.6917E-9
 108.7784E-9
 121.6491E-9
 134.5198E-9
 147.3906E-9
 160.2613E-9
 173.1321E-9
 193.6173E-9
 214.1025E-9
 234.5878E-9
 255.073E-9
 275.5583E-9
 308.1624E-9
 340.7665E-9
 373.3706E-9
 405.9747E-9
 438.5789E-9
 490.4722E-9
 542.3655E-9
 594.2588E-9
 646.1522E-9
 698.0455E-9
 780.638E-9
 863.2305E-9
 945.823E-9
 1.028416E-6
 1.111008E-6
 1.242455E-6
 1.373902E-6
 1.505349E-6
 1.636796E-6
 1.768243E-6
 1.977464E-6
 2.186685E-6
 2.395906E-6
 2.605127E-6
 2.814348E-6
 3.147278E-6
 3.480207E-6
 3.813137E-6
 4.146067E-6
 4.478997E-6
 5.008948E-6
 5.538899E-6
 6.068849E-6
 6.5988E-6
 7.128751E-6
 7.972181E-6
 8.815611E-6
 9.659041E-6
 10.50247E-6
 11.3459E-6
 12.68824E-6
 14.03058E-6
 15.37292E-6
 16.71526E-6
 18.0576E-6
 20.19296E-6
 22.32832E-6
 24.46369E-6
 26.59905E-6
 28.73442E-6
 32.13226E-6
 35.5301E-6
 38.92794E-6
 42.32578E-6
 45.72363E-6
 51.12986E-6
 56.53609E-6
 61.94232E-6
 67.34855E-6
 72.75478E-6
 81.35265E-6
 89.95051E-6
 100.E-6
 110.0495E-6
 115.9143E-6
 900.E-6
 933.3333E-6
 966.6667E-6
 0.001
 0.001000001
 0.001000001
 0.0015
</indep>
<dep c.Vt time>
 5.
 5.
 5.
 5.
 5.
 5.
 5.
 5.
 5.
 5.
 5.
 5.
 5.
 5.
 5.
 5.
 5.
 5.
 5.
 5.
 5.
 5.
 5.
 5.
 5.
 5.
 5.
 5.
 5.
 5.
 5.
 5.
 5.
 5.
 5.
 5.
 5.
 5.
 5.
 5.
 5.
 5.
 5.
 5.
 5.
 5.
 5.
 5.
 5.
 5.
 5.
 5.
 5.
 5.
 5.
 5.
 5.
 5.
 5.
 5.
 5.
 5.
 5.
 5.
 5.
 5.
 5.
 5.
 5.
 5.
 5.
 5.
 5.
 5.
 5.
 5.
 5.
 5.
 5.
 5.
 5.
 5.
 5.
 5.
 5.
 5.
 5.
 5.
 5.
 5.
 5.
 5.
 5.
 5.
 5.
 5.
 5.
 5.
 5.
 5.
 5.
 5.
 5.
 5.
 5.
 5.
 5.
 5.
 5.
 5.
 5.
 5.
</dep>
<dep in.Vt time>
 0.
 23.14815E-6
 83.62808E-6
 144.108E-6
 204.588E-6
 265.0679E-6
 325.5478E-6
 386.0278E-6
 446.5077E-6
 506.9876E-6
 567.4676E-6
 627.9475E-6
 688.4275E-6
 748.9074E-6
 809.3873E-6
 905.1552E-6
 0.001000923
 0.001096691
 0.001192459
 0.001288226
 0.001440651
 0.001593076
 0.001745501
 0.001897926
 0.002050351
 0.002292951
 0.002535551
 0.002778151
 0.003020751
 0.003263351
 0.003649473
 0.004035595
 0.004421717
 0.004807839
 0.005193962
 0.005808519
 0.006423076
 0.007037633
 0.00765219
 0.008266748
 0.009244871
 0.01022299
 0.01120112
 0.01217924
 0.01315737
 0.01471417
 0.01627097
 0.01782777
 0.01938457
 0.02094136
 0.02341914
 0.02589692
 0.02837469
 0.03085247
 0.03333024
 0.03727365
 0.04121706
 0.04516046
 0.04910387
 0.05304728
 0.05932391
 0.06560054
 0.07187717
 0.0781538
 0.08443043
 0.09441833
 0.1044062
 0.1143941
 0.124382
 0.1343699
 0.1502684
 0.166167
 0.1820655
 0.197964
 0.2138625
 0.2391654
 0.2644683
 0.2897712
 0.3150741
 0.340377
 0.3806472
 0.4209174
 0.4611876
 0.5014577
 0.5417279
 0.6057888
 0.6698497
 0.7339106
 0.7979715
 0.8620325
 0.9639677
 1.065903
 1.167838
 1.269773
 1.371709
 1.533896
 1.696083
 1.85827
 2.020457
 2.182644
 2.440579
 2.698515
 3.
 3.
 3.
 3.
 2.
 1.
 2.375E-12
 1.E-15
 682.E-15
-682.E-15
</dep>
<dep out.Vt time>
 593.323E-12
 8.527644E-6
 15.40411E-6
 12.77282E-6
 13.78026E-6
 13.39524E-6
 13.54307E-6
 13.487E-6
 13.50895E-6
 13.50105E-6
 13.50457E-6
 13.50372E-6
 13.50454E-6
 13.50472E-6
 13.50515E-6
 13.50572E-6
 13.50624E-6
 13.50684E-6
 13.50739E-6
 13.50797E-6
 13.50891E-6
 13.50974E-6
 13.5107E-6
 13.51157E-6
 13.51251E-6
 13.51398E-6
 13.51535E-6
 13.51686E-6
 13.51826E-6
 13.51975E-6
 13.52207E-6
 13.52431E-6
 13.52668E-6
 13.52894E-6
 13.5313E-6
 13.535E-6
 13.53862E-6
 13.54238E-6
 13.54602E-6
 13.54977E-6
 13.55568E-6
 13.56153E-6
 13.56751E-6
 13.57339E-6
 13.57939E-6
 13.58887E-6
 13.59831E-6
 13.60791E-6
 13.61741E-6
 13.62706E-6
 13.64238E-6
 13.65771E-6
 13.67323E-6
 13.6887E-6
 13.70469E-6
 13.72927E-6
 13.75484E-6
 13.7798E-6
 13.80573E-6
 13.83109E-6
 13.87279E-6
 13.91434E-6
 13.95706E-6
 13.99968E-6
 14.04346E-6
 14.11334E-6
 14.18559E-6
 14.25847E-6
 14.33385E-6
 14.41002E-6
 14.53566E-6
 14.66619E-6
 14.80224E-6
 14.94457E-6
 15.0944E-6
 15.35162E-6
 15.6504E-6
 16.01881E-6
 16.54603E-6
 17.43562E-6
 21.20779E-6
 36.34837E-6
 103.6744E-6
 410.9838E-6
 0.001761979
 0.01317384
 0.045017
 0.09052071
 0.142349
 0.1974146
 0.2886616
 0.3824646
 0.4778022
 0.5741611
 0.6712485
 0.8267977
 0.9832987
 1.140491
 1.298209
 1.456342
 1.708502
 1.961305
 2.257419
 2.257418
 2.257419
 2.257418
 1.27829
 0.3215942
-18.49323E-6
-5.092008E-6
-1.951899E-6
 1.953074E-6
</dep>
