<Qucs Dataset>
default plugins: ignored
Gnucap   System status
iterations: op=0, dc=0, tran=468, fourier=0, total=588
transient timesteps: accepted=113, rejected=7, total=120
transient timesteps: accepted=0, rejected=0, total=0
nodes: user=3, subckt=0, model=1, total=4
dctran density=100.0%, ac density=100.0%

<indep time 113>
 0.
 793.651E-12
 2.953898E-9
 5.114145E-9
 7.274391E-9
 9.434638E-9
 11.59489E-9
 13.75513E-9
 15.91538E-9
 18.07563E-9
 20.23587E-9
 22.39612E-9
 24.55637E-9
 26.71661E-9
 28.87686E-9
 32.29361E-9
 35.71036E-9
 39.12712E-9
 42.54387E-9
 45.96062E-9
 51.39874E-9
 56.83687E-9
 62.27499E-9
 67.71311E-9
 73.15124E-9
 81.80657E-9
 90.46191E-9
 99.11725E-9
 107.7726E-9
 116.4279E-9
 130.2037E-9
 143.9796E-9
 157.7554E-9
 171.5312E-9
 185.307E-9
 207.2325E-9
 229.158E-9
 251.0836E-9
 273.0091E-9
 294.9346E-9
 329.8309E-9
 364.7273E-9
 399.6236E-9
 434.5199E-9
 469.4163E-9
 524.9565E-9
 580.4967E-9
 636.037E-9
 691.5772E-9
 747.1174E-9
 835.5168E-9
 923.9161E-9
 1.012315E-6
 1.100715E-6
 1.189114E-6
 1.329808E-6
 1.470502E-6
 1.611195E-6
 1.751889E-6
 1.892583E-6
 2.116515E-6
 2.340448E-6
 2.56438E-6
 2.788312E-6
 3.012245E-6
 3.368586E-6
 3.724926E-6
 4.081267E-6
 4.437608E-6
 4.793949E-6
 5.361174E-6
 5.9284E-6
 6.495625E-6
 7.06285E-6
 7.630076E-6
 8.532355E-6
 9.434634E-6
 10.33691E-6
 11.23919E-6
 12.14147E-6
 13.57763E-6
 15.01379E-6
 16.44994E-6
 17.8861E-6
 19.32226E-6
 21.60725E-6
 23.89225E-6
 26.17725E-6
 28.46224E-6
 30.74724E-6
 34.384E-6
 38.02077E-6
 41.65753E-6
 45.2943E-6
 48.93106E-6
 54.71221E-6
 60.49336E-6
 66.27451E-6
 72.05566E-6
 77.83682E-6
 87.01206E-6
 96.18731E-6
 100.E-6
 105.0339E-6
 108.7049E-6
 900.E-6
 933.5117E-6
 967.0233E-6
 995.0747E-6
 0.001
 0.001
 0.001
 0.0015
</indep>
<dep c.Vt time>
 5.
 5.
 5.
 5.
 5.
 5.
 5.
 5.
 5.
 5.
 5.
 5.
 5.
 5.
 5.
 5.
 5.
 5.
 5.
 5.
 5.
 5.
 5.
 5.
 5.
 5.
 5.
 5.
 5.
 5.
 5.
 5.
 5.
 5.
 5.
 5.
 5.
 5.
 5.
 5.
 5.
 5.
 5.
 5.
 5.
 5.
 5.
 5.
 5.
 5.
 5.
 5.
 5.
 5.
 5.
 5.
 5.
 5.
 5.
 5.
 5.
 5.
 5.
 5.
 5.
 5.
 5.
 5.
 5.
 5.
 5.
 5.
 5.
 5.
 5.
 5.
 5.
 5.
 5.
 5.
 5.
 5.
 5.
 5.
 5.
 5.
 5.
 5.
 5.
 5.
 5.
 5.
 5.
 5.
 5.
 5.
 5.
 5.
 5.
 5.
 5.
 5.
 5.
 5.
 5.
 5.
 5.
 5.
 5.
 5.
 5.
 5.
 5.
</dep>
<dep in.Vt time>
 0.
 23.80952E-6
 88.61693E-6
 153.4243E-6
 218.2317E-6
 283.0391E-6
 347.8466E-6
 412.654E-6
 477.4614E-6
 542.2688E-6
 607.0762E-6
 671.8836E-6
 736.691E-6
 801.4984E-6
 866.3058E-6
 968.8084E-6
 0.001071311
 0.001173813
 0.001276316
 0.001378819
 0.001541962
 0.001705106
 0.00186825
 0.002031393
 0.002194537
 0.002454197
 0.002713857
 0.002973518
 0.003233178
 0.003492838
 0.003906112
 0.004319387
 0.004732661
 0.005145936
 0.005559211
 0.006216976
 0.006874741
 0.007532507
 0.008190272
 0.008848037
 0.009894928
 0.01094182
 0.01198871
 0.0130356
 0.01408249
 0.0157487
 0.0174149
 0.01908111
 0.02074732
 0.02241352
 0.0250655
 0.02771748
 0.03036946
 0.03302144
 0.03567342
 0.03989424
 0.04411505
 0.04833586
 0.05255668
 0.05677749
 0.06349546
 0.07021343
 0.0769314
 0.08364937
 0.09036734
 0.1010576
 0.1117478
 0.122438
 0.1331282
 0.1438185
 0.1608352
 0.177852
 0.1948687
 0.2118855
 0.2289023
 0.2559706
 0.283039
 0.3101074
 0.3371758
 0.3642442
 0.4073289
 0.4504136
 0.4934983
 0.536583
 0.5796677
 0.6482176
 0.7167675
 0.7853174
 0.8538673
 0.9224172
 1.03152
 1.140623
 1.249726
 1.358829
 1.467932
 1.641366
 1.814801
 1.988235
 2.16167
 2.335104
 2.610362
 2.885619
 3.
 3.
 3.
 3.
 1.99465
 0.9892999
 0.1477578
 1.482E-12
 24.E-15
 833.E-15
-833.E-15
</dep>
<dep out.Vt time>
 593.323E-12
 8.615799E-6
 15.51253E-6
 12.67286E-6
 13.84271E-6
 13.36155E-6
 13.56021E-6
 13.47896E-6
 13.51296E-6
 13.49951E-6
 13.50559E-6
 13.50363E-6
 13.50498E-6
 13.50497E-6
 13.50552E-6
 13.50608E-6
 13.50666E-6
 13.50729E-6
 13.50789E-6
 13.50851E-6
 13.50952E-6
 13.5104E-6
 13.51144E-6
 13.51237E-6
 13.51337E-6
 13.51494E-6
 13.51641E-6
 13.51803E-6
 13.51953E-6
 13.52112E-6
 13.52361E-6
 13.526E-6
 13.52854E-6
 13.53096E-6
 13.53349E-6
 13.53745E-6
 13.54133E-6
 13.54536E-6
 13.54926E-6
 13.55328E-6
 13.55961E-6
 13.56588E-6
 13.57229E-6
 13.57859E-6
 13.58502E-6
 13.59519E-6
 13.60532E-6
 13.61561E-6
 13.62581E-6
 13.63616E-6
 13.6526E-6
 13.66906E-6
 13.68606E-6
 13.70236E-6
 13.71951E-6
 13.74598E-6
 13.77344E-6
 13.80036E-6
 13.82825E-6
 13.85562E-6
 13.90055E-6
 13.94546E-6
 13.99158E-6
 14.03771E-6
 14.08508E-6
 14.16088E-6
 14.23932E-6
 14.31867E-6
 14.40083E-6
 14.4841E-6
 14.62175E-6
 14.76557E-6
 14.91623E-6
 15.07526E-6
 15.24456E-6
 15.54292E-6
 15.91134E-6
 16.42155E-6
 17.29058E-6
 19.08487E-6
 28.68146E-6
 74.91301E-6
 309.1181E-6
 0.001466033
 0.006303383
 0.0322024
 0.07752234
 0.1317927
 0.1902714
 0.2510706
 0.3506174
 0.4522326
 0.5551455
 0.658948
 0.763399
 0.930413
 1.098303
 1.266839
 1.435872
 1.605301
 1.874843
 2.145006
 2.257419
 2.257418
 2.257419
 2.257418
 1.273082
 0.3117852
-18.59053E-6
-9.372947E-6
-5.322163E-6
-3.784163E-6
 3.785333E-6
</dep>
