<Qucs Dataset>
default plugins: ignored
Gnucap   System status
iterations: op=0, dc=0, tran=159, fourier=0, total=194
transient timesteps: accepted=20, rejected=15, total=35
transient timesteps: accepted=0, rejected=0, total=0
nodes: user=3, subckt=0, model=1, total=4
dctran density=100.0%, ac density=100.0%

<indep time 20>
 0.
 3.E-12
 73.82241E-6
 98.04746E-6
 98.05287E-6
 98.05288E-6
 100.E-6
 138.8889E-6
 163.6364E-6
 188.3838E-6
 228.1298E-6
 900.E-6
 971.1672E-6
 971.1672E-6
 0.001
 0.001000158
 0.001000317
 0.00100044
 0.001000564
 0.0015
</indep>
<dep c.Vt time>
 5.
 5.
 5.
 5.
 5.
 5.
 5.
 5.
 5.
 5.
 5.
 5.
 5.
 5.
 5.
 5.
 5.
 5.
 5.
 5.
</dep>
<dep in.Vt time>
 0.
 89.99977E-9
 2.214672
 2.941424
 2.941586
 2.941586
 3.
 3.
 3.
 3.
 3.
 3.
 0.8649844
 0.8649843
 1.224E-12
-1.215E-12
 1.207E-12
-1.195E-12
 1.185E-12
-1.184E-12
</dep>
<dep out.Vt time>
 593.323E-12
 89.99707E-9
 1.487612
 2.19984
 2.2
 2.2
 2.257418
 2.257418
 2.257418
 2.257418
 2.257418
 2.257418
 0.2
 0.1999999
-7.825291E-6
 7.738065E-6
-7.649465E-6
 7.539933E-6
-7.42963E-6
 7.43079E-6
</dep>
