<Qucs Dataset>
default plugins: ignored
;: already installed, replacing
stashing as ;:0
*: already installed, replacing
stashing as *:0
': already installed, replacing
stashing as ':0
": already installed, replacing
stashing as ":0
spice_bjt: already installed, replacing
stashing as spice_bjt:0
spice_mos: already installed, replacing
stashing as spice_mos:0
.SP:SP1 Type="l ... 5 GHz" Points="150" Noise="no" NoiseIP="1" NoiseOP="2" s
                                        ^ ? what's this (incomplete)?
dB(S[2,1])
        ^ ? unbalanced parentheses (arglist)
parameter dB(S[2,1]) not specified, using default
parameter dB(S[2,1]) not specified, using default
parameter dB(S[2,1]) not specified, using default
parameter dB(S[2,1]) not specified, using default
parameter dB(S[2,1]) not specified, using default
parameter dB(S[2,1]) not specified, using default
parameter dB(S[2,1]) not specified, using default
parameter dB(S[2,1]) not specified, using default
parameter dB(S[2,1]) not specified, using default
parameter dB(S[2,1]) not specified, using default
parameter dB(S[2,1]) not specified, using default
parameter dB(S[2,1]) not specified, using default
parameter dB(S[2,1]) not specified, using default
parameter dB(S[2,1]) not specified, using default
parameter dB(S[2,1]) not specified, using default
parameter dB(S[2,1]) not specified, using default
parameter dB(S[2,1]) not specified, using default
parameter dB(S[2,1]) not specified, using default
parameter dB(S[2,1]) not specified, using default
parameter dB(S[2,1]) not specified, using default
parameter dB(S[2,1]) not specified, using default
parameter dB(S[2,1]) not specified, using default
parameter dB(S[2,1]) not specified, using default
parameter dB(S[2,1]) not specified, using default
parameter dB(S[2,1]) not specified, using default
parameter dB(S[2,1]) not specified, using default
parameter dB(S[2,1]) not specified, using default
parameter dB(S[2,1]) not specified, using default
parameter dB(S[2,1]) not specified, using default
parameter dB(S[2,1]) not specified, using default
parameter dB(S[2,1]) not specified, using default
parameter dB(S[2,1]) not specified, using default
parameter dB(S[2,1]) not specified, using default
parameter dB(S[2,1]) not specified, using default
parameter dB(S[2,1]) not specified, using default
parameter dB(S[2,1]) not specified, using default
parameter dB(S[2,1]) not specified, using default
parameter dB(S[2,1]) not specified, using default
parameter dB(S[2,1]) not specified, using default
parameter dB(S[2,1]) not specified, using default
parameter dB(S[2,1]) not specified, using default
parameter dB(S[2,1]) not specified, using default
parameter dB(S[2,1]) not specified, using default
parameter dB(S[2,1]) not specified, using default
parameter dB(S[2,1]) not specified, using default
parameter dB(S[2,1]) not specified, using default
parameter dB(S[2,1]) not specified, using default
parameter dB(S[2,1]) not specified, using default
parameter dB(S[2,1]) not specified, using default
parameter dB(S[2,1]) not specified, using default
parameter dB(S[2,1]) not specified, using default
parameter dB(S[2,1]) not specified, using default
parameter dB(S[2,1]) not specified, using default
parameter dB(S[2,1]) not specified, using default
parameter dB(S[2,1]) not specified, using default
parameter dB(S[2,1]) not specified, using default
parameter dB(S[2,1]) not specified, using default
parameter dB(S[2,1]) not specified, using default
parameter dB(S[2,1]) not specified, using default
parameter dB(S[2,1]) not specified, using default
parameter dB(S[2,1]) not specified, using default
parameter dB(S[2,1]) not specified, using default
parameter dB(S[2,1]) not specified, using default
parameter dB(S[2,1]) not specified, using default
parameter dB(S[2,1]) not specified, using default
parameter dB(S[2,1]) not specified, using default
parameter dB(S[2,1]) not specified, using default
parameter dB(S[2,1]) not specified, using default
parameter dB(S[2,1]) not specified, using default
parameter dB(S[2,1]) not specified, using default
parameter dB(S[2,1]) not specified, using default
parameter dB(S[2,1]) not specified, using default
parameter dB(S[2,1]) not specified, using default
parameter dB(S[2,1]) not specified, using default
parameter dB(S[2,1]) not specified, using default
parameter dB(S[2,1]) not specified, using default
parameter dB(S[2,1]) not specified, using default
parameter dB(S[2,1]) not specified, using default
parameter dB(S[2,1]) not specified, using default
parameter dB(S[2,1]) not specified, using default
parameter dB(S[2,1]) not specified, using default
parameter dB(S[2,1]) not specified, using default
parameter dB(S[2,1]) not specified, using default
parameter dB(S[2,1]) not specified, using default
parameter dB(S[2,1]) not specified, using default
parameter dB(S[2,1]) not specified, using default
parameter dB(S[2,1]) not specified, using default
parameter dB(S[2,1]) not specified, using default
parameter dB(S[2,1]) not specified, using default
parameter dB(S[2,1]) not specified, using default
parameter dB(S[2,1]) not specified, using default
parameter dB(S[2,1]) not specified, using default
parameter dB(S[2,1]) not specified, using default
parameter dB(S[2,1]) not specified, using default
parameter dB(S[2,1]) not specified, using default
parameter dB(S[2,1]) not specified, using default
parameter dB(S[2,1]) not specified, using default
parameter dB(S[2,1]) not specified, using default
parameter dB(S[2,1]) not specified, using default
parameter dB(S[2,1]) not specified, using default
parameter dB(S[2,1]) not specified, using default
parameter dB(S[2,1]) not specified, using default
parameter dB(S[2,1]) not specified, using default
parameter dB(S[2,1]) not specified, using default
parameter dB(S[2,1]) not specified, using default
parameter dB(S[2,1]) not specified, using default
parameter dB(S[2,1]) not specified, using default
parameter dB(S[2,1]) not specified, using default
parameter dB(S[2,1]) not specified, using default
parameter dB(S[2,1]) not specified, using default
parameter dB(S[2,1]) not specified, using default
parameter dB(S[2,1]) not specified, using default
parameter dB(S[2,1]) not specified, using default
parameter dB(S[2,1]) not specified, using default
parameter dB(S[2,1]) not specified, using default
parameter dB(S[2,1]) not specified, using default
parameter dB(S[2,1]) not specified, using default
parameter dB(S[2,1]) not specified, using default
Gnucap   System status
iterations: op=0, dc=0, tran=0, fourier=0, total=151
transient timesteps: accepted=0, rejected=0, total=0
transient timesteps: accepted=0, rejected=0, total=0
nodes: user=20, subckt=2, model=0, total=22
dctran density=26.4%, ac density=26.4%

<indep frequency 150>
 5.E+9
 5.067114E+9
 5.134228E+9
 5.201342E+9
 5.268456E+9
 5.33557E+9
 5.402685E+9
 5.469799E+9
 5.536913E+9
 5.604027E+9
 5.671141E+9
 5.738255E+9
 5.805369E+9
 5.872483E+9
 5.939597E+9
 6.006711E+9
 6.073826E+9
 6.14094E+9
 6.208054E+9
 6.275168E+9
 6.342282E+9
 6.409396E+9
 6.47651E+9
 6.543624E+9
 6.610738E+9
 6.677852E+9
 6.744966E+9
 6.812081E+9
 6.879195E+9
 6.946309E+9
 7.013423E+9
 7.080537E+9
 7.147651E+9
 7.214765E+9
 7.281879E+9
 7.348993E+9
 7.416107E+9
 7.483221E+9
 7.550336E+9
 7.61745E+9
 7.684564E+9
 7.751678E+9
 7.818792E+9
 7.885906E+9
 7.95302E+9
 8.020134E+9
 8.087248E+9
 8.154362E+9
 8.221477E+9
 8.288591E+9
 8.355705E+9
 8.422819E+9
 8.489933E+9
 8.557047E+9
 8.624161E+9
 8.691275E+9
 8.758389E+9
 8.825503E+9
 8.892617E+9
 8.959732E+9
 9.026846E+9
 9.09396E+9
 9.161074E+9
 9.228188E+9
 9.295302E+9
 9.362416E+9
 9.42953E+9
 9.496644E+9
 9.563758E+9
 9.630872E+9
 9.697987E+9
 9.765101E+9
 9.832215E+9
 9.899329E+9
 9.966443E+9
 10.03356E+9
 10.10067E+9
 10.16779E+9
 10.2349E+9
 10.30201E+9
 10.36913E+9
 10.43624E+9
 10.50336E+9
 10.57047E+9
 10.63758E+9
 10.7047E+9
 10.77181E+9
 10.83893E+9
 10.90604E+9
 10.97315E+9
 11.04027E+9
 11.10738E+9
 11.1745E+9
 11.24161E+9
 11.30872E+9
 11.37584E+9
 11.44295E+9
 11.51007E+9
 11.57718E+9
 11.6443E+9
 11.71141E+9
 11.77852E+9
 11.84564E+9
 11.91275E+9
 11.97987E+9
 12.04698E+9
 12.11409E+9
 12.18121E+9
 12.24832E+9
 12.31544E+9
 12.38255E+9
 12.44966E+9
 12.51678E+9
 12.58389E+9
 12.65101E+9
 12.71812E+9
 12.78523E+9
 12.85235E+9
 12.91946E+9
 12.98658E+9
 13.05369E+9
 13.12081E+9
 13.18792E+9
 13.25503E+9
 13.32215E+9
 13.38926E+9
 13.45638E+9
 13.52349E+9
 13.5906E+9
 13.65772E+9
 13.72483E+9
 13.79195E+9
 13.85906E+9
 13.92617E+9
 13.99329E+9
 14.0604E+9
 14.12752E+9
 14.19463E+9
 14.26174E+9
 14.32886E+9
 14.39597E+9
 14.46309E+9
 14.5302E+9
 14.59732E+9
 14.66443E+9
 14.73154E+9
 14.79866E+9
 14.86577E+9
 14.93289E+9
 15.E+9
</indep>
<dep S[2,2] frequency>
 0.6329758- 0.7656825* i
 0.6189268- 0.7768556* i
 0.6044015- 0.7879771* i
 0.5893824- 0.7990357* i
 0.5738514- 0.8100189* i
 0.5577897- 0.820913* i
 0.541178- 0.831703* i
 0.523996- 0.8423724* i
 0.506223- 0.852903* i
 0.4878375- 0.8632752* i
 0.4688172- 0.8734672* i
 0.4491394- 0.8834554* i
 0.4287804- 0.8932137* i
 0.4077163- 0.902714* i
 0.3859223- 0.911925* i
 0.3633732- 0.920813* i
 0.3400434- 0.9293409* i
 0.3159069- 0.9374682* i
 0.2909377- 0.9451506* i
 0.2651092- 0.95234* i
 0.2383955- 0.9589835* i
 0.2107707- 0.9650236* i
 0.1822093- 0.9703975* i
 0.1526869- 0.9750365* i
 0.1221804- 0.978866* i
 0.090668- 0.9818043* i
 0.05813033- 0.9837626* i
 0.02455069- 0.9846441* i
-0.01008416- 0.9843432* i
-0.04578315- 0.9827453* i
-0.08254993- 0.9797255* i
-0.1203817- 0.975148* i
-0.1592679- 0.9688657* i
-0.1991886- 0.9607187* i
-0.2401125- 0.9505339* i
-0.281995- 0.9381242* i
-0.3247756- 0.9232872* i
-0.3683748- 0.9058051* i
-0.4126904- 0.8854435* i
-0.4575941- 0.8619511* i
-0.502926- 0.8350594* i
-0.5484892- 0.8044827* i
-0.5940435- 0.7699182* i
-0.6392971- 0.7310475* i
-0.6838982- 0.6875377* i
-0.7274233- 0.6390449* i
-0.7693651- 0.5852179* i
-0.8091171- 0.5257051* i
-0.8459554- 0.4601629* i
-0.8790168- 0.3882686* i
-0.9072725- 0.3097392* i
-0.9294963- 0.2243563* i
-0.9442253- 0.1320037* i
-0.9497123- 0.0327206* i
-0.9438669+ 0.07321983* i
-0.9241852+ 0.1851918* i
-0.8876665+ 0.3020348* i
-0.8307264+ 0.421765* i
-0.7491327+ 0.541107* i
-0.6380501+ 0.654719* i
-0.4924355+ 0.7539126* i
-0.3084286+ 0.824652* i
-0.08728385+ 0.8450431* i
 0.1553149+ 0.7848214* i
 0.3736578+ 0.6162747* i
 0.4878729+ 0.3519339* i
 0.4393331+ 0.08529406* i
 0.27864- 0.06702684* i
 0.1235111- 0.08682423* i
 0.03732118- 0.04048527* i
 0.01439143+ 0.01097646* i
 0.02700452+ 0.04178429* i
 0.0527403+ 0.04890707* i
 0.079293+ 0.03718841* i
 0.1011134+ 0.01167324* i
 0.1151006- 0.02439359* i
 0.1179179- 0.0684214* i
 0.1056622- 0.1163071* i
 0.07557826- 0.1609615* i
 0.02876694- 0.1926207* i
-0.02743752- 0.2011774* i
-0.07839689- 0.1800988* i
-0.1029033- 0.1316871* i
-0.07721029- 0.07438165* i
 0.01158644- 0.05121904* i
 0.1338788- 0.1241575* i
 0.1930752- 0.3170779* i
 0.09883848- 0.5437484* i
-0.1181992- 0.6804893* i
-0.3589309- 0.6936893* i
-0.5613212- 0.6206709* i
-0.7105895- 0.5044835* i
-0.8124421- 0.372426* i
-0.8768829- 0.238725* i
-0.9128916- 0.1101694* i
-0.9274558+ 0.01024038* i
-0.9258109+ 0.121376* i
-0.9118673+ 0.2230297* i
-0.8885742+ 0.3154444* i
-0.8581846+ 0.3990775* i
-0.8224426+ 0.4744808* i
-0.7827132+ 0.5422365* i
-0.7400751+ 0.6029248* i
-0.6953866+ 0.6571058* i
-0.6493339+ 0.705311* i
-0.6024673+ 0.748039* i
-0.5552287+ 0.7857539* i
-0.5079726+ 0.8188859* i
-0.4609827+ 0.8478322* i
-0.4144851+ 0.8729583* i
-0.3686583+ 0.8946004* i
-0.3236424+ 0.9130667* i
-0.2795453+ 0.9286396* i
-0.2364487+ 0.9415778* i
-0.1944126+ 0.9521178* i
-0.153479+ 0.960476* i
-0.1136755+ 0.9668499* i
-0.07501734+ 0.97142* i
-0.03751008+ 0.974351* i
-0.001151197+ 0.9757936* i
 0.03406831+ 0.9758849* i
 0.06816268+ 0.9747503* i
 0.1011503+ 0.972504* i
 0.1330528+ 0.9692505* i
 0.1638943+ 0.9650848* i
 0.1937009+ 0.9600938* i
 0.2225+ 0.9543567* i
 0.2503199+ 0.9479457* i
 0.2771896+ 0.9409268* i
 0.3031383+ 0.93336* i
 0.3281952+ 0.9253003* i
 0.3523895+ 0.9167976* i
 0.37575+ 0.9078976* i
 0.3983051+ 0.8986418* i
 0.4200825+ 0.8890684* i
 0.4411096+ 0.8792118* i
 0.4614129+ 0.8691036* i
 0.4810182+ 0.8587727* i
 0.4999505+ 0.8482452* i
 0.5182342+ 0.837545* i
 0.5358928+ 0.8266939* i
 0.5529489+ 0.8157118* i
 0.5694245+ 0.8046166* i
 0.5853406+ 0.7934249* i
 0.6007177+ 0.7821514* i
 0.6155753+ 0.7708099* i
 0.6299323+ 0.7594126* i
 0.6438068+ 0.7479706* i
 0.6572161+ 0.7364942* i
 0.670177+ 0.7249925* i
</dep>
<dep S[2,1] frequency>
 18.16997E-6+ 13.90035E-6* i
 19.97544E-6+ 14.7088E-6* i
 21.97867E-6+ 15.55843E-6* i
 24.20347E-6+ 16.44921E-6* i
 26.67679E-6+ 17.38046E-6* i
 29.42911E-6+ 18.35067E-6* i
 32.49495E-6+ 19.35728E-6* i
 35.91351E-6+ 20.39636E-6* i
 39.72923E-6+ 21.46227E-6* i
 43.99265E-6+ 22.54723E-6* i
 48.76122E-6+ 23.64079E-6* i
 54.10034E-6+ 24.72911E-6* i
 60.08451E-6+ 25.79419E-6* i
 66.79868E-6+ 26.81284E-6* i
 74.33977E-6+ 27.75538E-6* i
 82.81846E-6+ 28.58415E-6* i
 92.36121E-6+ 29.25155E-6* i
 103.1126E-6+ 29.69765E-6* i
 115.238E-6+ 29.84733E-6* i
 128.9268E-6+ 29.60652E-6* i
 144.3954E-6+ 28.8578E-6* i
 161.8921E-6+ 27.45473E-6* i
 181.7006E-6+ 25.21491E-6* i
 204.1459E-6+ 21.91131E-6* i
 229.5998E-6+ 17.26152E-6* i
 258.4871E-6+ 10.91427E-6* i
 291.2929E-6+ 2.432658E-6* i
 328.5699E-6- 8.726829E-6* i
 370.9466E-6- 23.24059E-6* i
 419.1357E-6- 41.95082E-6* i
 473.9417E-6- 65.90686E-6* i
 536.2686E-6- 96.41707E-6* i
 607.1247E-6- 135.1142E-6* i
 687.6246E-6- 184.0378E-6* i
 778.985E-6- 245.7375E-6* i
 882.5117E-6- 323.4049E-6* i
 999.5716E-6- 421.0378E-6* i
 0.001131543- 543.6501E-6* i
 0.001279734- 697.5353E-6* i
 0.001445251- 890.6002E-6* i
 0.001628795- 0.001132785* i
 0.001830358- 0.001436594* i
 0.002048755- 0.001817758* i
 0.002280945- 0.002296066* i
 0.002521016- 0.002896393* i
 0.002758687- 0.003649959* i
 0.002977127- 0.004595849* i
 0.003149728- 0.005782794* i
 0.003235397- 0.007271162* i
 0.003171631- 0.009135026* i
 0.002864361- 0.01146392* i
 0.002173046- 0.01436356* i
 888.8006E-6- 0.01795396* i
-0.001297577- 0.02236202* i
-0.004842062- 0.02770292* i
-0.01041393- 0.0340395* i
-0.01898837- 0.04129915* i
-0.03196775- 0.04910977* i
-0.0513188- 0.05648283* i
-0.07966161- 0.06121457* i
-0.1200983- 0.05879525* i
-0.1751738- 0.04058155* i
-0.2434589+ 0.008613327* i
-0.3109382+ 0.1111031* i
-0.3362796+ 0.2857983* i
-0.2476003+ 0.5114144* i
 0.00147791+ 0.6873106* i
 0.343924+ 0.6935396* i
 0.642772+ 0.5148567* i
 0.8155363+ 0.2287702* i
 0.8530919- 0.08430067* i
 0.77675- 0.3732987* i
 0.6131855- 0.6086314* i
 0.3889264- 0.7724692* i
 0.1303896- 0.8548096* i
-0.1361803- 0.8526184* i
-0.3856796- 0.769735* i
-0.5957301- 0.6165439* i
-0.7484632- 0.4089339* i
-0.8318478- 0.1663302* i
-0.8396961+ 0.09081679* i
-0.7698148+ 0.342802* i
-0.6209841+ 0.5696477* i
-0.3919428+ 0.74519* i
-0.09039498+ 0.8273147* i
 0.2379019+ 0.7608572* i
 0.4854148+ 0.5316696* i
 0.5555767+ 0.2363656* i
 0.4764418+ 0.008231692* i
 0.3470548- 0.1109715* i
 0.2309416- 0.1520564* i
 0.1452085- 0.1531046* i
 0.08682427- 0.1377678* i
 0.04850434- 0.117694* i
 0.02385723- 0.09792582* i
 0.008261558- 0.08034702* i
-0.001409836- 0.06543648* i
-0.007222631- 0.05309189* i
-0.0105314- 0.04300258* i
-0.012224- 0.03481206* i
-0.01288352- 0.02818454* i
-0.01289364- 0.0228279* i
-0.01250701- 0.0184979* i
-0.01188976- 0.01499461* i
-0.01115054- 0.0121563* i
-0.01035979- 0.009852968* i
-0.009562394- 0.00798047* i
-0.008786196- 0.006455467* i
-0.008047686- 0.005211259* i
-0.007355834- 0.004194417* i
-0.006714681- 0.003362074* i
-0.006125083- 0.002679772* i
-0.0055859- 0.002119757* i
-0.00509479- 0.001659622* i
-0.004648735- 0.001281234* i
-0.004244405- 969.8876E-6* i
-0.003878377- 713.6252E-6* i
-0.003547288- 502.7028E-6* i
-0.003247922- 329.1616E-6* i
-0.00297726- 186.4864E-6* i
-0.002732508- 69.33232E-6* i
-0.002511102+ 26.69488E-6* i
-0.002310706+ 105.2149E-6* i
-0.002129205+ 169.2153E-6* i
-0.00196469+ 221.1666E-6* i
-0.001815443+ 263.1148E-6* i
-0.001679923+ 296.7579E-6* i
-0.001556746+ 323.5067E-6* i
-0.001444676+ 344.5354E-6* i
-0.001342603+ 360.8224E-6* i
-0.001249537+ 373.1843E-6* i
-0.001164591+ 382.3031E-6* i
-0.001086973+ 388.7492E-6* i
-0.001015972+ 393.E-6* i
-950.9549E-6+ 395.4556E-6* i
-891.3516E-6+ 396.4513E-6* i
-836.6528E-6+ 396.2684E-6* i
-786.4015E-6+ 395.1432E-6* i
-740.1877E-6+ 393.2739E-6* i
-697.6431E-6+ 390.8271E-6* i
-658.4367E-6+ 387.943E-6* i
-622.2709E-6+ 384.7391E-6* i
-588.8776E-6+ 381.3146E-6* i
-558.0152E-6+ 377.7526E-6* i
-529.466E-6+ 374.1233E-6* i
-503.0332E-6+ 370.4856E-6* i
-478.5391E-6+ 366.8894E-6* i
-455.823E-6+ 363.3766E-6* i
-434.7394E-6+ 359.9828E-6* i
-415.1566E-6+ 356.7383E-6* i
</dep>
<dep S[1,2] frequency>
 18.16997E-6+ 13.90035E-6* i
 19.97544E-6+ 14.7088E-6* i
 21.97867E-6+ 15.55843E-6* i
 24.20347E-6+ 16.44921E-6* i
 26.67679E-6+ 17.38046E-6* i
 29.42911E-6+ 18.35067E-6* i
 32.49495E-6+ 19.35728E-6* i
 35.91351E-6+ 20.39636E-6* i
 39.72923E-6+ 21.46227E-6* i
 43.99265E-6+ 22.54723E-6* i
 48.76122E-6+ 23.64079E-6* i
 54.10034E-6+ 24.72911E-6* i
 60.08451E-6+ 25.79419E-6* i
 66.79868E-6+ 26.81284E-6* i
 74.33977E-6+ 27.75538E-6* i
 82.81846E-6+ 28.58415E-6* i
 92.36121E-6+ 29.25155E-6* i
 103.1126E-6+ 29.69765E-6* i
 115.238E-6+ 29.84733E-6* i
 128.9268E-6+ 29.60652E-6* i
 144.3954E-6+ 28.8578E-6* i
 161.8921E-6+ 27.45473E-6* i
 181.7006E-6+ 25.21491E-6* i
 204.1459E-6+ 21.91131E-6* i
 229.5998E-6+ 17.26152E-6* i
 258.4871E-6+ 10.91427E-6* i
 291.2929E-6+ 2.432658E-6* i
 328.5699E-6- 8.726829E-6* i
 370.9466E-6- 23.24059E-6* i
 419.1357E-6- 41.95082E-6* i
 473.9417E-6- 65.90686E-6* i
 536.2686E-6- 96.41707E-6* i
 607.1247E-6- 135.1142E-6* i
 687.6246E-6- 184.0378E-6* i
 778.985E-6- 245.7375E-6* i
 882.5117E-6- 323.4049E-6* i
 999.5716E-6- 421.0378E-6* i
 0.001131543- 543.6501E-6* i
 0.001279734- 697.5353E-6* i
 0.001445251- 890.6002E-6* i
 0.001628795- 0.001132785* i
 0.001830358- 0.001436594* i
 0.002048755- 0.001817758* i
 0.002280945- 0.002296066* i
 0.002521016- 0.002896393* i
 0.002758687- 0.003649959* i
 0.002977127- 0.004595849* i
 0.003149728- 0.005782794* i
 0.003235397- 0.007271162* i
 0.003171631- 0.009135026* i
 0.002864361- 0.01146392* i
 0.002173046- 0.01436356* i
 888.8006E-6- 0.01795396* i
-0.001297577- 0.02236202* i
-0.004842062- 0.02770292* i
-0.01041393- 0.0340395* i
-0.01898837- 0.04129915* i
-0.03196775- 0.04910977* i
-0.0513188- 0.05648283* i
-0.07966161- 0.06121457* i
-0.1200983- 0.05879525* i
-0.1751738- 0.04058155* i
-0.2434589+ 0.008613327* i
-0.3109382+ 0.1111031* i
-0.3362796+ 0.2857983* i
-0.2476003+ 0.5114144* i
 0.00147791+ 0.6873106* i
 0.343924+ 0.6935396* i
 0.642772+ 0.5148567* i
 0.8155363+ 0.2287702* i
 0.8530919- 0.08430067* i
 0.77675- 0.3732987* i
 0.6131855- 0.6086314* i
 0.3889264- 0.7724692* i
 0.1303896- 0.8548096* i
-0.1361803- 0.8526184* i
-0.3856796- 0.769735* i
-0.5957301- 0.6165439* i
-0.7484632- 0.4089339* i
-0.8318478- 0.1663302* i
-0.8396961+ 0.09081679* i
-0.7698148+ 0.342802* i
-0.6209841+ 0.5696477* i
-0.3919428+ 0.74519* i
-0.09039498+ 0.8273147* i
 0.2379019+ 0.7608572* i
 0.4854148+ 0.5316696* i
 0.5555767+ 0.2363656* i
 0.4764418+ 0.008231692* i
 0.3470548- 0.1109715* i
 0.2309416- 0.1520564* i
 0.1452085- 0.1531046* i
 0.08682427- 0.1377678* i
 0.04850434- 0.117694* i
 0.02385723- 0.09792582* i
 0.008261558- 0.08034702* i
-0.001409836- 0.06543648* i
-0.007222631- 0.05309189* i
-0.0105314- 0.04300258* i
-0.012224- 0.03481206* i
-0.01288352- 0.02818454* i
-0.01289364- 0.0228279* i
-0.01250701- 0.0184979* i
-0.01188976- 0.01499461* i
-0.01115054- 0.0121563* i
-0.01035979- 0.009852968* i
-0.009562394- 0.00798047* i
-0.008786196- 0.006455467* i
-0.008047686- 0.005211259* i
-0.007355834- 0.004194417* i
-0.006714681- 0.003362074* i
-0.006125083- 0.002679772* i
-0.0055859- 0.002119757* i
-0.00509479- 0.001659622* i
-0.004648735- 0.001281234* i
-0.004244405- 969.8876E-6* i
-0.003878377- 713.6252E-6* i
-0.003547288- 502.7028E-6* i
-0.003247922- 329.1616E-6* i
-0.00297726- 186.4864E-6* i
-0.002732508- 69.33232E-6* i
