<Qucs Dataset>
default plugins: ignored
Gnucap   System status
iterations: op=0, dc=0, tran=202, fourier=0, total=230
transient timesteps: accepted=28, rejected=0, total=28
transient timesteps: accepted=0, rejected=0, total=0
nodes: user=5, subckt=0, model=1, total=6
dctran density=83.3%, ac density=83.3%

<indep time 28>
 0.
 10.E-6
 20.E-6
 36.61017E-6
 64.94516E-6
 93.28016E-6
 136.4573E-6
 179.6344E-6
 222.8116E-6
 265.9887E-6
 309.1658E-6
 352.343E-6
 395.5201E-6
 438.6972E-6
 481.8744E-6
 525.0515E-6
 568.2286E-6
 611.4058E-6
 654.5829E-6
 697.76E-6
 740.9372E-6
 784.1143E-6
 827.2915E-6
 870.4686E-6
 913.6457E-6
 956.8229E-6
 0.001
 0.001
</indep>
<dep _net0.Vt time>
 1.595271
 1.896786
 2.167633
 2.475273
 2.426266
 1.73529
 0.6469016
 0.9964477
 2.236456
 2.417161
 1.256354
 0.5848211
 1.461816
 2.505753
 2.075376
 0.8472271
 0.7564941
 1.947742
 2.537396
 1.595684
 0.601139
 1.114442
 2.330213
 2.336986
 1.126494
 0.6078471
 1.599681
 1.599694
</dep>
<dep _net1.Vt time>
 0.9517058
 1.245192
 1.510047
 1.811786
 1.76367
 1.087771
 0.07292898
 0.3787474
 1.577479
 1.754734
 0.624835
 0.0322185
 0.8224917
 1.840026
 1.419724
 0.24163
 0.1615972
 1.294951
 1.868292
 0.952104
 0.04175626
 0.4897066
 1.669413
 1.676054
 0.5011174
 0.04596329
 0.955987
 0.9560001
</dep>
<dep _net2.Vt time>
 20.
 20.
 20.
 20.
 20.
 20.
 20.
 20.
 20.
 20.
 20.
 20.
 20.
 20.
 20.
 20.
 20.
 20.
 20.
 20.
 20.
 20.
 20.
 20.
 20.
 20.
 20.
 20.
</dep>
<dep in.Vt time>
 0.
 0.3059268
 0.5819074
 0.9036939
 0.8828694
 0.20745
-0.9017418
-0.5910673
 0.6502911
 0.8677129
-0.2811504
-0.9873193
-0.1388732
 0.9282402
 0.5337633
-0.7011676
-0.8320527
 0.3471973
 0.9797567
 0.06960895
-0.9501438
-0.4738173
 0.7485734
 0.792274
-0.4115257
-0.9673445
-186.622E-9
-11.542E-12
</dep>
<dep out.Vt time>
 10.56083
 7.653191
 5.025685
 2.032778
 2.497347
 9.205893
 19.27766
 16.25335
 4.355679
 2.590284
 13.79732
 19.68739
 11.84505
 1.9195
 5.899052
 17.61629
 18.39407
 7.170868
 1.923975
 10.55052
 19.58885
 15.15027
 3.445916
 3.36615
 15.03017
 19.54778
 10.52459
 10.5246
</dep>
