<Qucs Dataset>
default plugins: ignored
C:C3 _net10 _net8 C="1 uF" V="" 
                           ^ ? C3: V has no value?
Gnucap   System status
iterations: op=0, dc=0, tran=392, fourier=0, total=447
transient timesteps: accepted=55, rejected=0, total=55
transient timesteps: accepted=0, rejected=0, total=0
nodes: user=15, subckt=1, model=0, total=16
dctran density=55.5%, ac density=55.5%

<indep time 55>
 0.
 100.E-9
 347.5E-9
 595.E-9
 842.5E-9
 1.02565E-6
 1.2088E-6
 1.39195E-6
 1.5751E-6
 1.75825E-6
 1.9414E-6
 2.12455E-6
 2.3077E-6
 2.49085E-6
 2.674E-6
 2.85715E-6
 3.0403E-6
 3.22345E-6
 3.4066E-6
 3.58975E-6
 3.7729E-6
 3.95605E-6
 4.1392E-6
 4.32235E-6
 4.5055E-6
 4.68865E-6
 4.8718E-6
 5.05495E-6
 5.2381E-6
 5.42125E-6
 5.6044E-6
 5.78755E-6
 5.9707E-6
 6.15385E-6
 6.337E-6
 6.52015E-6
 6.7033E-6
 6.88645E-6
 7.0696E-6
 7.25275E-6
 7.4359E-6
 7.61905E-6
 7.8022E-6
 7.98535E-6
 8.1685E-6
 8.35165E-6
 8.5348E-6
 8.71795E-6
 8.9011E-6
 9.08425E-6
 9.2674E-6
 9.45055E-6
 9.6337E-6
 9.81685E-6
 10.E-6
</indep>
<dep Output.Vt time>
 9.E-15
-27.31854E-6
-131.6576E-6
 153.1752E-6
 313.8866E-6
-72.08545E-6
-491.8466E-6
-359.5774E-6
 283.9032E-6
 656.1491E-6
 252.6576E-6
-511.1973E-6
-687.6216E-6
-42.97148E-6
 655.4643E-6
 567.4996E-6
-176.563E-6
-652.7305E-6
-347.9677E-6
 308.9215E-6
 507.4212E-6
 124.1255E-6
-293.6224E-6
-274.5627E-6
 7.862526E-6
 132.4066E-6
 42.32138E-6
 9.211764E-6
 110.8039E-6
 93.56377E-6
-169.763E-6
-342.6258E-6
-78.74116E-6
 407.5774E-6
 474.5315E-6
-77.33598E-6
-622.9024E-6
-453.6705E-6
 305.771E-6
 728.0602E-6
 293.409E-6
-507.0901E-6
-689.7413E-6
-65.72269E-6
 592.7323E-6
 515.2778E-6
-129.4005E-6
-522.5095E-6
-277.4648E-6
 205.7694E-6
 325.9084E-6
 77.58417E-6
-127.0807E-6
-78.27515E-6
 5.E-15
</dep>
<dep _net0.Vt time>
 8.01985
 8.002523
 7.990582
 8.036198
 8.050475
 8.015677
 7.97189
 8.000902
 8.032476
 8.078628
 8.029558
 7.997377
 7.97818
 8.018367
 8.055333
 8.046633
 8.013253
 7.966203
 8.003812
 8.03519
 8.074796
 8.02706
 7.993966
 7.983204
 8.020742
 8.060215
 8.043147
 8.010772
 7.961753
 8.006561
 8.038056
 8.069254
 8.024624
 7.990221
 7.987675
 8.023124
 8.065657
 8.039942
 8.008212
 7.960493
 8.009184
 8.041116
 8.063554
 8.022227
 7.986057
 7.991671
 8.025533
 8.071414
 8.03696
 8.005546
 7.963153
 8.011712
 8.044419
 8.058315
 8.01985
</dep>
<dep _net1.Vt time>
 9.60397
 9.603956
 9.603904
 9.604047
 9.604127
 9.603934
 9.603724
 9.60379
 9.604112
 9.604298
 9.604096
 9.603715
 9.603626
 9.603949
 9.604298
 9.604254
 9.603882
 9.603644
 9.603796
 9.604125
 9.604224
 9.604032
 9.603823
 9.603833
 9.603974
 9.604036
 9.603991
 9.603975
 9.604026
 9.604017
 9.603885
 9.603799
 9.603931
 9.604174
 9.604207
 9.603931
 9.603659
 9.603743
 9.604123
 9.604334
 9.604117
 9.603717
 9.603625
 9.603937
 9.604266
 9.604228
 9.603905
 9.603709
 9.603831
 9.604073
 9.604133
 9.604009
 9.603907
 9.603931
 9.60397
</dep>
<dep _net10.Vt time>
 6.019904
 6.0199
 6.019905
 6.019921
 6.019916
 6.019939
 6.019935
 6.019943
 6.019945
 6.019948
 6.019955
 6.019959
 6.019948
 6.019956
 6.019957
 6.019949
 6.019951
 6.019945
 6.019943
 6.019943
 6.019943
 6.019939
 6.019937
 6.01993
 6.019927
 6.019915
 6.019911
 6.01991
 6.019898
 6.019899
 6.019883
 6.019882
 6.019879
 6.019875
 6.019867
 6.019875
 6.019866
 6.019861
 6.019855
 6.019854
 6.019853
 6.019856
 6.019857
 6.019858
 6.019862
 6.019868
 6.019864
 6.019866
 6.019869
 6.019879
 6.019878
 6.019877
 6.019881
 6.019896
 6.019903
</dep>
<dep _net11.Vt time>
 5.20997
 5.209962
 5.20996
 5.209968
 5.209957
 5.209975
 5.209967
 5.209971
 5.209969
 5.20997
 5.209974
 5.209977
 5.209964
 5.209973
 5.209974
 5.209967
 5.20997
 5.209966
 5.209967
 5.209971
 5.209974
 5.209975
 5.209977
 5.209975
 5.209978
 5.20997
 5.209972
 5.209977
 5.209971
 5.209977
 5.209967
 5.209971
 5.209973
 5.209973
 5.209969
 5.20998
 5.209974
 5.209971
 5.209968
 5.209968
 5.209967
 5.209971
 5.20997
 5.20997
 5.209972
 5.209976
 5.209969
 5.209967
 5.209966
 5.209971
 5.209965
 5.209958
 5.209957
 5.209967
 5.209969
</dep>
<dep _net12.Vt time>
 10.
 10.
 10.
 10.
 10.
 10.
 10.
 10.
 10.
 10.
 10.
 10.
 10.
 10.
 10.
 10.
 10.
 10.
 10.
 10.
 10.
 10.
 10.
 10.
 10.
 10.
 10.
 10.
 10.
 10.
 10.
 10.
 10.
 10.
 10.
 10.
 10.
 10.
 10.
 10.
 10.
 10.
 10.
 10.
 10.
 10.
 10.
 10.
 10.
 10.
 10.
 10.
 10.
 10.
 10.
</dep>
<dep _net2.Vt time>
 7.227972
 7.233391
 7.241883
 7.232845
 7.243009
 7.228337
 7.258665
 7.234407
 7.23098
 7.269139
 7.229799
 7.236757
 7.252775
 7.228064
 7.247189
 7.239946
 7.228851
 7.264141
 7.232697
 7.232315
 7.265391
 7.228994
 7.239232
 7.248188
 7.228003
 7.251535
 7.237296
 7.229532
 7.268423
 7.231233
 7.233894
 7.259986
 7.228382
 7.242134
 7.244247
 7.228139
 7.256546
 7.235052
 7.23046
 7.269615
 7.230063
 7.235828
 7.254567
 7.228035
 7.245623
 7.240954
 7.228552
 7.262048
 7.23323
 7.231715
 7.267041
 7.229216
 7.238208
 7.249792
 7.227972
</dep>
<dep _net3.Vt time>
 8.01985
 8.037177
 8.049119
 8.003503
 7.989226
 8.024024
 8.067811
 8.038799
 8.007225
 7.961073
 8.010143
 8.042324
 8.061521
 8.021334
 7.984368
 7.993067
 8.026448
 8.073498
 8.035889
 8.004511
 7.964905
 8.012641
 8.045735
 8.056496
 8.018959
 7.979486
 7.996554
 8.028928
 8.077948
 8.03314
 8.001644
 7.970447
 8.015077
 8.04948
 8.052025
 8.016577
 7.974044
 7.999759
 8.031488
 8.079208
 8.030516
 7.998585
 7.976147
 8.017474
 8.053643
 8.04803
 8.014168
 7.968287
 8.002741
 8.034155
 8.076548
 8.027989
 7.995282
 7.981386
 8.01985
</dep>
<dep _net4.Vt time>
 9.60397
 9.603984
 9.604036
 9.603894
 9.603813
 9.604006
 9.604216
 9.60415
 9.603828
 9.603642
 9.603844
 9.604226
 9.604314
 9.603992
 9.603642
 9.603686
 9.604058
 9.604296
 9.604144
 9.603816
 9.603716
 9.603908
 9.604117
 9.604107
 9.603966
 9.603904
 9.603949
 9.603966
 9.603915
 9.603923
 9.604055
 9.604141
 9.604009
 9.603766
 9.603733
 9.604009
 9.604282
 9.604197
 9.603817
 9.603606
 9.603823
 9.604224
 9.604315
 9.604003
 9.603674
 9.603712
 9.604035
 9.604231
 9.604109
 9.603867
 9.603807
 9.603931
 9.604034
 9.604009
 9.60397
</dep>
<dep _net5.Vt time>
 7.227972
 7.233385
 7.241862
 7.232809
 7.24296
 7.228278
 7.258598
 7.234331
 7.230898
 7.269052
 7.229707
 7.236662
 7.252678
 7.227966
 7.247091
 7.239851
 7.228759
 7.264053
 7.232614
 7.232239
 7.265323
 7.228935
 7.239182
 7.248148
 7.227973
 7.251516
 7.237288
 7.229536
 7.268438
 7.231259
 7.23393
 7.260032
 7.228439
 7.242199
 7.24432
 7.228219
 7.256632
 7.235143
 7.230554
 7.269712
 7.230161
 7.235926
 7.254663
 7.228128
 7.245712
 7.241039
 7.228631
 7.262119
 7.233293
 7.231768
 7.267084
 7.229249
 7.23823
 7.249804
 7.227972
</dep>
<dep _net6.Vt time>
 10.
 10.
 10.
 10.
 10.
 10.
 10.
 10.
 10.
 10.
 10.
 10.
 10.
 10.
 10.
 10.
 10.
 10.
 10.
 10.
 10.
 10.
 10.
 10.
 10.
 10.
 10.
 10.
 10.
 10.
 10.
 10.
 10.
 10.
 10.
 10.
 10.
 10.
 10.
 10.
 10.
 10.
 10.
 10.
 10.
 10.
 10.
 10.
 10.
 10.
 10.
 10.
 10.
 10.
 10.
</dep>
<dep _net7.Vt time>
 6.019904
 6.0199
 6.019905
 6.019921
 6.019918
 6.01994
 6.019937
 6.019944
 6.019947
 6.01995
 6.019957
 6.019961
 6.01995
 6.019958
 6.019959
 6.019951
 6.019953
 6.019947
 6.019945
 6.019945
 6.019944
 6.019941
 6.019938
 6.019931
 6.019928
 6.019915
 6.019911
 6.01991
 6.019898
 6.019899
 6.019883
 6.019881
 6.019879
 6.019874
 6.019865
 6.019873
 6.019864
 6.019859
 6.019853
 6.019853
 6.019851
 6.019855
 6.019855
 6.019856
 6.01986
 6.019867
 6.019863
 6.019865
 6.019868
 6.019878
 6.019878
 6.019876
 6.01988
 6.019896
 6.019904
</dep>
<dep _net8.Vt time>
 6.019904
 6.0199
 6.019905
 6.019921
 6.019917
 6.019939
 6.019935
 6.019943
 6.019945
 6.019948
 6.019955
 6.019959
 6.019948
 6.019956
 6.019957
 6.019949
 6.019951
 6.019945
 6.019943
 6.019943
 6.019943
 6.019939
 6.019937
 6.01993
 6.019927
 6.019915
 6.019911
 6.01991
 6.019898
 6.019899
 6.019883
 6.019882
 6.01988
 6.019875
 6.019867
 6.019875
 6.019866
 6.019861
 6.019855
 6.019854
 6.019853
 6.019856
 6.019857
 6.019858
 6.019862
 6.019868
 6.019864
 6.019866
 6.019869
 6.019879
 6.019878
 6.019877
 6.019881
 6.019896
 6.019904
</dep>
<dep _net9.Vt time>
 6.019904
 6.019894
 6.019884
 6.019885
 6.019867
 6.01988
 6.019868
 6.019868
 6.019863
 6.019861
 6.019863
 6.019864
 6.01985
 6.019858
 6.01986
 6.019854
 6.019859
 6.019857
 6.01986
 6.019867
 6.019875
 6.01988
 6.019887
 6.01989
 6.019897
 6.019896
 6.019903
 6.019914
 6.019913
 6.019925
 6.01992
 6.019929
 6.019936
 6.01994
 6.01994
 6.019955
 6.019952
 6.019952
 6.01995
 6.019951
 6.019951
 6.019954
 6.019953
 6.019951
 6.019952
 6.019953
 6.019943
 6.019937
 6.019932
 6.019932
 6.019922
 6.01991
 6.019903
 6.019907
 6.019904
</dep>
<dep dbgg.Vt time>
 0.
 6.279052E-6
 21.661E-6
 36.52018E-6
 50.49796E-6
 60.07468E-6
 68.85672E-6
 76.72793E-6
 83.58419E-6
 89.33479E-6
 93.90367E-6
 97.23039E-6
 99.27095E-6
 99.99835E-6
 99.40297E-6
 97.49269E-6
 94.29278E-6
 89.84556E-6
 84.20987E-6
 77.46024E-6
 69.68597E-6
 60.9899E-6
 51.48705E-6
 41.30313E-6
 30.57285E-6
 19.43816E-6
 8.046336E-6
-3.451924E-6
-14.90452E-6
-26.15996E-6
-37.06936E-6
-47.4884E-6
-57.27927E-6
-66.31245E-6
-74.46844E-6
-81.63937E-6
-87.73037E-6
-92.66087E-6
-96.36566E-6
-98.79572E-6
-99.91891E-6
-99.72037E-6
-98.20273E-6
-95.38606E-6
-91.30763E-6
-86.02138E-6
-79.59724E-6
-72.12019E-6
-63.68913E-6
-54.41559E-6
-44.42224E-6
-33.84128E-6
-22.81266E-6
-11.48227E-6
 0.
</dep>
