<Qucs Dataset>
default plugins: ignored
detach_all: already installed, replacing
stashing as detach_all:0
;: already installed, replacing
stashing as ;:0
*: already installed, replacing
stashing as *:0
': already installed, replacing
stashing as ':0
": already installed, replacing
stashing as ":0
spice_bjt: already installed, replacing
stashing as spice_bjt:0
spice_mos: already installed, replacing
stashing as spice_mos:0
C:C3 _net10 _net8 C="1 uF" V="" 
                           ^ ? C3: V has no value?
Gnucap   System status
iterations: op=0, dc=0, tran=389, fourier=0, total=443
transient timesteps: accepted=54, rejected=0, total=54
transient timesteps: accepted=0, rejected=0, total=0
nodes: user=15, subckt=1, model=0, total=16
dctran density=55.5%, ac density=55.5%

<indep time 54>
 0.
 100.E-9
 347.5E-9
 595.E-9
 842.5E-9
 1.029388E-6
 1.216276E-6
 1.403163E-6
 1.590051E-6
 1.776939E-6
 1.963827E-6
 2.150714E-6
 2.337602E-6
 2.52449E-6
 2.711378E-6
 2.898265E-6
 3.085153E-6
 3.272041E-6
 3.458929E-6
 3.645816E-6
 3.832704E-6
 4.019592E-6
 4.20648E-6
 4.393367E-6
 4.580255E-6
 4.767143E-6
 4.954031E-6
 5.140918E-6
 5.327806E-6
 5.514694E-6
 5.701582E-6
 5.888469E-6
 6.075357E-6
 6.262245E-6
 6.449133E-6
 6.63602E-6
 6.822908E-6
 7.009796E-6
 7.196684E-6
 7.383571E-6
 7.570459E-6
 7.757347E-6
 7.944235E-6
 8.131122E-6
 8.31801E-6
 8.504898E-6
 8.691786E-6
 8.878673E-6
 9.065561E-6
 9.252449E-6
 9.439337E-6
 9.626224E-6
 9.813112E-6
 10.E-6
</indep>
<dep Output.Vt time>
-14.E-15
-27.30325E-6
-131.6345E-6
 153.1684E-6
 313.8665E-6
-82.73716E-6
-499.2491E-6
-329.4091E-6
 336.7326E-6
 652.9769E-6
 159.0406E-6
-589.6256E-6
-630.3873E-6
 114.6058E-6
 710.5292E-6
 431.3453E-6
-355.2611E-6
-645.0216E-6
-157.1068E-6
 443.6397E-6
 431.206E-6
-52.95982E-6
-339.4979E-6
-171.7822E-6
 93.55764E-6
 105.4965E-6
 5.776446E-6
 52.07789E-6
 135.4498E-6
-22.06164E-6
-302.7354E-6
-255.9668E-6
 213.9007E-6
 524.4235E-6
 186.1062E-6
-482.6344E-6
-608.0862E-6
 43.95401E-6
 688.2393E-6
 498.1867E-6
-320.5602E-6
-726.6565E-6
-247.2217E-6
 505.5906E-6
 589.2162E-6
-18.61823E-6
-507.9286E-6
-334.3418E-6
 166.1654E-6
 333.5979E-6
 96.21725E-6
-124.06E-6
-80.632E-6
-7.E-15
</dep>
<dep _net0.Vt time>
 8.01985
 8.002523
 7.990582
 8.036198
 8.050475
 8.015063
 7.96894
 8.003145
 8.035247
 8.073355
 8.02576
 7.991055
 7.987848
 8.023833
 8.06883
 8.037522
 8.005377
 7.964613
 8.013124
 8.04738
 8.053283
 8.016668
 7.972803
 8.001192
 8.033416
 8.076622
 8.0274
 7.993546
 7.984931
 8.022234
 8.064993
 8.039519
 8.007179
 7.961828
 8.011471
 8.044969
 8.056316
 8.018262
 7.976565
 7.999149
 8.031642
 8.078761
 8.029069
 7.995883
 7.981776
 8.020644
 8.061335
 8.041612
 8.008928
 7.960477
 8.009785
 8.042699
 8.059598
 8.01985
</dep>
<dep _net1.Vt time>
 9.60397
 9.603956
 9.603904
 9.604047
 9.604127
 9.603929
 9.60372
 9.603805
 9.604138
 9.604297
 9.60405
 9.603675
 9.603655
 9.604027
 9.604325
 9.604186
 9.603792
 9.603648
 9.603892
 9.604192
 9.604186
 9.603944
 9.6038
 9.603884
 9.604017
 9.604023
 9.603973
 9.603996
 9.604038
 9.603959
 9.603819
 9.603842
 9.604077
 9.604232
 9.604063
 9.603729
 9.603666
 9.603992
 9.604314
 9.604219
 9.60381
 9.603607
 9.603847
 9.604223
 9.604265
 9.603961
 9.603716
 9.603803
 9.604053
 9.604137
 9.604018
 9.603908
 9.60393
 9.60397
</dep>
<dep _net10.Vt time>
 6.019904
 6.019905
 6.019911
 6.019918
 6.019921
 6.019918
 6.019924
 6.019918
 6.01993
 6.01993
 6.019931
 6.019934
 6.019932
 6.019924
 6.019939
 6.019942
 6.019937
 6.019932
 6.019929
 6.019928
 6.019932
 6.019935
 6.019909
 6.019907
 6.019902
 6.019892
 6.019881
 6.019875
 6.019885
 6.019882
 6.019865
 6.01986
 6.019858
 6.019852
 6.019846
 6.019831
 6.01984
 6.019834
 6.019837
 6.019843
 6.019842
 6.019844
 6.019848
 6.019849
 6.019849
 6.019855
 6.019858
 6.019853
 6.019859
 6.019864
 6.019861
 6.019859
 6.019889
 6.019892
</dep>
<dep _net11.Vt time>
 5.20997
 5.209967
 5.209966
 5.209966
 5.209961
 5.209953
 5.209956
 5.209945
 5.209954
 5.209951
 5.209951
 5.209952
 5.209948
 5.209941
 5.209956
 5.20996
 5.209957
 5.209954
 5.209954
 5.209956
 5.209964
 5.209972
 5.209951
 5.209954
 5.209954
 5.20995
 5.209945
 5.209944
 5.209961
 5.209963
 5.209951
 5.209952
 5.209954
 5.209953
 5.20995
 5.209938
 5.20995
 5.209946
 5.209951
 5.209957
 5.209956
 5.209958
 5.209961
 5.20996
 5.209957
 5.20996
 5.209959
 5.20995
 5.209951
 5.209951
 5.209944
 5.209935
 5.20996
 5.209957
</dep>
<dep _net12.Vt time>
 10.
 10.
 10.
 10.
 10.
 10.
 10.
 10.
 10.
 10.
 10.
 10.
 10.
 10.
 10.
 10.
 10.
 10.
 10.
 10.
 10.
 10.
 10.
 10.
 10.
 10.
 10.
 10.
 10.
 10.
 10.
 10.
 10.
 10.
 10.
 10.
 10.
 10.
 10.
 10.
 10.
 10.
 10.
 10.
 10.
 10.
 10.
 10.
 10.
 10.
 10.
 10.
 10.
 10.
</dep>
<dep _net2.Vt time>
 7.227972
 7.233391
 7.241883
 7.232845
 7.243009
 7.228443
 7.261489
 7.233067
 7.232349
 7.264003
 7.228688
 7.241538
 7.244186
 7.228327
 7.259652
 7.233638
 7.231872
 7.265684
 7.228878
 7.240519
 7.24539
 7.228196
 7.257787
 7.234207
 7.23139
 7.267142
 7.22906
 7.239524
 7.246636
 7.228066
 7.255943
 7.234798
 7.230929
 7.268322
 7.229268
 7.238586
 7.247964
 7.227974
 7.254176
 7.23545
 7.230523
 7.269178
 7.229534
 7.237732
 7.249403
 7.227945
 7.252519
 7.236183
 7.230186
 7.269657
 7.229866
 7.236962
 7.250956
 7.227972
</dep>
<dep _net3.Vt time>
 8.01985
 8.037177
 8.049119
 8.003503
 7.989226
 8.024638
 8.070761
 8.036555
 8.004453
 7.966346
 8.01394
 8.048646
 8.051853
 8.015867
 7.970871
 8.002179
 8.034324
 8.075088
 8.026577
 7.992321
 7.986418
 8.023032
 8.066897
 8.038509
 8.006285
 7.963079
 8.012301
 8.046155
 8.05477
 8.017466
 7.974708
 8.000182
 8.032522
 8.077873
 8.02823
 7.994732
 7.983385
 8.021439
 8.063135
 8.040552
 8.008059
 7.960939
 8.010632
 8.043818
 8.057925
 8.019057
 7.978366
 7.998089
 8.030773
 8.079224
 8.029916
 7.997001
 7.980103
 8.01985
</dep>
<dep _net4.Vt time>
 9.60397
 9.603984
 9.604036
 9.603894
 9.603813
 9.604011
 9.60422
 9.604135
 9.603802
 9.603644
 9.603891
 9.604265
 9.604285
 9.603913
 9.603615
 9.603754
 9.604148
 9.604293
 9.604049
 9.603748
 9.603755
 9.603997
 9.60414
 9.604056
 9.603923
 9.603917
 9.603967
 9.603944
 9.603902
 9.603981
 9.604121
 9.604098
 9.603863
 9.603708
 9.603877
 9.604211
 9.604274
 9.603948
 9.603626
 9.603721
 9.60413
 9.604333
 9.604094
 9.603717
 9.603676
 9.603979
 9.604224
 9.604137
 9.603887
 9.603803
 9.603922
 9.604032
 9.60401
 9.60397
</dep>
<dep _net5.Vt time>
 7.227972
 7.233385
 7.241862
 7.232809
 7.24296
 7.228383
 7.261421
 7.232991
 7.232267
 7.263915
 7.228596
 7.241443
 7.244089
 7.228229
 7.259555
 7.233544
 7.231781
 7.265598
 7.228797
 7.240445
 7.245324
 7.228139
 7.25774
 7.234171
 7.231365
 7.267128
 7.229058
 7.239533
 7.246656
 7.228098
 7.255985
 7.234851
 7.23099
 7.268392
 7.229346
 7.23867
 7.248053
 7.228068
 7.254272
 7.235548
 7.230621
 7.269275
 7.229629
 7.237823
 7.249489
 7.228024
 7.252591
 7.236247
 7.230241
 7.269701
 7.2299
 7.236985
 7.250967
 7.227972
</dep>
<dep _net6.Vt time>
 10.
 10.
 10.
 10.
 10.
 10.
 10.
 10.
 10.
 10.
 10.
 10.
 10.
 10.
 10.
 10.
 10.
 10.
 10.
 10.
 10.
 10.
 10.
 10.
 10.
 10.
 10.
 10.
 10.
 10.
 10.
 10.
 10.
 10.
 10.
 10.
 10.
 10.
 10.
 10.
 10.
 10.
 10.
 10.
 10.
 10.
 10.
 10.
 10.
 10.
 10.
 10.
 10.
 10.
</dep>
<dep _net7.Vt time>
 6.019904
 6.019905
 6.019912
 6.019919
 6.019922
 6.019919
 6.019926
 6.019919
 6.019932
 6.019932
 6.019933
 6.019936
 6.019934
 6.019926
 6.019941
 6.019944
 6.019939
 6.019934
 6.019931
 6.019929
 6.019933
 6.019937
 6.01991
 6.019908
 6.019902
 6.019893
 6.019881
 6.019875
 6.019885
 6.019882
 6.019865
 6.019859
 6.019857
 6.019851
 6.019845
 6.019829
 6.019838
 6.019832
 6.019836
 6.019841
 6.01984
 6.019842
 6.019847
 6.019848
 6.019848
 6.019854
 6.019856
 6.019852
 6.019858
 6.019863
 6.019861
 6.019858
 6.019889
 6.019892
</dep>
<dep _net8.Vt time>
 6.019904
 6.019905
 6.019911
 6.019918
 6.019921
 6.019918
 6.019925
 6.019918
 6.01993
 6.01993
 6.019932
 6.019934
 6.019932
 6.019925
 6.019939
 6.019942
 6.019937
 6.019932
 6.019929
 6.019928
 6.019932
 6.019936
 6.019909
 6.019907
 6.019902
 6.019892
 6.019881
 6.019875
 6.019886
 6.019883
 6.019865
 6.01986
 6.019858
 6.019853
 6.019846
 6.019831
 6.01984
 6.019834
 6.019837
 6.019843
 6.019842
 6.019844
 6.019849
 6.019849
 6.019849
 6.019856
 6.019858
 6.019853
 6.019859
 6.019864
 6.019861
 6.019859
 6.019889
 6.019892
</dep>
<dep _net9.Vt time>
 6.019904
 6.019899
 6.01989
 6.019883
 6.019871
 6.019859
 6.019857
 6.019842
 6.019848
 6.019842
 6.019839
 6.019838
 6.019834
 6.019826
 6.019842
 6.019847
 6.019846
 6.019845
 6.019848
 6.019854
 6.019866
 6.019879
 6.019863
 6.01987
 6.019876
 6.019878
 6.019878
 6.019884
 6.019906
 6.019914
 6.019907
 6.019912
 6.019919
 6.019922
 6.019924
 6.019915
 6.019929
 6.019927
 6.019934
 6.019941
 6.01994
 6.019941
 6.019943
 6.01994
 6.019935
 6.019935
 6.019929
 6.019917
 6.019913
 6.019908
 6.019895
 6.019881
 6.019901
 6.019892
</dep>
<dep dbgg.Vt time>
 0.
 6.279052E-6
 21.661E-6
 36.52018E-6
 50.49796E-6
 60.26226E-6
 69.19658E-6
 77.17786E-6
 84.09619E-6
 89.85628E-6
 94.3788E-6
 97.60146E-6
 99.47987E-6
 99.98816E-6
 99.11934E-6
 96.88536E-6
 93.31701E-6
 88.46341E-6
 82.39143E-6
 75.18469E-6
 66.94244E-6
 57.7782E-6
 47.8182E-6
 37.19961E-6
 26.06868E-6
 14.5787E-6
 2.88794E-6
-8.842598E-6
-20.45135E-6
-31.77843E-6
-42.66783E-6
-52.96957E-6
-62.54178E-6
-71.25261E-6
-78.98209E-6
-85.62376E-6
-91.08616E-6
-95.29405E-6
-98.18947E-6
-99.73254E-6
-99.90202E-6
-98.69557E-6
-96.1298E-6
-92.24006E-6
-87.07991E-6
-80.72043E-6
-73.2492E-6
-64.76912E-6
-55.39699E-6
-45.26189E-6
-34.50341E-6
-23.26972E-6
-11.71554E-6
 0.
</dep>
