<Qucs Dataset>
default plugins: ignored
C:C3 _net10 _net8 C="1 uF" V="" 
                           ^ ? C3: V has no value?
Gnucap   System status
iterations: op=0, dc=0, tran=389, fourier=0, total=443
transient timesteps: accepted=54, rejected=0, total=54
transient timesteps: accepted=0, rejected=0, total=0
nodes: user=15, subckt=1, model=0, total=16
dctran density=55.5%, ac density=55.5%

<indep time 54>
 0.
 100.E-9
 347.5E-9
 595.E-9
 842.5E-9
 1.029388E-6
 1.216276E-6
 1.403164E-6
 1.590052E-6
 1.77694E-6
 1.963828E-6
 2.150716E-6
 2.337604E-6
 2.524492E-6
 2.71138E-6
 2.898268E-6
 3.085156E-6
 3.272044E-6
 3.458932E-6
 3.64582E-6
 3.832708E-6
 4.019596E-6
 4.206484E-6
 4.393372E-6
 4.58026E-6
 4.767148E-6
 4.954036E-6
 5.140924E-6
 5.327812E-6
 5.5147E-6
 5.701588E-6
 5.888476E-6
 6.075364E-6
 6.262252E-6
 6.44914E-6
 6.636028E-6
 6.822916E-6
 7.009804E-6
 7.196692E-6
 7.38358E-6
 7.570468E-6
 7.757356E-6
 7.944244E-6
 8.131132E-6
 8.31802E-6
 8.504908E-6
 8.691796E-6
 8.878684E-6
 9.065572E-6
 9.25246E-6
 9.439348E-6
 9.626236E-6
 9.813124E-6
 10.E-6
</indep>
<dep Output.Vt time>
 9.E-15
-27.31854E-6
-131.6576E-6
 153.1752E-6
 313.8866E-6
-82.73538E-6
-499.2369E-6
-329.3855E-6
 336.731E-6
 652.9541E-6
 159.0313E-6
-589.6124E-6
-630.3648E-6
 114.6103E-6
 710.5173E-6
 431.3294E-6
-355.265E-6
-645.0142E-6
-157.091E-6
 443.6457E-6
 431.1984E-6
-52.97083E-6
-339.4819E-6
-171.7667E-6
 93.55937E-6
 105.482E-6
 5.771967E-6
 52.08363E-6
 135.4469E-6
-22.06991E-6
-302.7595E-6
-255.9647E-6
 213.9272E-6
 524.4345E-6
 186.0839E-6
-482.6923E-6
-608.0893E-6
 43.99185E-6
 688.2779E-6
 498.1626E-6
-320.6004E-6
-726.6632E-6
-247.1854E-6
 505.6264E-6
 589.2048E-6
-18.65657E-6
-507.9504E-6
-334.3293E-6
 166.1913E-6
 333.6163E-6
 96.20774E-6
-124.0887E-6
-80.63928E-6
 0.
</dep>
<dep _net0.Vt time>
 8.01985
 8.002523
 7.990582
 8.036198
 8.050475
 8.015063
 7.96894
 8.003146
 8.035248
 8.073354
 8.02576
 7.991054
 7.987849
 8.023834
 8.068831
 8.037521
 8.005377
 7.964614
 8.013124
 8.047381
 8.053282
 8.016668
 7.972802
 8.001193
 8.033417
 8.07662
 8.027399
 7.993544
 7.984933
 8.022235
 8.064996
 8.039517
 8.007178
 7.96183
 8.011472
 8.04497
 8.056314
 8.018261
 7.976562
 7.999151
 8.031643
 8.07876
 8.029067
 7.995881
 7.981779
 8.020646
 8.061339
 8.041609
 8.008926
 7.960478
 8.009787
 8.042702
 8.059593
 8.01985
</dep>
<dep _net1.Vt time>
 9.60397
 9.603956
 9.603904
 9.604047
 9.604127
 9.603929
 9.60372
 9.603805
 9.604138
 9.604297
 9.60405
 9.603675
 9.603655
 9.604027
 9.604325
 9.604186
 9.603792
 9.603648
 9.603892
 9.604192
 9.604186
 9.603944
 9.6038
 9.603884
 9.604017
 9.604023
 9.603973
 9.603996
 9.604038
 9.603959
 9.603819
 9.603842
 9.604077
 9.604232
 9.604063
 9.603729
 9.603666
 9.603992
 9.604314
 9.604219
 9.60381
 9.603607
 9.603847
 9.604223
 9.604265
 9.603961
 9.603716
 9.603803
 9.604053
 9.604137
 9.604018
 9.603908
 9.60393
 9.60397
</dep>
<dep _net10.Vt time>
 6.019904
 6.0199
 6.019905
 6.019921
 6.019916
 6.019934
 6.01994
 6.019947
 6.019944
 6.01995
 6.019947
 6.019954
 6.019951
 6.019953
 6.019955
 6.019955
 6.019952
 6.019943
 6.019942
 6.019936
 6.01994
 6.019943
 6.019926
 6.019921
 6.019912
 6.019906
 6.019894
 6.019884
 6.019891
 6.019883
 6.019883
 6.019875
 6.019874
 6.019865
 6.019859
 6.019864
 6.019857
 6.019854
 6.019859
 6.019854
 6.019853
 6.019856
 6.019861
 6.019863
 6.01986
 6.019867
 6.019872
 6.01987
 6.019868
 6.019882
 6.019881
 6.019883
 6.019904
 6.0199
</dep>
<dep _net11.Vt time>
 5.20997
 5.209962
 5.20996
 5.209968
 5.209957
 5.209969
 5.209971
 5.209974
 5.209968
 5.209972
 5.209966
 5.209972
 5.209968
 5.209969
 5.209972
 5.209973
 5.209972
 5.209965
 5.209967
 5.209965
 5.209972
 5.20998
 5.209968
 5.209968
 5.209965
 5.209965
 5.209958
 5.209954
 5.209967
 5.209964
 5.209969
 5.209966
 5.20997
 5.209966
 5.209963
 5.209971
 5.209967
 5.209966
 5.209973
 5.209969
 5.209967
 5.209969
 5.209973
 5.209973
 5.209968
 5.209972
 5.209973
 5.209967
 5.20996
 5.20997
 5.209963
 5.209959
 5.209975
 5.209965
</dep>
<dep _net12.Vt time>
 10.
 10.
 10.
 10.
 10.
 10.
 10.
 10.
 10.
 10.
 10.
 10.
 10.
 10.
 10.
 10.
 10.
 10.
 10.
 10.
 10.
 10.
 10.
 10.
 10.
 10.
 10.
 10.
 10.
 10.
 10.
 10.
 10.
 10.
 10.
 10.
 10.
 10.
 10.
 10.
 10.
 10.
 10.
 10.
 10.
 10.
 10.
 10.
 10.
 10.
 10.
 10.
 10.
 10.
</dep>
<dep _net2.Vt time>
 7.227972
 7.233391
 7.241883
 7.232845
 7.243009
 7.228443
 7.261489
 7.233067
 7.232349
 7.264002
 7.228688
 7.241539
 7.244186
 7.228327
 7.259653
 7.233638
 7.231873
 7.265683
 7.228878
 7.240519
 7.245389
 7.228196
 7.257788
 7.234207
 7.231391
 7.26714
 7.22906
 7.239525
 7.246634
 7.228067
 7.255945
 7.234798
 7.23093
 7.26832
 7.229268
 7.238588
 7.247961
 7.227974
 7.254179
 7.235449
 7.230524
 7.269176
 7.229534
 7.237734
 7.2494
 7.227945
 7.252522
 7.236182
 7.230187
 7.269656
 7.229866
 7.236964
 7.250952
 7.227972
</dep>
<dep _net3.Vt time>
 8.01985
 8.037177
 8.049119
 8.003503
 7.989226
 8.024638
 8.070761
 8.036555
 8.004453
 7.966347
 8.013941
 8.048647
 8.051852
 8.015867
 7.97087
 8.002179
 8.034324
 8.075087
 8.026576
 7.99232
 7.986419
 8.023033
 8.066899
 8.038508
 8.006284
 7.963081
 8.012302
 8.046157
 8.054768
 8.017465
 7.974705
 8.000184
 8.032523
 8.077871
 8.028229
 7.99473
 7.983387
 8.02144
 8.063139
 8.04055
 8.008058
 7.960941
 8.010634
 8.04382
 8.057921
 8.019055
 7.978362
 7.998091
 8.030775
 8.079223
 8.029914
 7.996999
 7.980107
 8.01985
</dep>
<dep _net4.Vt time>
 9.60397
 9.603984
 9.604036
 9.603894
 9.603813
 9.604011
 9.60422
 9.604135
 9.603802
 9.603644
 9.603891
 9.604265
 9.604285
 9.603913
 9.603615
 9.603754
 9.604148
 9.604293
 9.604049
 9.603748
 9.603755
 9.603997
 9.60414
 9.604056
 9.603923
 9.603917
 9.603967
 9.603944
 9.603902
 9.603981
 9.604121
 9.604098
 9.603863
 9.603708
 9.603877
 9.604211
 9.604274
 9.603948
 9.603626
 9.603721
 9.60413
 9.604333
 9.604094
 9.603717
 9.603676
 9.603979
 9.604224
 9.604137
 9.603887
 9.603803
 9.603922
 9.604032
 9.60401
 9.60397
</dep>
<dep _net5.Vt time>
 7.227972
 7.233385
 7.241862
 7.232809
 7.24296
 7.228383
 7.261421
 7.232991
 7.232267
 7.263914
 7.228596
 7.241443
 7.244088
 7.228229
 7.259556
 7.233543
 7.231781
 7.265597
 7.228797
 7.240446
 7.245323
 7.228139
 7.257742
 7.23417
 7.231365
 7.267126
 7.229057
 7.239534
 7.246655
 7.228098
 7.255987
 7.23485
 7.230991
 7.26839
 7.229345
 7.238672
 7.248051
 7.228068
 7.254275
 7.235547
 7.230622
 7.269273
 7.229628
 7.237824
 7.249486
 7.228024
 7.252594
 7.236245
 7.230241
 7.269701
 7.2299
 7.236987
 7.250963
 7.227972
</dep>
<dep _net6.Vt time>
 10.
 10.
 10.
 10.
 10.
 10.
 10.
 10.
 10.
 10.
 10.
 10.
 10.
 10.
 10.
 10.
 10.
 10.
 10.
 10.
 10.
 10.
 10.
 10.
 10.
 10.
 10.
 10.
 10.
 10.
 10.
 10.
 10.
 10.
 10.
 10.
 10.
 10.
 10.
 10.
 10.
 10.
 10.
 10.
 10.
 10.
 10.
 10.
 10.
 10.
 10.
 10.
 10.
 10.
</dep>
<dep _net7.Vt time>
 6.019904
 6.0199
 6.019905
 6.019921
 6.019918
 6.019935
 6.019942
 6.019948
 6.019945
 6.019952
 6.019949
 6.019956
 6.019953
 6.019955
 6.019957
 6.019957
 6.019954
 6.019945
 6.019944
 6.019938
 6.019941
 6.019944
 6.019927
 6.019922
 6.019913
 6.019907
 6.019894
 6.019884
 6.019891
 6.019883
 6.019882
 6.019874
 6.019873
 6.019864
 6.019857
 6.019863
 6.019855
 6.019853
 6.019858
 6.019853
 6.019851
 6.019854
 6.019859
 6.019861
 6.019858
 6.019865
 6.01987
 6.019869
 6.019867
 6.019882
 6.01988
 6.019882
 6.019904
 6.0199
</dep>
<dep _net8.Vt time>
 6.019904
 6.0199
 6.019905
 6.019921
 6.019917
 6.019934
 6.01994
 6.019947
 6.019944
 6.019951
 6.019947
 6.019954
 6.019951
 6.019953
 6.019955
 6.019956
 6.019952
 6.019943
 6.019942
 6.019936
 6.01994
 6.019943
 6.019927
 6.019921
 6.019912
 6.019907
 6.019894
 6.019884
 6.019892
 6.019884
 6.019883
 6.019875
 6.019874
 6.019865
 6.019859
 6.019864
 6.019857
 6.019854
 6.019859
 6.019854
 6.019853
 6.019856
 6.019861
 6.019863
 6.01986
 6.019867
 6.019872
 6.01987
 6.019868
 6.019883
 6.019881
 6.019883
 6.019904
 6.0199
</dep>
<dep _net9.Vt time>
 6.019904
 6.019894
 6.019884
 6.019885
 6.019867
 6.019875
 6.019872
 6.019871
 6.019861
 6.019862
 6.019855
 6.019859
 6.019854
 6.019855
 6.019858
 6.01986
 6.019861
 6.019856
 6.019862
 6.019862
 6.019874
 6.019887
 6.01988
 6.019885
 6.019887
 6.019892
 6.019892
 6.019893
 6.019912
 6.019915
 6.019925
 6.019927
 6.019935
 6.019935
 6.019936
 6.019948
 6.019946
 6.019948
 6.019956
 6.019952
 6.019951
 6.019953
 6.019955
 6.019953
 6.019945
 6.019946
 6.019944
 6.019933
 6.019922
 6.019927
 6.019915
 6.019905
 6.019916
 6.0199
</dep>
<dep dbgg.Vt time>
 0.
 6.279052E-6
 21.661E-6
 36.52018E-6
 50.49796E-6
 60.26227E-6
 69.1966E-6
 77.17789E-6
 84.09623E-6
 89.85632E-6
 94.37883E-6
 97.60148E-6
 99.47988E-6
 99.98816E-6
 99.11932E-6
 96.88532E-6
 93.31694E-6
 88.46332E-6
 82.39131E-6
 75.18453E-6
 66.94225E-6
 57.77799E-6
 47.81796E-6
 37.19934E-6
 26.06838E-6
 14.57838E-6
 2.887602E-6
-8.84295E-6
-20.45171E-6
-31.77879E-6
-42.66819E-6
-52.96992E-6
-62.54211E-6
-71.25292E-6
-78.98237E-6
-85.62401E-6
-91.08637E-6
-95.2942E-6
-98.18957E-6
-99.73258E-6
-99.902E-6
-98.69548E-6
-96.12964E-6
-92.23983E-6
-87.07961E-6
-80.72005E-6
-73.24876E-6
-64.76862E-6
-55.39643E-6
-45.26128E-6
-34.50275E-6
-23.26901E-6
-11.7148E-6
 0.
</dep>
