<Qucs Dataset>
default plugins: ignored
;: already installed, replacing
stashing as ;:0
*: already installed, replacing
stashing as *:0
': already installed, replacing
stashing as ':0
": already installed, replacing
stashing as ":0
d: already installed, replacing
stashing as d:0
diode: already installed, replacing
stashing as diode:0
npn: already installed, replacing
stashing as npn:0
pnp: already installed, replacing
stashing as pnp:0
npn1: already installed, replacing
stashing as npn1:0
pnp1: already installed, replacing
stashing as pnp1:0
Q: already installed, replacing
stashing as Q:0
bjt: already installed, replacing
stashing as bjt:0
L: already installed, replacing
stashing as L:0
C:C3 _net10 _net8 C="1 uF" V="" 
                           ^ ? C3: V has no value?
Gnucap   System status
iterations: op=0, dc=0, tran=389, fourier=0, total=443
transient timesteps: accepted=54, rejected=0, total=54
transient timesteps: accepted=0, rejected=0, total=0
nodes: user=15, subckt=1, model=0, total=16
dctran density=55.5%, ac density=55.5%

<indep time 54>
 0.
 100.E-9
 347.5E-9
 595.E-9
 842.5E-9
 1.029388E-6
 1.216276E-6
 1.403163E-6
 1.590051E-6
 1.776939E-6
 1.963827E-6
 2.150714E-6
 2.337602E-6
 2.52449E-6
 2.711378E-6
 2.898265E-6
 3.085153E-6
 3.272041E-6
 3.458929E-6
 3.645816E-6
 3.832704E-6
 4.019592E-6
 4.20648E-6
 4.393367E-6
 4.580255E-6
 4.767143E-6
 4.954031E-6
 5.140918E-6
 5.327806E-6
 5.514694E-6
 5.701582E-6
 5.888469E-6
 6.075357E-6
 6.262245E-6
 6.449133E-6
 6.63602E-6
 6.822908E-6
 7.009796E-6
 7.196684E-6
 7.383571E-6
 7.570459E-6
 7.757347E-6
 7.944235E-6
 8.131122E-6
 8.31801E-6
 8.504898E-6
 8.691786E-6
 8.878673E-6
 9.065561E-6
 9.252449E-6
 9.439337E-6
 9.626224E-6
 9.813112E-6
 10.E-6
</indep>
<dep Output.Vt time>
 5.E-15
-27.24876E-6
-131.6001E-6
 153.177E-6
 313.9353E-6
-82.76025E-6
-499.3928E-6
-329.4924E-6
 336.8355E-6
 653.1816E-6
 159.0888E-6
-589.8239E-6
-630.5986E-6
 114.6419E-6
 710.7849E-6
 431.5047E-6
-355.3777E-6
-645.2264E-6
-157.1563E-6
 443.7726E-6
 431.3292E-6
-52.97538E-6
-339.5449E-6
-171.7926E-6
 93.54747E-6
 105.4218E-6
 5.736662E-6
 52.20854E-6
 135.6087E-6
-22.08116E-6
-303.0005E-6
-256.1722E-6
 214.0621E-6
 524.8039E-6
 186.235E-6
-482.9763E-6
-608.5185E-6
 43.98469E-6
 688.6997E-6
 498.5133E-6
-320.7676E-6
-727.1206E-6
-247.3754E-6
 505.9139E-6
 589.6027E-6
-18.63059E-6
-508.2766E-6
-334.5938E-6
 166.3002E-6
 333.881E-6
 96.31061E-6
-124.2281E-6
-80.78117E-6
 4.E-15
</dep>
<dep _net0.Vt time>
 8.01985
 8.002532
 7.990596
 8.03619
 8.05046
 8.015065
 7.968962
 8.003154
 8.03524
 8.073333
 8.025758
 7.991069
 7.987864
 8.023832
 8.068808
 8.037513
 8.005384
 7.964635
 8.013127
 8.047367
 8.053267
 8.01667
 7.972824
 8.001201
 8.033409
 8.076599
 8.027396
 7.993558
 7.984947
 8.022233
 8.064973
 8.039509
 8.007185
 7.96185
 8.011475
 8.044956
 8.056299
 8.018263
 7.976585
 7.999159
 8.031636
 8.078739
 8.029064
 7.995895
 7.981794
 8.020644
 8.061316
 8.041601
 8.008933
 7.9605
 8.00979
 8.042688
 8.059579
 8.01985
</dep>
<dep _net1.Vt time>
 9.60397
 9.603956
 9.603904
 9.604047
 9.604127
 9.603929
 9.60372
 9.603805
 9.604139
 9.604297
 9.60405
 9.603675
 9.603655
 9.604027
 9.604326
 9.604186
 9.603792
 9.603648
 9.603892
 9.604192
 9.604186
 9.603944
 9.6038
 9.603884
 9.604017
 9.604023
 9.603973
 9.603996
 9.604038
 9.603959
 9.603819
 9.603842
 9.604077
 9.604233
 9.604063
 9.603729
 9.603666
 9.603992
 9.604314
 9.604219
 9.60381
 9.603607
 9.603846
 9.604223
 9.604265
 9.603961
 9.603716
 9.603803
 9.604053
 9.604137
 9.604018
 9.603908
 9.60393
 9.60397
</dep>
<dep _net10.Vt time>
 6.019906
 6.019905
 6.019915
 6.019921
 6.019916
 6.019909
 6.019922
 6.019932
 6.019933
 6.019936
 6.019943
 6.019936
 6.019935
 6.019935
 6.019934
 6.01993
 6.019938
 6.019936
 6.019927
 6.019926
 6.019927
 6.019921
 6.019917
 6.01991
 6.019903
 6.0199
 6.019899
 6.019886
 6.019879
 6.01987
 6.019868
 6.019863
 6.019861
 6.019855
 6.019846
 6.019841
 6.019855
 6.019849
 6.019842
 6.019844
 6.01984
 6.019836
 6.019835
 6.01984
 6.019842
 6.019848
 6.01985
 6.019858
 6.019867
 6.019865
 6.019865
 6.019877
 6.019892
 6.01989
</dep>
<dep _net11.Vt time>
 5.209782
 5.209779
 5.209781
 5.20978
 5.209768
 5.209756
 5.209765
 5.20977
 5.209768
 5.209768
 5.209773
 5.209765
 5.209763
 5.209763
 5.209762
 5.209759
 5.209769
 5.209769
 5.209763
 5.209766
 5.209771
 5.209769
 5.20977
 5.209768
 5.209767
 5.20977
 5.209774
 5.209767
 5.209766
 5.209763
 5.209765
 5.209766
 5.209768
 5.209766
 5.209762
 5.20976
 5.209777
 5.209772
 5.209767
 5.20977
 5.209766
 5.209762
 5.209759
 5.209762
 5.209762
 5.209764
 5.209763
 5.209766
 5.209771
 5.209764
 5.209759
 5.209765
 5.209774
 5.209767
</dep>
<dep _net12.Vt time>
 10.
 10.
 10.
 10.
 10.
 10.
 10.
 10.
 10.
 10.
 10.
 10.
 10.
 10.
 10.
 10.
 10.
 10.
 10.
 10.
 10.
 10.
 10.
 10.
 10.
 10.
 10.
 10.
 10.
 10.
 10.
 10.
 10.
 10.
 10.
 10.
 10.
 10.
 10.
 10.
 10.
 10.
 10.
 10.
 10.
 10.
 10.
 10.
 10.
 10.
 10.
 10.
 10.
 10.
</dep>
<dep _net2.Vt time>
 7.227775
 7.233191
 7.241679
 7.232645
 7.242804
 7.228245
 7.261278
 7.232867
 7.232149
 7.263791
 7.22849
 7.241334
 7.243981
 7.228129
 7.259441
 7.233438
 7.231673
 7.265473
 7.22868
 7.240315
 7.245184
 7.227998
 7.257577
 7.234006
 7.231191
 7.26693
 7.228862
 7.239321
 7.24643
 7.227869
 7.255733
 7.234597
 7.23073
 7.26811
 7.22907
 7.238383
 7.247757
 7.227777
 7.253967
 7.235249
 7.230324
 7.268966
 7.229336
 7.23753
 7.249196
 7.227747
 7.25231
 7.235982
 7.229987
 7.269445
 7.229668
 7.23676
 7.250748
 7.227775
</dep>
<dep _net3.Vt time>
 8.01985
 8.037169
 8.049105
 8.003511
 7.989241
 8.024636
 8.070739
 8.036547
 8.004461
 7.966368
 8.013943
 8.048632
 8.051837
 8.015869
 7.970892
 8.002188
 8.034317
 8.075066
 8.026574
 7.992334
 7.986434
 8.023031
 8.066877
 8.0385
 8.006292
 7.963101
 8.012305
 8.046142
 8.054753
 8.017468
 7.974728
 8.000192
 8.032516
 8.07785
 8.028226
 7.994744
 7.983402
 8.021438
 8.063116
 8.040542
 8.008065
 7.960962
 8.010637
 8.043806
 8.057907
 8.019057
 7.978385
 7.9981
 8.030768
 8.079201
 8.029911
 7.997013
 7.980122
 8.01985
</dep>
<dep _net4.Vt time>
 9.60397
 9.603984
 9.604036
 9.603894
 9.603813
 9.604011
 9.60422
 9.604135
 9.603802
 9.603644
 9.603891
 9.604265
 9.604285
 9.603913
 9.603615
 9.603754
 9.604148
 9.604293
 9.604049
 9.603748
 9.603754
 9.603997
 9.60414
 9.604056
 9.603923
 9.603917
 9.603967
 9.603944
 9.603902
 9.603981
 9.604122
 9.604098
 9.603863
 9.603708
 9.603877
 9.604212
 9.604274
 9.603948
 9.603626
 9.603721
 9.604131
 9.604334
 9.604094
 9.603717
 9.603675
 9.603979
 9.604224
 9.604137
 9.603887
 9.603803
 9.603922
 9.604032
 9.604011
 9.60397
</dep>
<dep _net5.Vt time>
 7.227775
 7.233184
 7.241657
 7.232609
 7.242755
 7.228186
 7.26121
 7.232791
 7.232067
 7.263703
 7.228398
 7.241238
 7.243884
 7.228031
 7.259344
 7.233343
 7.231581
 7.265386
 7.228599
 7.240241
 7.245119
 7.227942
 7.25753
 7.23397
 7.231166
 7.266916
 7.228859
 7.23933
 7.24645
 7.2279
 7.255775
 7.23465
 7.230791
 7.26818
 7.229147
 7.238468
 7.247846
 7.22787
 7.254063
 7.235347
 7.230422
 7.269063
 7.22943
 7.23762
 7.249281
 7.227826
 7.252382
 7.236045
 7.230042
 7.26949
 7.229702
 7.236783
 7.250759
 7.227775
</dep>
<dep _net6.Vt time>
 10.
 10.
 10.
 10.
 10.
 10.
 10.
 10.
 10.
 10.
 10.
 10.
 10.
 10.
 10.
 10.
 10.
 10.
 10.
 10.
 10.
 10.
 10.
 10.
 10.
 10.
 10.
 10.
 10.
 10.
 10.
 10.
 10.
 10.
 10.
 10.
 10.
 10.
 10.
 10.
 10.
 10.
 10.
 10.
 10.
 10.
 10.
 10.
 10.
 10.
 10.
 10.
 10.
 10.
</dep>
<dep _net7.Vt time>
 6.019906
 6.019906
 6.019916
 6.019922
 6.019917
 6.01991
 6.019924
 6.019933
 6.019935
 6.019938
 6.019945
 6.019938
 6.019937
 6.019937
 6.019936
 6.019932
 6.01994
 6.019938
 6.019929
 6.019927
 6.019929
 6.019922
 6.019918
 6.019911
 6.019904
 6.019901
 6.019899
 6.019886
 6.019879
 6.01987
 6.019867
 6.019863
 6.019859
 6.019854
 6.019845
 6.01984
 6.019854
 6.019847
 6.01984
 6.019843
 6.019839
 6.019835
 6.019833
 6.019838
 6.019841
 6.019847
 6.019849
 6.019857
 6.019866
 6.019864
 6.019865
 6.019877
 6.019891
 6.01989
</dep>
<dep _net8.Vt time>
 6.019906
 6.019906
 6.019916
 6.019921
 6.019916
 6.019909
 6.019922
 6.019932
 6.019933
 6.019936
 6.019943
 6.019936
 6.019936
 6.019935
 6.019934
 6.01993
 6.019939
 6.019936
 6.019927
 6.019926
 6.019927
 6.019921
 6.019917
 6.01991
 6.019903
 6.019901
 6.019899
 6.019886
 6.01988
 6.019871
 6.019868
 6.019864
 6.019861
 6.019855
 6.019847
 6.019841
 6.019855
 6.019849
 6.019842
 6.019844
 6.01984
 6.019837
 6.019835
 6.01984
 6.019842
 6.019848
 6.01985
 6.019858
 6.019867
 6.019865
 6.019865
 6.019877
 6.019892
 6.01989
</dep>
<dep _net9.Vt time>
 6.019906
 6.019899
 6.019894
 6.019885
 6.019866
 6.01985
 6.019854
 6.019856
 6.019851
 6.019848
 6.019851
 6.01984
 6.019838
 6.019837
 6.019837
 6.019835
 6.019847
 6.019849
 6.019846
 6.019852
 6.019862
 6.019864
 6.01987
 6.019874
 6.019877
 6.019886
 6.019897
 6.019895
 6.0199
 6.019902
 6.01991
 6.019916
 6.019922
 6.019925
 6.019924
 6.019925
 6.019945
 6.019943
 6.019938
 6.019942
 6.019938
 6.019933
 6.019929
 6.01993
 6.019928
 6.019927
 6.019922
 6.019922
 6.019921
 6.019909
 6.019899
 6.0199
 6.019903
 6.01989
</dep>
<dep dbgg.Vt time>
 0.
 6.279052E-6
 21.661E-6
 36.52018E-6
 50.49796E-6
 60.26226E-6
 69.19658E-6
 77.17786E-6
 84.09619E-6
 89.85628E-6
 94.3788E-6
 97.60146E-6
 99.47987E-6
 99.98816E-6
 99.11934E-6
 96.88536E-6
 93.31701E-6
 88.46341E-6
 82.39143E-6
 75.18469E-6
 66.94244E-6
 57.7782E-6
 47.8182E-6
 37.19961E-6
 26.06868E-6
 14.5787E-6
 2.88794E-6
-8.842598E-6
-20.45135E-6
-31.77843E-6
-42.66783E-6
-52.96957E-6
-62.54178E-6
-71.25261E-6
-78.98209E-6
-85.62376E-6
-91.08616E-6
-95.29405E-6
-98.18947E-6
-99.73254E-6
-99.90202E-6
-98.69557E-6
-96.1298E-6
-92.24006E-6
-87.07991E-6
-80.72043E-6
-73.2492E-6
-64.76912E-6
-55.39699E-6
-45.26189E-6
-34.50341E-6
-23.26972E-6
-11.71554E-6
 0.
</dep>
