<Qucs Dataset 0.0.20>
<indep time 201>
  +0.00000000000000000000e+00
  +2.50000000000000009108e-11
  +5.00000000000000018216e-11
  +7.49999999999999995012e-11
  +1.00000000000000003643e-10
  +1.25000000000000007785e-10
  +1.49999999999999999002e-10
  +1.75000000000000016069e-10
  +2.00000000000000007286e-10
  +2.24999999999999998504e-10
  +2.50000000000000015570e-10
  +2.75000000000000032637e-10
  +2.99999999999999998005e-10
  +3.25000000000000015072e-10
  +3.50000000000000032138e-10
  +3.74999999999999997506e-10
  +4.00000000000000014573e-10
  +4.25000000000000031640e-10
  +4.49999999999999997007e-10
  +4.75000000000000014074e-10
  +5.00000000000000031141e-10
  +5.25000000000000048207e-10
  +5.50000000000000065274e-10
  +5.74999999999999978943e-10
  +5.99999999999999996010e-10
  +6.25000000000000013077e-10
  +6.50000000000000030143e-10
  +6.75000000000000047210e-10
  +7.00000000000000064277e-10
  +7.24999999999999977946e-10
  +7.49999999999999995012e-10
  +7.75000000000000012079e-10
  +8.00000000000000029146e-10
  +8.25000000000000046212e-10
  +8.50000000000000063279e-10
  +8.75000000000000080346e-10
  +8.99999999999999994015e-10
  +9.25000000000000011082e-10
  +9.50000000000000028148e-10
  +9.75000000000000045215e-10
  +1.00000000000000006228e-09
  +1.02500000000000007935e-09
  +1.05000000000000009641e-09
  +1.07500000000000011348e-09
  +1.10000000000000013055e-09
  +1.12499999999999994082e-09
  +1.14999999999999995789e-09
  +1.17499999999999997495e-09
  +1.19999999999999999202e-09
  +1.22500000000000000909e-09
  +1.25000000000000002615e-09
  +1.27500000000000004322e-09
  +1.30000000000000006029e-09
  +1.32500000000000007735e-09
  +1.35000000000000009442e-09
  +1.37500000000000011149e-09
  +1.40000000000000012855e-09
  +1.42500000000000014562e-09
  +1.44999999999999995589e-09
  +1.47499999999999997296e-09
  +1.49999999999999999002e-09
  +1.52500000000000000709e-09
  +1.55000000000000002416e-09
  +1.57500000000000004122e-09
  +1.60000000000000005829e-09
  +1.62500000000000007536e-09
  +1.65000000000000009242e-09
  +1.67500000000000010949e-09
  +1.70000000000000012656e-09
  +1.72500000000000014362e-09
  +1.75000000000000016069e-09
  +1.77499999999999997096e-09
  +1.79999999999999998803e-09
  +1.82500000000000000510e-09
  +1.85000000000000002216e-09
  +1.87500000000000024602e-09
  +1.90000000000000005630e-09
  +1.92499999999999986657e-09
  +1.95000000000000009043e-09
  +1.97499999999999990070e-09
  +2.00000000000000012456e-09
  +2.02499999999999993483e-09
  +2.05000000000000015870e-09
  +2.07499999999999996897e-09
  +2.10000000000000019283e-09
  +2.12500000000000000310e-09
  +2.15000000000000022696e-09
  +2.17500000000000003723e-09
  +2.20000000000000026110e-09
  +2.22500000000000007137e-09
  +2.24999999999999988164e-09
  +2.27500000000000010550e-09
  +2.29999999999999991577e-09
  +2.32500000000000013963e-09
  +2.34999999999999994991e-09
  +2.37500000000000017377e-09
  +2.39999999999999998404e-09
  +2.42500000000000020790e-09
  +2.45000000000000001817e-09
  +2.47500000000000024203e-09
  +2.50000000000000005231e-09
  +2.52500000000000027617e-09
  +2.55000000000000008644e-09
  +2.57499999999999989671e-09
  +2.60000000000000012057e-09
  +2.62499999999999993084e-09
  +2.65000000000000015471e-09
  +2.67499999999999996498e-09
  +2.70000000000000018884e-09
  +2.72499999999999999911e-09
  +2.75000000000000022297e-09
  +2.77500000000000003324e-09
  +2.80000000000000025711e-09
  +2.82500000000000006738e-09
  +2.85000000000000029124e-09
  +2.87500000000000010151e-09
  +2.89999999999999991178e-09
  +2.92500000000000013564e-09
  +2.94999999999999994592e-09
  +2.97500000000000016978e-09
  +2.99999999999999998005e-09
  +3.02500000000000020391e-09
  +3.05000000000000001418e-09
  +3.07500000000000023804e-09
  +3.10000000000000004832e-09
  +3.12500000000000027218e-09
  +3.15000000000000008245e-09
  +3.17500000000000030631e-09
  +3.20000000000000011658e-09
  +3.22499999999999992685e-09
  +3.25000000000000015072e-09
  +3.27499999999999996099e-09
  +3.30000000000000018485e-09
  +3.32499999999999999512e-09
  +3.35000000000000021898e-09
  +3.37500000000000002925e-09
  +3.40000000000000025312e-09
  +3.42500000000000006339e-09
  +3.45000000000000028725e-09
  +3.47500000000000009752e-09
  +3.50000000000000032138e-09
  +3.52500000000000013165e-09
  +3.54999999999999994193e-09
  +3.57500000000000016579e-09
  +3.59999999999999997606e-09
  +3.62500000000000019992e-09
  +3.65000000000000001019e-09
  +3.67500000000000023405e-09
  +3.70000000000000004433e-09
  +3.72500000000000026819e-09
  +3.75000000000000049205e-09
  +3.77499999999999988873e-09
  +3.80000000000000011259e-09
  +3.82500000000000033645e-09
  +3.84999999999999973314e-09
  +3.87499999999999995700e-09
  +3.90000000000000018086e-09
  +3.92500000000000040472e-09
  +3.94999999999999980140e-09
  +3.97500000000000002526e-09
  +4.00000000000000024913e-09
  +4.02500000000000047299e-09
  +4.04999999999999986967e-09
  +4.07500000000000009353e-09
  +4.10000000000000031739e-09
  +4.12500000000000054125e-09
  +4.14999999999999993794e-09
  +4.17500000000000016180e-09
  +4.20000000000000038566e-09
  +4.22499999999999978234e-09
  +4.25000000000000000620e-09
  +4.27500000000000023006e-09
  +4.30000000000000045393e-09
  +4.32499999999999985061e-09
  +4.35000000000000007447e-09
  +4.37500000000000029833e-09
  +4.40000000000000052219e-09
  +4.42499999999999991887e-09
  +4.45000000000000014274e-09
  +4.47500000000000036660e-09
  +4.49999999999999976328e-09
  +4.52499999999999998714e-09
  +4.55000000000000021100e-09
  +4.57500000000000043486e-09
  +4.59999999999999983155e-09
  +4.62500000000000005541e-09
  +4.65000000000000027927e-09
  +4.67500000000000050313e-09
  +4.69999999999999989981e-09
  +4.72500000000000012367e-09
  +4.75000000000000034754e-09
  +4.77500000000000057140e-09
  +4.79999999999999996808e-09
  +4.82500000000000019194e-09
  +4.85000000000000041580e-09
  +4.87499999999999981248e-09
  +4.90000000000000003635e-09
  +4.92500000000000026021e-09
  +4.95000000000000048407e-09
  +4.97499999999999988075e-09
  +5.00000000000000010461e-09
</indep>
<dep VDD.It time>
  -2.50000000006388202467e-02
  -2.50000000006390353524e-02
  -2.50000000006386259577e-02
  -2.50000000006383414630e-02
  -2.50000000006381506434e-02
  -2.50000000006394308694e-02
  -2.50000000006461060853e-02
  -2.50000000007022209203e-02
  -2.50000000007861537810e-02
  -2.50000000008022797704e-02
  -2.50000000007860427587e-02
  -2.50000000007773240385e-02
  -2.50000000007877219710e-02
  -2.50000000008052843115e-02
  -2.50000000007642234068e-02
  -2.50000000006564519761e-02
  -2.50000000007136874425e-02
  -2.50000000007464251439e-02
  -2.50000000005981930229e-02
  -2.50000000004685953015e-02
  -2.50000000004132784392e-02
  -2.50000000003834065010e-02
  -2.50000000004987829594e-02
  -2.50000000006255149176e-02
  -2.50000000007757905429e-02
  -2.50000000008946954289e-02
  -2.50000000007414430181e-02
  -2.50000000006623118720e-02
  -2.50000000004226112515e-02
  -2.50000000002459574211e-02
  -2.41196878929980373929e-02
  -2.46814423172181281185e-02
  -2.49981539124617367642e-02
  -2.49981539126245475013e-02
  -2.50018460884970823710e-02
  -2.50018460885924539983e-02
  -2.50018460885691289064e-02
  -2.49981539127630929265e-02
  -2.50018460880967637039e-02
  -1.44388410405067845604e-02
  -7.65497425578150637177e-03
  -1.69593535764366552809e-02
  -2.50372219033373893948e-02
  -2.49960849165647945591e-02
  -2.49960849168033606704e-02
  -2.49960849170026734589e-02
  -2.49960849168988814839e-02
  -2.49960849167142062921e-02
  -2.31883845726563765643e-02
  +6.15196746942408244363e-03
  +4.84552708635877307786e-03
  -1.07357405391846870424e-02
  -2.36189890115926989789e-02
  -2.51234030514591172301e-02
  -2.48765969493855050587e-02
  -2.48765969496265691718e-02
  -2.51234030517610736066e-02
  -2.51234030517042718211e-02
  -2.35985938445008834596e-02
  +1.00324813407947355248e-02
  +9.54473690679334858811e-03
  -6.17533256396462885973e-03
  -2.10354727465091526084e-02
  -2.52284872730601829327e-02
  -2.47715127276843041781e-02
  -2.52284872735339463223e-02
  -2.47715127278134335242e-02
  -2.47715127278420738088e-02
  -2.47715127274387124368e-02
  +5.22933430940824943434e-03
  +1.32996182125720424638e-02
  -1.81410426326192829316e-03
  -1.84688681408555037400e-02
  -2.47632930762890779430e-02
  -2.52367069243588648675e-02
  -2.47632930767435616159e-02
  -2.47632930767517286941e-02
  -2.52367069246586667175e-02
  -2.47632930763777049654e-02
  -2.65824057712671845896e-03
  +1.44531746031127637797e-02
  +1.65204559625053504571e-03
  -1.52259713111165227717e-02
  -2.47544619639890779716e-02
  -2.52410074965562537808e-02
  -2.52410074968014430663e-02
  -2.47589925045973574536e-02
  -2.47589925045414230298e-02
  -2.52410074966018423137e-02
  -1.21893145123007484026e-02
  +1.44964767799962510747e-02
  +6.18020931085500307284e-03
  -1.14914829235943129204e-02
  -2.41956025553635642455e-02
  -2.52614824519313448115e-02
  -2.47385175489231202983e-02
  -2.47385175491772017764e-02
  -2.47385175490185925395e-02
  -2.52614824521264942636e-02
  -2.13686989502506127780e-02
  +1.28775521530625370464e-02
  +9.15518691548659023505e-03
  -7.14886734229458302436e-03
  -2.21765271488532887678e-02
  -2.52442157703426893478e-02
  -2.52442157705664062262e-02
  -2.47557842306843252367e-02
  -2.52442157706667703876e-02
  -2.47557842305481737299e-02
  -2.47557842301424219089e-02
  +8.10550713145399143178e-03
  +1.20954789415470744668e-02
  -2.95672133229716964375e-03
  -1.94896563003207762277e-02
  -2.47059555810766155737e-02
  -2.52940444195992771015e-02
  -2.47059555815357344277e-02
  -2.52940444198137791287e-02
  -2.47059555815437939530e-02
  -2.52940444194533903266e-02
  +4.14403158760646267954e-04
  +1.45825529346673855163e-02
  +5.44585752626766889453e-04
  -1.57786770210412048698e-02
  -2.52472167670607580692e-02
  -2.47939138834745061157e-02
  -2.47939138837245838520e-02
  -2.47939138838459971481e-02
  -2.52060861176558216601e-02
  -2.52060861173016396986e-02
  -9.64250121630675499640e-03
  +1.51207561760152049690e-02
  +4.92561852937694905769e-03
  -1.25316539149480377091e-02
  -2.42044138255990831654e-02
  -2.51406881261042047804e-02
  -2.48593118748039326737e-02
  -2.51406881265536473469e-02
  -2.51406881264282719424e-02
  -2.51406881262543346889e-02
  -1.87475162816485296791e-02
  +1.33956648475378470309e-02
  +8.29685646947886726310e-03
  -8.65831240428625685535e-03
  -2.27215858187254995948e-02
  -2.48981011332164332839e-02
  -2.48981011334464055751e-02
  -2.48981011336927363087e-02
  -2.48981011335304737442e-02
  -2.48981011335178900601e-02
  -2.46652220995606762111e-02
  +9.42134803121155196826e-03
  +1.15162247171237269727e-02
  -4.59364681255300215390e-03
  -2.01427043338662688232e-02
  -2.49120681210500266589e-02
  -2.50879318796561785743e-02
  -2.49120681215142664167e-02
  -2.49120681214346287313e-02
  -2.50879318798749480213e-02
  -2.50879318794603560494e-02
  +2.57185235202833911011e-03
  +1.40530649615414303388e-02
  -3.02205641889886239028e-04
  -1.70762820984533582325e-02
  -2.48657752680682200830e-02
  -2.51342247450333511338e-02
  -2.51342247452830437615e-02
  -2.48657752561001858804e-02
  -2.51342247453755461561e-02
  -2.48657752557334965626e-02
  -6.57272808387151120241e-03
  +1.49116455451857813502e-02
  +3.65842339364511048849e-03
  -1.35136137629656323533e-02
  -2.47552916833890419845e-02
  -2.49615144109917516668e-02
  -2.49615144112307618673e-02
  -2.50384855901484397467e-02
  -2.50384855900460598366e-02
  -2.49615144111017817075e-02
  -1.61919292845918993962e-02
  +1.40410958071954788257e-02
  +7.52645989622416182463e-03
  -9.53895739615585880333e-03
  -2.33483744065040785265e-02
  -2.48735837572618308233e-02
  -2.48735837574901620661e-02
  -2.48735837577375926144e-02
  -2.48735837575780396880e-02
  -2.51264162435955278052e-02
  -2.32833875004391614716e-02
  +1.12612135591197374401e-02
  +1.04647195768025527002e-02
  -5.41807591410322763464e-03
  -2.11397063997755124687e-02
  -2.47112713239531454901e-02
  -2.52887286767794275399e-02
  -2.47112713244228253406e-02
  -2.52887286769196036051e-02
  -2.52887286769569036293e-02
</dep>
<dep VBIAS.It time>
  +0.00000000000000000000e+00
  +0.00000000000000000000e+00
  +0.00000000000000000000e+00
  +0.00000000000000000000e+00
  +0.00000000000000000000e+00
  +0.00000000000000000000e+00
  +0.00000000000000000000e+00
  +0.00000000000000000000e+00
  +0.00000000000000000000e+00
  +0.00000000000000000000e+00
  +0.00000000000000000000e+00
  +0.00000000000000000000e+00
  +0.00000000000000000000e+00
  +0.00000000000000000000e+00
  +0.00000000000000000000e+00
  +0.00000000000000000000e+00
  +0.00000000000000000000e+00
  +0.00000000000000000000e+00
  +0.00000000000000000000e+00
  +0.00000000000000000000e+00
  +0.00000000000000000000e+00
  +0.00000000000000000000e+00
  +0.00000000000000000000e+00
  +0.00000000000000000000e+00
  +0.00000000000000000000e+00
  +0.00000000000000000000e+00
  +0.00000000000000000000e+00
  +0.00000000000000000000e+00
  +0.00000000000000000000e+00
  +0.00000000000000000000e+00
  -4.77357021999072597728e-05
  +5.41608760287504864160e-05
  -1.84608781977901870164e-06
  -1.84608781977901870164e-06
  +1.84608781980677427725e-06
  +1.84608781980677427725e-06
  +1.84608781977901870164e-06
  -1.84608781979983538335e-06
  +1.84608781979983538335e-06
  -3.15921531953027620154e-04
  +7.84492217759764020289e-05
  +2.02023991792036640685e-04
  +9.12870591894031162793e-05
  -3.91508380412353140798e-06
  -3.91508380413740919579e-06
  -3.91508380413740919579e-06
  -3.91508380415128698360e-06
  -3.91508380413740919579e-06
  -5.68622172592616595063e-04
  -3.39355285354724827210e-04
  +3.13447187314312128350e-05
  +3.87854590378336851805e-04
  +3.52274784918815947032e-04
  +1.23403051152742859742e-04
  -1.23403051152742859742e-04
  -1.23403051152749798636e-04
  +1.23403051152742859742e-04
  +1.23403051152742859742e-04
  -5.72921437995863318433e-04
  -4.83604369913469918276e-04
  +3.88887978479466537695e-04
  +2.49191961631837290191e-05
  +1.88695623915487818299e-05
  +2.28487272798102991622e-04
  -2.28487272798102991622e-04
  +2.28487272798102991622e-04
  -2.28487272798116869410e-04
  -2.28487272798116869410e-04
  -2.28487272798116869410e-04
  -1.75026506771420808191e-04
  -1.25279118196280350121e-04
  +1.19606918352882637610e-05
  +5.10446906536568155086e-04
  -2.36706923934555213233e-04
  +2.36706923933321933262e-04
  -2.36706923933314994368e-04
  -2.36706923933321933262e-04
  +2.36706923933294177687e-04
  -2.36706923933224165331e-04
  -3.69508791308573625485e-04
  +2.66370638823141831896e-04
  +4.53680775703255189431e-04
  +4.96557536822701318414e-04
  -1.52189186493237278231e-04
  +2.41007496182027436404e-04
  +2.41007496182030905851e-04
  -2.41007496182027436404e-04
  -2.41007496182055191980e-04
  +2.41007496182034375298e-04
  -1.00823729030275659538e-03
  +2.15455174954352901562e-04
  -6.37329478672436983751e-05
  +5.41437835867078975580e-04
  +4.63992561351253334986e-04
  +2.61482451610728361402e-04
  -2.61482451610728361402e-04
  -2.61482451610721422508e-04
  -2.61482451610728361402e-04
  +2.61482451610721422508e-04
  -3.67741795327991387310e-04
  -4.24211100372954435806e-04
  +4.16331419294036538924e-04
  +2.17443079428338579065e-05
  +4.87712354128407000152e-04
  +2.44215770066238957448e-04
  +2.44215770066238957448e-04
  -2.44215770066238957448e-04
  +2.44215770066225079660e-04
  -2.44215770066238957448e-04
  -2.44215770066238957448e-04
  -6.72129432630504163385e-04
  +4.50886480183848689825e-04
  -7.03785459629092230958e-05
  +5.89859085242270251605e-04
  -2.94044419157174496959e-04
  +2.94044419157160619172e-04
  -2.94044419157160619172e-04
  +2.94044419157174496959e-04
  -2.94044419157146741384e-04
  +2.94044419157160619172e-04
  -7.41357413590621708473e-04
  -1.37723906390427606799e-04
  +4.39684473115793260541e-04
  +7.33893225336965668651e-05
  +2.50824939379483944930e-04
  -2.06086116911127770202e-04
  -2.06086116911120831308e-04
  -2.06086116911127770202e-04
  +2.06086116911113892414e-04
  +2.06086116911127770202e-04
  -5.40772749643451825299e-04
  -1.92239843290603932505e-04
  +4.44442531635545154964e-05
  +4.44342638464634265803e-04
  +8.73727885104770216063e-06
  +1.40688125768284599815e-04
  -1.40688125768284599815e-04
  +1.40688125768284599815e-04
  +1.40688125768284599815e-04
  +1.40688125768270722027e-04
  -8.31089001306345139322e-04
  -2.06791481053702087128e-05
  +3.05072631437308834906e-04
  +3.86087325643660981157e-04
  +3.54735786468105766377e-04
  -1.01898867069891152504e-04
  -1.01898867069884213610e-04
  -1.01898867069891152504e-04
  -1.01898867069891152504e-04
  -1.01898867069877274716e-04
  -1.81508478691893372680e-04
  -2.03149370612253928449e-04
  +2.37621022820942381665e-04
  +3.50085695391648432130e-04
  +3.61755742996214962881e-04
  -8.79318791976169134017e-05
  +8.79318791976169134017e-05
  -8.79318791976169134017e-05
  -8.79318791975891578261e-05
  +8.79318791975891578261e-05
  +8.79318791976446689773e-05
  -3.60006126040715362588e-04
  -3.59548500690455384967e-05
  +1.19116912625471223024e-04
  +3.95280023863744283449e-04
  -1.34224732146096903482e-04
  +1.34224744629291015130e-04
  +1.34224744629291015130e-04
  -1.34224744629291015130e-04
  +1.34224744629291015130e-04
  -1.34224744629291015130e-04
  -6.06011511091530583571e-04
  +6.65435924385562101602e-05
  +1.61102570909780730629e-04
  +3.33181590362167836649e-04
  +1.95281696124901377708e-04
  -3.84855893553470718160e-05
  -3.84855893553193162404e-05
  +3.84855893553470718160e-05
  +3.84855893553470718160e-05
  -3.84855893553470718160e-05
  -8.77329177093999555519e-04
  +3.35152972616812466506e-05
  +5.76377763674160923909e-05
  +1.33000842252015670248e-04
  +3.62623285230238205732e-04
  -1.26416243041216347365e-04
  -1.26416243041216347365e-04
  -1.26416243041216347365e-04
  -1.26416243041216347365e-04
  +1.26416243041216347365e-04
  -7.20446724614322558250e-04
  -5.26761421040508603930e-04
  +4.36496830125768936221e-04
  -1.92783874939472625598e-05
  +5.36575737505379972772e-04
  -2.88728676304632336791e-04
  +2.88728676304632336791e-04
  -2.88728676304632336791e-04
  +2.88728676304639275685e-04
  +2.88728676304639275685e-04
</dep>
<dep _net4.Vt time>
  +1.50000000000000000000e+00
  +1.50000000000000000000e+00
  +1.50000000000000000000e+00
  +1.50000000000000000000e+00
  +1.50000000000000000000e+00
  +1.50000000000000000000e+00
  +1.50000000000000000000e+00
  +1.50000000000000000000e+00
  +1.50000000000000000000e+00
  +1.50000000000000000000e+00
  +1.50000000000000000000e+00
  +1.50000000000000000000e+00
  +1.50000000000000000000e+00
  +1.50000000000000000000e+00
  +1.50000000000000000000e+00
  +1.50000000000000000000e+00
  +1.50000000000000000000e+00
  +1.50000000000000000000e+00
  +1.50000000000000000000e+00
  +1.50000000000000000000e+00
  +1.50000000000000000000e+00
  +1.50000000000000000000e+00
  +1.50000000000000000000e+00
  +1.50000000000000000000e+00
  +1.50000000000000000000e+00
  +1.50000000000000000000e+00
  +1.50000000000000000000e+00
  +1.50000000000000000000e+00
  +1.50000000000000000000e+00
  +1.50000000000000000000e+00
  +1.50000000000000000000e+00
  +1.50000000000000000000e+00
  +1.50000000000000000000e+00
  +1.50000000000000000000e+00
  +1.50000000000000000000e+00
  +1.50000000000000000000e+00
  +1.50000000000000000000e+00
  +1.50000000000000000000e+00
  +1.50000000000000000000e+00
  +1.50000000000000000000e+00
  +1.50000000000000000000e+00
  +1.50000000000000000000e+00
  +1.50000000000000000000e+00
  +1.50000000000000000000e+00
  +1.50000000000000000000e+00
  +1.50000000000000000000e+00
  +1.50000000000000000000e+00
  +1.50000000000000000000e+00
  +1.50000000000000000000e+00
  +1.50000000000000000000e+00
  +1.50000000000000000000e+00
  +1.50000000000000000000e+00
  +1.50000000000000000000e+00
  +1.50000000000000000000e+00
  +1.50000000000000000000e+00
  +1.50000000000000000000e+00
  +1.50000000000000000000e+00
  +1.50000000000000000000e+00
  +1.50000000000000000000e+00
