<Qucs Dataset>
default plugins: ignored
C:C1 pos _net0 C="2p" V="" 
                      ^ ? C1: V has no value?
C:C2 neg _net0 C="2p" V="" 
                      ^ ? C2: V has no value?
L:L2 _net2 _net0 L="3n" I="" 
                        ^ ? L2: I has no value?
L:L1 _net1 _net0 L="3n" I="" 
                        ^ ? L1: I has no value?
# Eqn:Eqn1 Vout="pos.Vt-neg.Vt" Spectrum="dB(Time2Freq(Vout,time))" Ex
^ ? # Eqn: no match
T1.n.mynmos: rsh - rs - rd conflict: using rsh
T1.n.mynmos: is - js conflict
T1.n.mynmos: nsub < ni, treating as if not input
T2.n.mynmos: rsh - rs - rd conflict: using rsh
T2.n.mynmos: is - js conflict
T2.n.mynmos: nsub < ni, treating as if not input
T3.n.mynmos: rsh - rs - rd conflict: using rsh
T3.n.mynmos: is - js conflict
T3.n.mynmos: nsub < ni, treating as if not input
Gnucap   System status
iterations: op=0, dc=0, tran=1195, fourier=0, total=1363
transient timesteps: accepted=168, rejected=4, total=172
transient timesteps: accepted=0, rejected=0, total=0
nodes: user=7, subckt=0, model=0, total=7
dctran density=63.3%, ac density=63.3%

<indep time 168>
 0.
 50.E-12
 100.E-12
 150.E-12
 200.E-12
 234.E-12
 268.E-12
 300.E-12
 332.E-12
 364.E-12
 382.E-12
 400.E-12
 429.E-12
 458.E-12
 487.E-12
 516.E-12
 545.E-12
 574.E-12
 603.E-12
 632.E-12
 661.E-12
 690.E-12
 719.E-12
 748.E-12
 770.E-12
 792.E-12
 814.E-12
 836.E-12
 871.E-12
 906.E-12
 941.E-12
 976.E-12
 1.011E-9
 1.032E-9
 1.053E-9
 1.074E-9
 1.095E-9
 1.131E-9
 1.167E-9
 1.203E-9
 1.239E-9
 1.275E-9
 1.295E-9
 1.315E-9
 1.335E-9
 1.367E-9
 1.399E-9
 1.431E-9
 1.48E-9
 1.515E-9
 1.55E-9
 1.574E-9
 1.598E-9
 1.622E-9
 1.659E-9
 1.696E-9
 1.733E-9
 1.77E-9
 1.799E-9
 1.819E-9
 1.839E-9
 1.859E-9
 1.879E-9
 1.916E-9
 1.953E-9
 1.99E-9
 2.027E-9
 2.056E-9
 2.075E-9
 2.094E-9
 2.113E-9
 2.144E-9
 2.175E-9
 2.206E-9
 2.237E-9
 2.268E-9
 2.299E-9
 2.322E-9
 2.345E-9
 2.368E-9
 2.391E-9
 2.414E-9
 2.434E-9
 2.479E-9
 2.524E-9
 2.559E-9
 2.594E-9
 2.618E-9
 2.642E-9
 2.666E-9
 2.703E-9
 2.74E-9
 2.777E-9
 2.814E-9
 2.843E-9
 2.864E-9
 2.885E-9
 2.906E-9
 2.927E-9
 2.946E-9
 2.99E-9
 3.034E-9
 3.078E-9
 3.109E-9
 3.132E-9
 3.155E-9
 3.178E-9
 3.201E-9
 3.242E-9
 3.283E-9
 3.324E-9
 3.354E-9
 3.373E-9
 3.392E-9
 3.411E-9
 3.441E-9
 3.471E-9
 3.501E-9
 3.531E-9
 3.561E-9
 3.591E-9
 3.621E-9
 3.642E-9
 3.663E-9
 3.684E-9
 3.717E-9
 3.75E-9
 3.783E-9
 3.816E-9
 3.849E-9
 3.874E-9
 3.899E-9
 3.924E-9
 3.949E-9
 3.974E-9
 4.012E-9
 4.05E-9
 4.088E-9
 4.126E-9
 4.146E-9
 4.166E-9
 4.186E-9
 4.217E-9
 4.248E-9
 4.279E-9
 4.328E-9
 4.36E-9
 4.392E-9
 4.411E-9
 4.43E-9
 4.449E-9
 4.478E-9
 4.507E-9
 4.552E-9
 4.597E-9
 4.642E-9
 4.67E-9
 4.698E-9
 4.726E-9
 4.754E-9
 4.782E-9
 4.826E-9
 4.87E-9
 4.896E-9
 4.922E-9
 4.948E-9
 4.974E-9
 5.E-9
</indep>
<dep _net0.Vt time>
 3.
 3.
 3.
 3.
 3.
 3.
 3.
 3.
 3.
 3.
 3.
 3.
 3.
 3.
 3.
 3.
 3.
 3.
 3.
 3.
 3.
 3.
 3.
 3.
 3.
 3.
 3.
 3.
 3.
 3.
 3.
 3.
 3.
 3.
 3.
 3.
 3.
 3.
 3.
 3.
 3.
 3.
 3.
 3.
 3.
 3.
 3.
 3.
 3.
 3.
 3.
 3.
 3.
 3.
 3.
 3.
 3.
 3.
 3.
 3.
 3.
 3.
 3.
 3.
 3.
 3.
 3.
 3.
 3.
 3.
 3.
 3.
 3.
 3.
 3.
 3.
 3.
 3.
 3.
 3.
 3.
 3.
 3.
 3.
 3.
 3.
 3.
 3.
 3.
 3.
 3.
 3.
 3.
 3.
 3.
 3.
 3.
 3.
 3.
 3.
 3.
 3.
 3.
 3.
 3.
 3.
 3.
 3.
 3.
 3.
 3.
 3.
 3.
 3.
 3.
 3.
 3.
 3.
 3.
 3.
 3.
 3.
 3.
 3.
 3.
 3.
 3.
 3.
 3.
 3.
 3.
 3.
 3.
 3.
 3.
 3.
 3.
 3.
 3.
 3.
 3.
 3.
 3.
 3.
 3.
 3.
 3.
 3.
 3.
 3.
 3.
 3.
 3.
 3.
 3.
 3.
 3.
 3.
 3.
 3.
 3.
 3.
 3.
 3.
 3.
 3.
 3.
 3.
</dep>
<dep _net1.Vt time>
 3.
 3.
 3.
 3.171761
 3.521461
 3.694712
 3.739529
 3.664795
 3.465511
 3.144371
 2.870554
 2.486547
 1.872955
 1.434374
 1.20336
 1.204683
 1.430936
 1.847623
 2.398564
 3.055603
 3.879779
 4.6612
 5.206533
 5.460838
 5.442298
 5.245446
 4.887145
 4.399548
 3.45549
 2.299682
 1.069191
 0.2762362
 0.1390226
 0.3294814
 0.6112891
 1.005713
 1.523689
 2.583297
 3.921619
 5.198854
 6.022379
 6.250011
 6.097245
 5.754702
 5.247974
 4.199796
 2.977641
 1.624482
 0.02961622
-0.1553621
 0.229789
 0.5690937
 1.032388
 1.650013
 2.790894
 4.173854
 5.423594
 6.163002
 6.287145
 6.120279
 5.76312
 5.241464
 4.594268
 3.210988
 1.662738
 0.2421223
-0.2160796
 0.04229781
 0.2736434
 0.5426309
 0.8895331
 1.659891
 2.602734
 3.764881
 4.940035
 5.806864
 6.25917
 6.284668
 6.040189
 5.552759
 4.869134
 4.05286
 3.281202
 1.384418
-0.01165996
-0.1526625
 0.2440239
 0.5870123
 1.056935
 1.680709
 2.826536
 4.210289
 5.450145
 6.173294
 6.28381
 6.093869
 5.696869
 5.123742
 4.422274
 3.713645
 1.884522
 0.1988554
-0.2070824
 0.1593919
 0.470125
 0.8761799
 1.424369
 2.086243
 3.570748
 5.113608
 6.078441
 6.2974
 6.198448
 5.920502
 5.484427
 4.551512
 3.438074
 2.099963
 0.7639816
-0.06377397
-0.1747863
 0.1309897
 0.4023633
 0.7430024
 1.198238
 2.114593
 3.326278
 4.657856
 5.660627
 6.217921
 6.284568
 6.033202
 5.497287
 4.734753
 3.830931
 2.127402
 0.4972648
-0.1926929
 0.03089176
 0.2857356
 0.5794636
 0.9602766
 1.756355
 2.725253
 3.874401
 5.539741
 6.163056
 6.290332
 6.118864
 5.775289
 5.282814
 4.324898
 3.217437
 1.349647
-0.01979535
-0.09924626
 0.2817504
 0.7248454
 1.348615
 2.148887
 3.087709
 4.703517
 5.90831
 6.23733
 6.228168
 5.883107
 5.249431
 4.399397
</dep>
<dep _net2.Vt time>
 3.
 3.
 3.
 2.828239
 2.478539
 2.305091
 2.260483
 2.335613
 2.535216
 2.856548
 3.130785
 3.515208
 4.129254
 4.567981
 4.798822
 4.79704
 4.57011
 4.152624
 3.600874
 2.943124
 2.118426
 1.336736
 0.7905299
 0.5360728
 0.5565847
 0.7530358
 1.111281
 1.599701
 2.545115
 3.702118
 4.933421
 5.759811
 6.065636
 5.9755
 5.685624
 5.219861
 4.613336
 3.391753
 1.90192
 0.5138197
-0.1009071
 0.07433817
 0.3211358
 0.6208941
 1.013189
 1.854514
 2.869536
 4.044328
 5.641909
 6.230182
 6.216618
 5.855839
 5.2518
 4.463917
 3.059844
 1.454411
 0.1287366
-0.2062873
 0.09098628
 0.3425418
 0.6471669
 1.047118
 1.55827
 2.682793
 4.00337
 5.297222
 6.100831
 6.286493
 6.174112
 5.884684
 5.439396
 4.463715
 3.304885
 1.947112
 0.6257787
-0.1141085
-0.1260204
 0.1223214
 0.4198785
 0.8053931
 1.330045
 1.976102
 2.600048
 4.220719
 5.64769
 6.218674
 6.190726
 5.822241
 5.213886
 4.42533
 3.02545
 1.427782
 0.1219244
-0.1970801
 0.1031031
 0.3698937
 0.7021203
 1.142895
 1.699418
 2.271517
 3.812552
 5.354939
 6.200591
 6.250065
 5.972671
 5.459265
 4.758204
 3.933633
 2.176392
 0.4362861
-0.2109847
 0.01375994
 0.241474
 0.5037769
 0.8389052
 1.562753
 2.458884
 3.600566
 4.787436
 5.690098
 6.215382
 6.294868
 6.075719
 5.65089
 5.054547
 3.895614
 2.447146
 0.9243425
-0.04330027
-0.17521
 0.08986648
 0.4102003
 0.8359336
 1.421543
 2.139995
 3.584271
 5.028584
 5.986868
 6.290063
 6.157667
 5.830818
 5.334826
 4.326275
 3.140495
 1.801206
 0.07265163
-0.1981437
 0.102617
 0.3435604
 0.6304094
 1.0035
 1.756245
 2.655182
 4.256574
 5.676413
 6.285683
 6.165104
 5.667361
 4.86531
 3.86861
 2.736431
 0.882154
-0.1304319
-0.09612919
 0.1718424
 0.5209381
 1.008971
 1.674032
</dep>
<dep _net3.Vt time>
 1.608996
 1.608996
 1.608996
 1.654565
 1.98538
 2.016408
 1.973651
 2.007875
 2.012071
 1.746408
 1.604389
 1.8494
 1.81799
 1.386755
 1.11878
 1.068446
 1.238336
 1.589364
 1.992893
 1.657537
 1.967079
 1.385283
 0.7735586
 0.4765082
 0.4256588
 0.5843965
 0.8696657
 1.328822
 1.97147
 2.026506
 1.145099
 0.310707
 0.07867574
 0.212031
 0.4172588
 0.7717203
 1.220111
 2.06077
 1.900101
 0.6378712
-0.04995977
 0.01787723
 0.1853356
 0.4311375
 0.7610798
 1.533382
 1.694291
 1.723527
 0.1368715
-0.1349959
 0.125232
 0.3813787
 0.7880099
 1.336346
 1.826111
 1.565897
 0.2535043
-0.167405
 0.02991891
 0.2010824
 0.4545866
 0.7906966
 1.268278
 1.899541
 1.777419
 0.3613522
-0.1571377
-0.009813677
 0.1570964
 0.3601255
 0.660417
 1.34603
 2.006481
 1.898443
 0.7723427
-0.01726284
-0.1133196
 0.04541683
 0.2676982
 0.5827665
 1.056198
 1.623178
 1.998575
 1.512744
 0.09687304
-0.1359561
 0.1360743
 0.3954986
 0.8105216
 1.36273
 1.799787
 1.540206
 0.2449072
-0.1625092
 0.03883088
 0.2212942
 0.5023506
 0.8757051
 1.397951
 1.844777
 1.931377
 0.3156445
-0.1721275
 0.0691216
 0.3071754
 0.6431297
 1.142852
 1.713266
 1.844557
 0.5658987
-0.1417031
-0.03002405
 0.1344856
 0.3277509
 0.6171002
 1.256162
 1.983269
 1.826977
 0.9141883
 0.0446599
-0.1408133
 0.05252518
 0.2525579
 0.5302939
 0.9347989
 1.743425
 1.601037
 1.064591
 0.07418172
-0.1510081
 0.02938647
 0.2522839
 0.6188955
 1.125904
 1.783642
 1.786019
 0.6410818
-0.1170534
-0.01672109
 0.159389
 0.394957
 0.715685
 1.442955
 1.855368
 1.852732
 0.1883826
-0.1515938
 0.03402119
 0.2053705
 0.4358703
 0.7566338
 1.438698
 1.936952
 1.489764
 0.08428898
-0.1154593
 0.1588833
 0.5147566
 1.069934
 1.773051
 1.584346
 1.015638
-0.04067444
-0.09616074
 0.0887283
 0.3388218
 0.7727131
 1.349203
</dep>
<dep _net4.Vt time>
 1.5
 1.5
 1.5
 1.5
 1.5
 1.5
 1.5
 1.5
 1.5
 1.5
 1.5
 1.5
 1.5
 1.5
 1.5
 1.5
 1.5
 1.5
 1.5
 1.5
 1.5
 1.5
 1.5
 1.5
 1.5
 1.5
 1.5
 1.5
 1.5
 1.5
 1.5
 1.5
 1.5
 1.5
 1.5
 1.5
 1.5
 1.5
 1.5
 1.5
 1.5
 1.5
 1.5
 1.5
 1.5
 1.5
 1.5
 1.5
 1.5
 1.5
 1.5
 1.5
 1.5
 1.5
 1.5
 1.5
 1.5
 1.5
 1.5
 1.5
 1.5
 1.5
 1.5
 1.5
 1.5
 1.5
 1.5
 1.5
 1.5
 1.5
 1.5
 1.5
 1.5
 1.5
 1.5
 1.5
 1.5
 1.5
 1.5
 1.5
 1.5
 1.5
 1.5
 1.5
 1.5
 1.5
 1.5
 1.5
 1.5
 1.5
 1.5
 1.5
 1.5
 1.5
 1.5
 1.5
 1.5
 1.5
 1.5
 1.5
 1.5
 1.5
 1.5
 1.5
 1.5
 1.5
 1.5
 1.5
 1.5
 1.5
 1.5
 1.5
 1.5
 1.5
 1.5
 1.5
 1.5
 1.5
 1.5
 1.5
 1.5
 1.5
 1.5
 1.5
 1.5
 1.5
 1.5
 1.5
 1.5
 1.5
 1.5
 1.5
 1.5
 1.5
 1.5
 1.5
 1.5
 1.5
 1.5
 1.5
 1.5
 1.5
 1.5
 1.5
 1.5
 1.5
 1.5
 1.5
 1.5
 1.5
 1.5
 1.5
 1.5
 1.5
 1.5
 1.5
 1.5
 1.5
 1.5
 1.5
 1.5
 1.5
 1.5
 1.5
 1.5
 1.5
 1.5
 1.5
</dep>
<dep neg.Vt time>
 2.962506
 2.962506
 2.962506
 2.786451
 2.419402
 2.225327
 2.156208
 2.208873
 2.390407
 2.701947
 2.975934
 3.366296
 4.004157
 4.481957
 4.761632
 4.811991
 4.633884
 4.255879
 3.729559
 3.079734
 2.241675
 1.423139
 0.8207818
 0.4985628
 0.4650755
 0.6099026
 0.9224627
 1.374703
 2.287651
 3.448829
 4.726234
 5.634902
 6.042647
 6.015913
 5.785474
 5.371206
 4.804912
 3.619424
 2.117001
 0.6639921
-0.05130671
 0.01544677
 0.2061467
 0.4551471
 0.8037755
 1.594499
 2.589102
 3.778503
 5.466349
 6.157391
 6.256604
 5.968671
 5.425902
 4.682573
 3.306695
 1.674143
 0.2666675
-0.1807906
 0.02781072
 0.2236994
 0.4780332
 0.8349182
 1.311855
 2.403838
 3.737165
 5.092362
 5.995941
 6.274218
 6.223207
 5.991332
 5.596614
 4.681408
 3.549997
 2.180798
 0.8063738
-0.01856274
-0.1272014
 0.0520978
 0.2868896
 0.617491
 1.097706
 1.712783
 2.322483
 3.961474
 5.475551
 6.14906
 6.233248
 5.936891
 5.388948
 4.64403
 3.270995
 1.645121
 0.2568347
-0.1747577
 0.03706254
 0.2458173
 0.5260659
 0.9231966
 1.446562
 1.999384
 3.542239
 5.15448
 6.122284
 6.271731
 6.06588
 5.614925
 4.962333
 4.168718
 2.413749
 0.6043483
-0.1613093
-0.02955178
 0.1435867
 0.3558214
 0.6464676
 1.316345
 2.182794
 3.325309
 4.547557
 5.51742
 6.131137
 6.308262
 6.155993
 5.791284
 5.244325
 4.134072
 2.691278
 1.125095
 0.07278126
-0.1619153
 0.02708846
 0.2786719
 0.6449776
 1.183815
 1.871783
 3.310811
 4.804683
 5.85838
 6.280784
 6.212862
 5.945891
 5.501541
 4.549715
 3.386675
 2.031281
 0.2017817
-0.1670556
 0.03613822
 0.2243183
 0.4632485
 0.794856
 1.500228
 2.376127
 3.997631
 5.505922
 6.249144
 6.218852
 5.80274
 5.064093
 4.105669
 2.981977
 1.074789
-0.05331915
-0.09997865
 0.09097723
 0.3710773
 0.8009898
 1.422938
</dep>
<dep pos.Vt time>
 2.962506
 2.962506
 2.962506
 3.138561
 3.505609
 3.699539
 3.768736
 3.716475
 3.535278
 3.223956
 2.950254
 2.560337
 1.922987
 1.445399
 1.165618
 1.114855
 1.292325
 1.669551
 2.195058
 2.844144
 3.681636
 4.499848
 5.101533
 5.423512
 5.458907
 5.31362
 5.000769
 4.549328
 3.637732
 2.477792
 1.201276
 0.32685
 0.09191615
 0.2242779
 0.4528407
 0.8012395
 1.282776
 2.308305
 3.655594
 4.989389
 5.907312
 6.247814
 6.15852
 5.87449
 5.417773
 4.424743
 3.221432
 1.846313
 0.1450198
-0.1471732
 0.1342803
 0.4111608
 0.8216628
 1.399481
 2.511514
 3.911954
 5.228337
 6.071124
 6.288685
 6.185893
 5.887562
 5.415935
 4.807087
 3.457205
 1.888156
 0.3914948
-0.1772291
-0.008374209
 0.1689722
 0.388559
 0.691801
 1.408679
 2.324586
 3.492263
 4.709314
 5.6497
 6.195823
 6.296572
 6.124822
 5.701698
 5.068892
 4.286222
 3.527912
 1.601253
 0.1009955
-0.14776
 0.1455162
 0.4264641
 0.8441026
 1.428733
 2.546938
 3.949464
 5.257135
 6.084334
 6.288375
 6.1654
 5.829195
 5.306662
 4.642429
 3.954091
 2.116157
 0.3441564
-0.1939593
 0.07877354
 0.3277406
 0.6802725
 1.185923
 1.819169
 3.296626
 4.894498
 5.96593
 6.280479
 6.243234
 6.023413
 5.638676
 4.766277
 3.682688
 2.337707
 0.9551266
 0.04783913
-0.1567533
 0.0583637
 0.2723353
 0.5619988
 0.9746172
 1.846633
 3.049073
 4.413398
 5.487633
 6.141781
 6.289688
 6.117285
 5.650485
 4.940805
 4.069058
 2.364746
 0.6705619
-0.1276134
-0.0211347
 0.1768751
 0.4190643
 0.7552696
 1.500458
 2.445817
 3.603961
 5.352802
 6.067303
 6.297774
 6.187183
 5.899596
 5.455161
 4.549543
 3.46445
 1.564822
 0.09034223
-0.1268296
 0.1727153
 0.5458929
 1.114621
 1.879857
 2.807975
 4.46371
 5.770023
 6.178906
 6.253794
 5.988169
 5.421194
 4.618544
</dep>
