<Qucs Dataset>
default plugins: ignored
C:C1 pos _net0 C="2p" V="" 
                      ^ ? C1: V has no value?
C:C2 neg _net0 C="2p" V="" 
                      ^ ? C2: V has no value?
L:L2 _net2 _net0 L="3n" I="" 
                        ^ ? L2: I has no value?
L:L1 _net1 _net0 L="3n" I="" 
                        ^ ? L1: I has no value?
# Eqn:Eqn1 Vout="pos.Vt-neg.Vt" Spectrum="dB(Time2Freq(Vout,time))" Ex
^ ? # Eqn: no match
T1.T1.n.mynmos: rsh - rs - rd conflict: using rsh
T1.T1.n.mynmos: is - js conflict
T1.T1.n.mynmos: nsub < ni, treating as if not input
T2.n.mynmos: rsh - rs - rd conflict: using rsh
T2.n.mynmos: is - js conflict
T2.n.mynmos: nsub < ni, treating as if not input
T3.n.mynmos: rsh - rs - rd conflict: using rsh
T3.n.mynmos: is - js conflict
T3.n.mynmos: nsub < ni, treating as if not input
Gnucap   System status
iterations: op=0, dc=0, tran=1167, fourier=0, total=1335
transient timesteps: accepted=168, rejected=3, total=171
transient timesteps: accepted=0, rejected=0, total=0
nodes: user=7, subckt=0, model=0, total=7
dctran density=63.3%, ac density=63.3%

<indep time 168>
 0.
 50.E-12
 100.E-12
 150.E-12
 200.E-12
 234.E-12
 268.E-12
 300.E-12
 332.E-12
 364.E-12
 382.E-12
 400.E-12
 429.E-12
 458.E-12
 487.E-12
 516.E-12
 539.E-12
 562.E-12
 585.E-12
 621.E-12
 657.E-12
 693.E-12
 729.E-12
 765.E-12
 793.E-12
 821.E-12
 849.E-12
 877.E-12
 920.E-12
 963.E-12
 1.006E-9
 1.035E-9
 1.056E-9
 1.077E-9
 1.098E-9
 1.134E-9
 1.17E-9
 1.206E-9
 1.242E-9
 1.278E-9
 1.298E-9
 1.318E-9
 1.338E-9
 1.37E-9
 1.386E-9
 1.433E-9
 1.48E-9
 1.527E-9
 1.557E-9
 1.579E-9
 1.601E-9
 1.623E-9
 1.66E-9
 1.697E-9
 1.734E-9
 1.771E-9
 1.808E-9
 1.83E-9
 1.852E-9
 1.874E-9
 1.908E-9
 1.942E-9
 1.976E-9
 2.01E-9
 2.044E-9
 2.067E-9
 2.09E-9
 2.113E-9
 2.136E-9
 2.172E-9
 2.208E-9
 2.244E-9
 2.28E-9
 2.316E-9
 2.335E-9
 2.354E-9
 2.373E-9
 2.404E-9
 2.435E-9
 2.466E-9
 2.513E-9
 2.549E-9
 2.585E-9
 2.606E-9
 2.627E-9
 2.648E-9
 2.682E-9
 2.716E-9
 2.75E-9
 2.784E-9
 2.818E-9
 2.841E-9
 2.864E-9
 2.887E-9
 2.91E-9
 2.945E-9
 2.98E-9
 3.015E-9
 3.05E-9
 3.085E-9
 3.106E-9
 3.127E-9
 3.148E-9
 3.169E-9
 3.204E-9
 3.239E-9
 3.274E-9
 3.309E-9
 3.344E-9
 3.365E-9
 3.386E-9
 3.407E-9
 3.428E-9
 3.463E-9
 3.498E-9
 3.533E-9
 3.568E-9
 3.603E-9
 3.624E-9
 3.645E-9
 3.666E-9
 3.687E-9
 3.722E-9
 3.757E-9
 3.792E-9
 3.827E-9
 3.862E-9
 3.883E-9
 3.904E-9
 3.925E-9
 3.946E-9
 3.98E-9
 4.014E-9
 4.048E-9
 4.082E-9
 4.116E-9
 4.138E-9
 4.16E-9
 4.182E-9
 4.204E-9
 4.239E-9
 4.274E-9
 4.309E-9
 4.344E-9
 4.379E-9
 4.4E-9
 4.421E-9
 4.442E-9
 4.463E-9
 4.497E-9
 4.531E-9
 4.565E-9
 4.599E-9
 4.633E-9
 4.655E-9
 4.677E-9
 4.699E-9
 4.721E-9
 4.756E-9
 4.791E-9
 4.826E-9
 4.861E-9
 4.896E-9
 4.917E-9
 4.938E-9
 4.959E-9
 4.98E-9
 5.E-9
</indep>
<dep _net0.Vt time>
 3.
 3.
 3.
 3.
 3.
 3.
 3.
 3.
 3.
 3.
 3.
 3.
 3.
 3.
 3.
 3.
 3.
 3.
 3.
 3.
 3.
 3.
 3.
 3.
 3.
 3.
 3.
 3.
 3.
 3.
 3.
 3.
 3.
 3.
 3.
 3.
 3.
 3.
 3.
 3.
 3.
 3.
 3.
 3.
 3.
 3.
 3.
 3.
 3.
 3.
 3.
 3.
 3.
 3.
 3.
 3.
 3.
 3.
 3.
 3.
 3.
 3.
 3.
 3.
 3.
 3.
 3.
 3.
 3.
 3.
 3.
 3.
 3.
 3.
 3.
 3.
 3.
 3.
 3.
 3.
 3.
 3.
 3.
 3.
 3.
 3.
 3.
 3.
 3.
 3.
 3.
 3.
 3.
 3.
 3.
 3.
 3.
 3.
 3.
 3.
 3.
 3.
 3.
 3.
 3.
 3.
 3.
 3.
 3.
 3.
 3.
 3.
 3.
 3.
 3.
 3.
 3.
 3.
 3.
 3.
 3.
 3.
 3.
 3.
 3.
 3.
 3.
 3.
 3.
 3.
 3.
 3.
 3.
 3.
 3.
 3.
 3.
 3.
 3.
 3.
 3.
 3.
 3.
 3.
 3.
 3.
 3.
 3.
 3.
 3.
 3.
 3.
 3.
 3.
 3.
 3.
 3.
 3.
 3.
 3.
 3.
 3.
 3.
 3.
 3.
 3.
 3.
 3.
</dep>
<dep _net1.Vt time>
 3.
 3.
 3.
 3.171761
 3.521461
 3.694712
 3.739529
 3.664795
 3.465511
 3.144371
 2.870554
 2.486547
 1.872955
 1.434374
 1.20336
 1.204683
 1.368035
 1.658282
 2.049573
 2.792454
 3.772647
 4.736128
 5.330442
 5.466213
 5.240189
 4.757831
 4.082458
 3.285797
 1.815664
 0.5449613
 0.1337537
 0.3464912
 0.6303927
 1.029312
 1.551217
 2.614757
 3.946731
 5.216944
 6.031394
 6.248791
 6.090272
 5.742581
 5.231631
 4.179229
 3.579415
 1.657795
 0.07439593
-0.1274723
 0.2799648
 0.6084539
 1.044378
 1.612137
 2.751646
 4.106198
 5.374367
 6.138828
 6.256049
 5.997826
 5.521561
 4.867564
 3.649553
 2.147286
 0.6553401
-0.1355165
-0.09401376
 0.1723887
 0.4848646
 0.896499
 1.450567
 2.512325
 3.829627
 5.142394
 6.015776
 6.293626
 6.175236
 5.879914
 5.428844
 4.44609
 3.279661
 1.933651
 0.1532103
-0.2165851
 0.1421849
 0.4187364
 0.7670915
 1.23139
 2.185956
 3.456546
 4.805053
 5.78625
 6.273262
 6.276216
 6.009777
 5.504012
 4.805879
 3.53343
 1.996082
 0.5106088
-0.1816657
-0.03607986
 0.2187428
 0.5110153
 0.8896452
 1.390119
 2.410553
 3.687644
 5.007662
 5.928169
 6.30023
 6.226968
 5.932926
 5.445054
 4.801139
 3.530093
 2.001922
 0.5171477
-0.1789159
-0.03653053
 0.2182761
 0.5101199
 0.8884913
 1.388613
 2.408516
 3.690571
 5.009734
 5.926702
 6.298136
 6.224631
 5.93057
 5.442779
 4.799192
 3.566039
 2.07521
 0.6048912
-0.1488565
-0.07906219
 0.1788568
 0.476702
 0.8642603
 1.382861
 2.400151
 3.688887
 5.007737
 5.926916
 6.29792
 6.224136
 5.929903
 5.441893
 4.798265
 3.564977
 2.078804
 0.6057312
-0.1505442
-0.08093135
 0.1770689
 0.4745075
 0.8614672
 1.379271
 2.3957
 3.688716
 5.007678
 5.926833
 6.29784
 6.224051
 5.929859
 5.44184
 4.798269
 4.085976
</dep>
<dep _net2.Vt time>
 3.
 3.
 3.
 2.828239
 2.478539
 2.305091
 2.260483
 2.335613
 2.535216
 2.856548
 3.130785
 3.515208
 4.129254
 4.567981
 4.798822
 4.79704
 4.633162
 4.342298
 3.950355
 3.206523
 2.226638
 1.265186
 0.6731077
 0.5425441
 0.7708259
 1.252338
 1.926498
 2.720861
 4.188131
 5.456119
 6.029617
 5.946482
 5.64865
 5.177599
 4.569201
 3.349261
 1.873389
 0.5003544
-0.09847881
 0.08551625
 0.3330264
 0.6360562
 1.033318
 1.880612
 2.374317
 4.026013
 5.575563
 6.275628
 6.162022
 5.798723
 5.235139
 4.519071
 3.126024
 1.552607
 0.1849485
-0.208468
 0.1612806
 0.4561689
 0.8376463
 1.348668
 2.328445
 3.60406
 4.921374
 5.857059
 6.287078
 6.249605
 5.945967
 5.409024
 4.688678
 3.362292
 1.814513
 0.3519204
-0.2158422
 0.04720829
 0.2864548
 0.5617213
 0.915835
 1.697354
 2.648612
 3.796508
 5.437297
 6.167197
 6.276817
 6.035603
 5.592385
 4.98181
 3.774838
 2.266989
 0.7388046
-0.1180689
-0.1228666
 0.1410414
 0.4451725
 0.842453
 1.379731
 2.394906
 3.6971
 5.012905
 5.926212
 6.294146
 6.218735
 5.923448
 5.434672
 4.791048
 3.520987
 2.015525
 0.5300503
-0.1749543
-0.03864673
 0.2162412
 0.5069332
 0.8844719
 1.383453
 2.401685
 3.698359
 5.015561
 5.92967
 6.297732
 6.222136
 5.926356
 5.436984
 4.792499
 3.521109
 2.009249
 0.5240378
-0.1771489
-0.03775075
 0.2172209
 0.5083486
 0.8863182
 1.38583
 2.374332
 3.639105
 4.943697
 5.870888
 6.290808
 6.253345
 5.971446
 5.473495
 4.802208
 3.530087
 2.008198
 0.5205755
-0.1793245
-0.03857329
 0.2163139
 0.5075352
 0.8851699
 1.384389
 2.372826
 3.633213
 4.939798
 5.868571
 6.290765
 6.254803
 5.974206
 5.477379
 4.806801
 3.535279
 2.008713
 0.5205523
-0.1793296
-0.03881901
 0.2159642
 0.5072283
 0.8847028
 1.383793
 1.950765
</dep>
<dep _net3.Vt time>
 1.608996
 1.608996
 1.608996
 1.654565
 1.98538
 2.016408
 1.973651
 2.007875
 2.012071
 1.746408
 1.604389
 1.8494
 1.81799
 1.386755
 1.11878
 1.068446
 1.187305
 1.428902
 1.756546
 1.853152
 2.001847
 1.301607
 0.6419233
 0.4374249
 0.5868674
 1.011712
 1.593604
 2.002729
 1.845666
 0.6070917
 0.092885
 0.2247592
 0.4346216
 0.791874
 1.246508
 2.04858
 1.888644
 0.6211551
-0.04983662
 0.02525435
 0.1947569
 0.4432933
 0.7797855
 1.55564
 1.914883
 1.772019
 0.1790424
-0.1330098
 0.1557655
 0.4169999
 0.7923122
 1.309839
 1.851443
 1.667112
 0.3058225
-0.1609519
 0.07483536
 0.2915352
 0.6150974
 1.067073
 1.914811
 1.842119
 0.8001198
-0.03883681
-0.09959981
 0.08134152
 0.3154967
 0.6646446
 1.160458
 1.973494
 1.851752
 0.4829154
-0.143192
-0.006393276
 0.1629536
 0.3781601
 0.6799746
 1.385775
 1.985651
 1.920626
 0.2753067
-0.166334
 0.06097232
 0.2626159
 0.5528767
 0.9612562
 1.804136
 1.702558
 0.8835264
-0.01299662
-0.119585
 0.06149198
 0.2825714
 0.6201377
 1.093932
 1.952901
 1.885871
 0.653371
-0.09573449
-0.06140913
 0.1125486
 0.338366
 0.6559516
 1.109477
 1.939448
 1.918672
 0.6675949
-0.08613135
-0.06569529
 0.1137368
 0.3320536
 0.6552228
 1.098619
 1.951358
 1.896773
 0.658494
-0.09240037
-0.06235949
 0.1129994
 0.3368631
 0.6559237
 1.106845
 1.942282
 1.912094
 0.6625815
-0.08889948
-0.06461026
 0.1138575
 0.3337795
 0.6561106
 1.101728
 1.933719
 1.876996
 0.7476014
-0.05504179
-0.08994794
 0.08607358
 0.3093863
 0.6363314
 1.100105
 1.944139
 1.901898
 0.6608148
-0.09143073
-0.06451431
 0.1124087
 0.3339155
 0.654086
 1.101649
 1.928233
 1.878952
 0.7477702
-0.05549016
-0.09178199
 0.08535233
 0.3070159
 0.6346419
 1.095867
 1.94515
 1.89702
 0.6616266
-0.09180531
-0.06428519
 0.1117254
 0.3341227
 0.6531156
 1.101814
 1.605229
</dep>
<dep _net4.Vt time>
 1.5
 1.5
 1.5
 1.5
 1.5
 1.5
 1.5
 1.5
 1.5
 1.5
 1.5
 1.5
 1.5
 1.5
 1.5
 1.5
 1.5
 1.5
 1.5
 1.5
 1.5
 1.5
 1.5
 1.5
 1.5
 1.5
 1.5
 1.5
 1.5
 1.5
 1.5
 1.5
 1.5
 1.5
 1.5
 1.5
 1.5
 1.5
 1.5
 1.5
 1.5
 1.5
 1.5
 1.5
 1.5
 1.5
 1.5
 1.5
 1.5
 1.5
 1.5
 1.5
 1.5
 1.5
 1.5
 1.5
 1.5
 1.5
 1.5
 1.5
 1.5
 1.5
 1.5
 1.5
 1.5
 1.5
 1.5
 1.5
 1.5
 1.5
 1.5
 1.5
 1.5
 1.5
 1.5
 1.5
 1.5
 1.5
 1.5
 1.5
 1.5
 1.5
 1.5
 1.5
 1.5
 1.5
 1.5
 1.5
 1.5
 1.5
 1.5
 1.5
 1.5
 1.5
 1.5
 1.5
 1.5
 1.5
 1.5
 1.5
 1.5
 1.5
 1.5
 1.5
 1.5
 1.5
 1.5
 1.5
 1.5
 1.5
 1.5
 1.5
 1.5
 1.5
 1.5
 1.5
 1.5
 1.5
 1.5
 1.5
 1.5
 1.5
 1.5
 1.5
 1.5
 1.5
 1.5
 1.5
 1.5
 1.5
 1.5
 1.5
 1.5
 1.5
 1.5
 1.5
 1.5
 1.5
 1.5
 1.5
 1.5
 1.5
 1.5
 1.5
 1.5
 1.5
 1.5
 1.5
 1.5
 1.5
 1.5
 1.5
 1.5
 1.5
 1.5
 1.5
 1.5
 1.5
 1.5
 1.5
 1.5
 1.5
 1.5
 1.5
 1.5
 1.5
 1.5
 1.5
</dep>
<dep neg.Vt time>
 2.962506
 2.962506
 2.962506
 2.786451
 2.419402
 2.225327
 2.156208
 2.208873
 2.390407
 2.701947
 2.975934
 3.366296
 4.004157
 4.481957
 4.761632
 4.811991
 4.68756
 4.430915
 4.065338
 3.342336
 2.352237
 1.345598
 0.6804456
 0.4637627
 0.6263145
 1.051896
 1.68656
 2.461976
 3.948325
 5.294713
 5.98633
 5.989832
 5.750742
 5.330355
 4.761283
 3.575879
 2.08619
 0.6478925
-0.0517033
 0.024045
 0.2156777
 0.4682151
 0.8221628
 1.619658
 2.099399
 3.76068
 5.394829
 6.232413
 6.215302
 5.917546
 5.409314
 4.734523
 3.371911
 1.774037
 0.3273957
-0.1774585
 0.08041617
 0.3160892
 0.6457953
 1.114872
 2.055157
 3.329589
 4.689814
 5.706797
 6.241006
 6.278703
 6.046306
 5.57093
 4.897673
 3.608207
 2.04574
 0.5140155
-0.1593368
-0.007344018
 0.1780715
 0.404234
 0.7150868
 1.444113
 2.369729
 3.524275
 5.241027
 6.071706
 6.297185
 6.122233
 5.7381
 5.17553
 4.015422
 2.508308
 0.9294846
-0.01886946
-0.129769
 0.06534774
 0.3072192
 0.6503036
 1.144143
 2.120372
 3.424123
 4.787389
 5.787084
 6.263837
 6.256811
 6.02601
 5.593481
 4.994203
 3.764604
 2.2511
 0.7054985
-0.098293
-0.07073922
 0.1230175
 0.358302
 0.6874471
 1.147245
 2.126715
 3.425083
 4.789819
 5.790423
 6.267428
 6.26029
 6.029062
 5.595993
 4.995893
 3.764992
 2.24498
 0.6993771
-0.10074
-0.07011892
 0.1237384
 0.3594838
 0.6890939
 1.149467
 2.09989
 3.364842
 4.713388
 5.722413
 6.246806
 6.281328
 6.067895
 5.629824
 5.00554
 3.774237
 2.244328
 0.6962211
-0.1027081
-0.070787
 0.1229647
 0.3587856
 0.6880401
 1.148093
 2.098402
 3.35884
 4.709209
 5.719705
 6.246332
 6.282371
 6.070285
 5.633412
 5.00993
 3.779397
 2.244909
 0.696266
-0.1026458
-0.07096976
 0.1226704
 0.3585271
 0.6876133
 1.147526
 1.687843
</dep>
<dep pos.Vt time>
 2.962506
 2.962506
 2.962506
 3.138561
 3.505609
 3.699539
 3.768736
 3.716475
 3.535278
 3.223956
 2.950254
 2.560337
 1.922987
 1.445399
 1.165618
 1.114855
 1.238794
 1.494843
 1.859773
 2.581805
 3.571907
 4.580298
 5.247772
 5.469884
 5.309747
 4.883353
 4.247744
 3.470248
 1.980794
 0.6317958
 0.1061812
 0.2388764
 0.4698567
 0.8231984
 1.309201
 2.339724
 3.68163
 5.008779
 5.918046
 6.248454
 6.153325
 5.863957
 5.402733
 4.404891
 3.819149
 1.879426
 0.1957724
-0.1483488
 0.1713757
 0.4436255
 0.8317204
 1.362703
 2.47194
 3.842375
 5.175062
 6.041577
 6.276941
 6.087491
 5.671927
 5.06618
 3.890961
 2.385277
 0.8390514
-0.04498688
-0.1093947
 0.08890904
 0.3399423
 0.6984572
 1.210522
 2.235609
 3.558936
 4.925328
 5.89195
 6.283325
 6.226383
 5.98858
 5.587932
 4.665218
 3.525542
 2.167588
 0.2952204
-0.1837336
 0.06569668
 0.2851321
 0.5829364
 1.005224
 1.915883
 3.180373
 4.567063
 5.626316
 6.216108
 6.294376
 6.100218
 5.657848
 5.009244
 3.777735
 2.232207
 0.6857929
-0.1057258
-0.06896845
 0.1247625
 0.3616967
 0.6920295
 1.153444
 2.135389
 3.414129
 4.78134
 5.788175
 6.269198
 6.264471
 6.035101
 5.603686
 5.00433
 3.774083
 2.237779
 0.6923007
-0.1028447
-0.0692468
 0.1244628
 0.3609539
 0.6910069
 1.152042
 2.133393
 3.417115
 4.783566
 5.786874
 6.267207
 6.262191
 6.032753
 5.601369
 5.002298
 3.809356
 2.312478
 0.7852741
-0.06272524
-0.09881576
 0.09418607
 0.3332416
 0.6695466
 1.14687
 2.125362
 3.415594
 4.781683
 5.787169
 6.267071
 6.261768
 6.032146
 5.600528
 5.001396
 3.808285
 2.316108
 0.7866283
-0.06391682
-0.1002492
 0.09279419
 0.3313992
 0.6670509
 1.143508
 2.120997
 3.415432
 4.781629
 5.787087
 6.266988
 6.261679
 6.032096
 5.600467
 5.001392
 4.317943
</dep>
