<Qucs Dataset>
default plugins: ignored
;: already installed, replacing
stashing as ;:0
*: already installed, replacing
stashing as *:0
': already installed, replacing
stashing as ':0
": already installed, replacing
stashing as ":0
spice_bjt: already installed, replacing
stashing as spice_bjt:0
spice_mos: already installed, replacing
stashing as spice_mos:0
C:C1 pos _net0 C="2p" V="" 
                      ^ ? C1: V has no value?
C:C2 neg _net0 C="2p" V="" 
                      ^ ? C2: V has no value?
L:L2 _net2 _net0 L="3n" I="" 
                        ^ ? L2: I has no value?
L:L1 _net1 _net0 L="3n" I="" 
                        ^ ? L1: I has no value?
# Eqn:Eqn1 Vout="pos.Vt-neg.Vt" Spectrum="dB(Time2Freq(Vout,time))" Ex
^ ? # Eqn: no match
T1.n.mynmos: rsh - rs - rd conflict: using rsh
T1.n.mynmos: is - js conflict
T1.n.mynmos: nsub < ni, treating as if not input
T2.n.mynmos: rsh - rs - rd conflict: using rsh
T2.n.mynmos: is - js conflict
T2.n.mynmos: nsub < ni, treating as if not input
T3.n.mynmos: rsh - rs - rd conflict: using rsh
T3.n.mynmos: is - js conflict
T3.n.mynmos: nsub < ni, treating as if not input
Gnucap   System status
iterations: op=0, dc=0, tran=1211, fourier=0, total=1381
transient timesteps: accepted=170, rejected=4, total=174
transient timesteps: accepted=0, rejected=0, total=0
nodes: user=7, subckt=0, model=0, total=7
dctran density=63.3%, ac density=63.3%

<indep time 170>
 0.
 50.E-12
 100.E-12
 150.E-12
 200.E-12
 234.043E-12
 268.085E-12
 300.E-12
 331.915E-12
 363.83E-12
 381.915E-12
 400.E-12
 428.75E-12
 457.5E-12
 486.25E-12
 515.E-12
 543.75E-12
 572.5E-12
 601.25E-12
 615.625E-12
 659.469E-12
 703.313E-12
 747.156E-12
 777.974E-12
 800.195E-12
 822.416E-12
 844.638E-12
 880.771E-12
 916.905E-12
 953.038E-12
 989.172E-12
 1.025305E-9
 1.049993E-9
 1.074681E-9
 1.099368E-9
 1.124056E-9
 1.165732E-9
 1.207409E-9
 1.249086E-9
 1.280874E-9
 1.303278E-9
 1.325682E-9
 1.348087E-9
 1.382217E-9
 1.416347E-9
 1.450477E-9
 1.484607E-9
 1.518737E-9
 1.541053E-9
 1.563368E-9
 1.585684E-9
 1.608E-9
 1.642969E-9
 1.677938E-9
 1.712907E-9
 1.747876E-9
 1.782845E-9
 1.803872E-9
 1.8249E-9
 1.845927E-9
 1.866954E-9
 1.901766E-9
 1.936577E-9
 1.971389E-9
 2.0062E-9
 2.041012E-9
 2.0623E-9
 2.083587E-9
 2.104875E-9
 2.126163E-9
 2.16121E-9
 2.196256E-9
 2.231303E-9
 2.26635E-9
 2.301397E-9
 2.322316E-9
 2.343236E-9
 2.364155E-9
 2.385074E-9
 2.41994E-9
 2.454806E-9
 2.489671E-9
 2.524537E-9
 2.559403E-9
 2.580625E-9
 2.601848E-9
 2.623071E-9
 2.644293E-9
 2.679453E-9
 2.714613E-9
 2.749773E-9
 2.784932E-9
 2.820092E-9
 2.840853E-9
 2.861614E-9
 2.882375E-9
 2.903136E-9
 2.938084E-9
 2.973032E-9
 3.007979E-9
 3.042927E-9
 3.077875E-9
 3.098997E-9
 3.120119E-9
 3.141242E-9
 3.162364E-9
 3.197036E-9
 3.231709E-9
 3.266381E-9
 3.301053E-9
 3.335726E-9
 3.357063E-9
 3.378399E-9
 3.399736E-9
 3.421073E-9
 3.45616E-9
 3.491248E-9
 3.526335E-9
 3.561422E-9
 3.596509E-9
 3.617457E-9
 3.638405E-9
 3.659352E-9
 3.6803E-9
 3.715029E-9
 3.749758E-9
 3.784487E-9
 3.819216E-9
 3.853945E-9
 3.875168E-9
 3.896391E-9
 3.917614E-9
 3.938838E-9
 3.973069E-9
 3.990184E-9
 4.03226E-9
 4.074336E-9
 4.105191E-9
 4.136047E-9
 4.158782E-9
 4.181518E-9
 4.204253E-9
 4.238851E-9
 4.273449E-9
 4.308046E-9
 4.342644E-9
 4.377242E-9
 4.397331E-9
 4.41742E-9
 4.437509E-9
 4.467114E-9
 4.496718E-9
 4.526323E-9
 4.569385E-9
 4.612446E-9
 4.640129E-9
 4.658122E-9
 4.676116E-9
 4.694109E-9
 4.7196E-9
 4.745091E-9
 4.781507E-9
 4.817922E-9
 4.854338E-9
 4.890753E-9
 4.912603E-9
 4.934452E-9
 4.956301E-9
 4.978151E-9
 5.E-9
</indep>
<dep _net0.Vt time>
 3.
 3.
 3.
 3.
 3.
 3.
 3.
 3.
 3.
 3.
 3.
 3.
 3.
 3.
 3.
 3.
 3.
 3.
 3.
 3.
 3.
 3.
 3.
 3.
 3.
 3.
 3.
 3.
 3.
 3.
 3.
 3.
 3.
 3.
 3.
 3.
 3.
 3.
 3.
 3.
 3.
 3.
 3.
 3.
 3.
 3.
 3.
 3.
 3.
 3.
 3.
 3.
 3.
 3.
 3.
 3.
 3.
 3.
 3.
 3.
 3.
 3.
 3.
 3.
 3.
 3.
 3.
 3.
 3.
 3.
 3.
 3.
 3.
 3.
 3.
 3.
 3.
 3.
 3.
 3.
 3.
 3.
 3.
 3.
 3.
 3.
 3.
 3.
 3.
 3.
 3.
 3.
 3.
 3.
 3.
 3.
 3.
 3.
 3.
 3.
 3.
 3.
 3.
 3.
 3.
 3.
 3.
 3.
 3.
 3.
 3.
 3.
 3.
 3.
 3.
 3.
 3.
 3.
 3.
 3.
 3.
 3.
 3.
 3.
 3.
 3.
 3.
 3.
 3.
 3.
 3.
 3.
 3.
 3.
 3.
 3.
 3.
 3.
 3.
 3.
 3.
 3.
 3.
 3.
 3.
 3.
 3.
 3.
 3.
 3.
 3.
 3.
 3.
 3.
 3.
 3.
 3.
 3.
 3.
 3.
 3.
 3.
 3.
 3.
 3.
 3.
 3.
 3.
 3.
 3.
</dep>
<dep _net1.Vt time>
 3.
 3.
 3.
 3.171761
 3.521461
 3.694847
 3.739481
 3.664797
 3.466206
 3.146266
 2.871608
 2.485673
 1.876021
 1.438357
 1.204397
 1.198965
 1.415639
 1.821681
 2.36292
 2.672794
 3.850404
 4.939878
 5.450972
 5.39216
 5.136572
 4.726748
 4.196485
 3.180574
 1.920911
 0.7738722
 0.1818662
 0.2411104
 0.5409021
 0.9887547
 1.601417
 2.32686
 3.870875
 5.318111
 6.141132
 6.224249
 5.980994
 5.512613
 4.859815
 3.655901
 2.140518
 0.661553
-0.1199672
-0.07940866
 0.1782282
 0.4814946
 0.8768051
 1.407215
 2.429184
 3.6975
 5.012256
 5.927351
 6.296898
 6.222399
 5.926901
 5.43761
 4.792398
 3.528681
 2.006537
 0.5286952
-0.1739464
-0.04267565
 0.2144966
 0.5097454
 0.8937751
 1.402658
 2.426763
 3.70647
 5.022586
 5.935976
 6.299835
 6.221611
 5.924835
 5.436301
 4.79368
 3.526978
 2.007995
 0.5271438
-0.1755681
-0.04184914
 0.2149461
 0.5092057
 0.89184
 1.398545
 2.425147
 3.713045
 5.030654
 5.942349
 6.299908
 6.218011
 5.921183
 5.435667
 4.798483
 3.529722
 2.010853
 0.5265357
-0.1761879
-0.03998748
 0.2160035
 0.5089272
 0.889474
 1.392976
 2.403583
 3.679841
 4.99173
 5.912908
 6.297967
 6.23379
 5.941247
 5.447882
 4.793414
 3.517613
 1.994009
 0.5090123
-0.1814326
-0.03196662
 0.2229449
 0.5149703
 0.8940385
 1.394388
 2.407214
 3.685252
 4.997805
 5.917533
 6.298698
 6.232338
 5.940135
 5.449294
 4.798924
 3.555953
 2.870661
 1.081512
-0.07656465
-0.1336312
 0.1989262
 0.507105
 0.9207727
 1.474068
 2.493994
 3.811963
 5.088684
 5.964802
 6.299231
 6.215424
 5.931007
 5.46826
 4.542983
 3.440517
 2.169454
 0.3527858
-0.2321045
 0.03018489
 0.2487509
 0.4974165
 0.8108301
 1.405194
 2.13945
 3.529802
 4.94087
 5.913289
 6.29675
 6.207081
 5.880877
 5.349188
 4.657235
 3.861306
</dep>
<dep _net2.Vt time>
 3.
 3.
 3.
 2.828239
 2.478539
 2.304955
 2.260531
 2.335613
 2.534523
 2.854656
 3.129735
 3.516038
 4.126149
 4.563973
 4.797782
 4.802783
 4.585459
 4.17864
 3.636604
 3.326354
 2.147866
 1.058051
 0.5472091
 0.6048161
 0.8605223
 1.270511
 1.801626
 2.819152
 4.080429
 5.228757
 5.912591
 6.021064
 5.750847
 5.231092
 4.515616
 3.681098
 1.964769
 0.3953117
-0.1234862
 0.1484053
 0.438706
 0.8198507
 1.333725
 2.311367
 3.613689
 4.931198
 5.862299
 6.283119
 6.243131
 5.953049
 5.442022
 4.75575
 3.480856
 1.985055
 0.5098957
-0.1791923
-0.03167899
 0.2242652
 0.517081
 0.8986591
 1.402239
 2.418371
 3.711016
 5.019411
 5.928175
 6.296859
 6.221424
 5.919915
 5.420045
 4.762191
 3.484506
 1.976532
 0.4993841
-0.182793
-0.02804887
 0.2268938
 0.5190657
 0.8990323
 1.399995
 2.417725
 3.706354
 5.017654
 5.928471
 6.297508
 6.222188
 5.922029
 5.424613
 4.769715
 3.488806
 1.971546
 0.49199
-0.184834
-0.02347382
 0.2299318
 0.5206486
 0.8978754
 1.394518
 2.413989
 3.702447
 5.0175
 5.930079
 6.29817
 6.22216
 5.923374
 5.429101
 4.778418
 3.516941
 2.01288
 0.5371088
-0.1722672
-0.04830153
 0.2088539
 0.503109
 0.8860749
 1.394029
 2.416882
 3.708417
 5.025212
 5.936727
 6.297915
 6.217608
 5.918559
 5.427577
 4.782869
 3.520503
 2.014651
 0.5370407
-0.1722431
-0.04689938
 0.2090749
 0.5016696
 0.8818119
 1.385683
 2.380955
 2.945596
 4.493193
 5.753374
 6.223087
 6.222553
 5.91707
 5.387283
 4.678898
 3.415725
 1.879273
 0.450216
-0.1838381
-0.01407467
 0.227982
 0.5093978
 0.8684596
 1.592753
 2.483027
 3.558495
 5.177038
 6.148155
 6.318548
 6.216663
 5.953071
 5.546012
 4.773397
 3.848462
 2.20283
 0.6008114
-0.1694531
-0.04276501
 0.226423
 0.5349793
 0.9399703
 1.476386
 2.111817
</dep>
<dep _net3.Vt time>
 1.608996
 1.608996
 1.608996
 1.654565
 1.98538
 2.01635
 1.973639
 2.007878
 2.012338
 1.748229
 1.604451
 1.849984
 1.820803
 1.391336
 1.121074
 1.064616
 1.225492
 1.567325
 1.975346
 1.977999
 2.005941
 1.083225
 0.4772056
 0.4682125
 0.659805
 1.027059
 1.485345
 1.899649
 1.911472
 0.85689
 0.1779417
 0.1508039
 0.3594693
 0.7575516
 1.288256
 1.938914
 1.919061
 0.5110143
-0.09861004
 0.07141099
 0.2749204
 0.6045371
 1.047801
 1.918791
 1.820895
 0.8081486
-0.03093365
-0.08701657
 0.0830226
 0.3158543
 0.6438571
 1.126306
 1.938843
 1.919835
 0.6453271
-0.09124958
-0.06143748
 0.1200021
 0.3397415
 0.6683936
 1.115066
 1.966535
 1.903009
 0.6710073
-0.08711151
-0.06593722
 0.1100208
 0.3369264
 0.6600833
 1.119943
 1.94516
 1.911477
 0.6363009
-0.0961591
-0.05830288
 0.1209252
 0.3422427
 0.6675044
 1.114491
 1.960454
 1.907835
 0.6683621
-0.08801547
-0.06607314
 0.1109751
 0.3357837
 0.6592446
 1.115132
 1.948989
 1.907723
 0.6294551
-0.09940656
-0.05488943
 0.1225465
 0.3439808
 0.6657798
 1.110302
 1.955298
 1.910354
 0.6670197
-0.0885113
-0.06524706
 0.1120774
 0.335156
 0.6576381
 1.109491
 1.941616
 1.900357
 0.6770682
-0.08288651
-0.07086956
 0.107542
 0.3301773
 0.655466
 1.110015
 1.954586
 1.908197
 0.6487164
-0.09496482
-0.06004372
 0.1169875
 0.3399738
 0.6616222
 1.110855
 1.945036
 1.904718
 0.6769635
-0.08313162
-0.06999291
 0.1076666
 0.3289927
 0.651657
 1.102379
 1.934756
 1.673078
 1.210779
 0.03048334
-0.1242705
 0.1085422
 0.3260325
 0.6957972
 1.16942
 2.032494
 1.846658
 0.5944208
-0.1079186
-0.04241108
 0.1151562
 0.3412393
 0.6321231
 1.301
 1.944333
 1.86704
 0.4762593
-0.1693206
-0.02195308
 0.1420998
 0.3199882
 0.5957459
 1.110672
 1.783644
 1.73385
 0.7495812
-0.08097519
-0.06667741
 0.1172695
 0.3579687
 0.6993026
 1.187953
 1.732646
</dep>
<dep _net4.Vt time>
 1.5
 1.5
 1.5
 1.5
 1.5
 1.5
 1.5
 1.5
 1.5
 1.5
 1.5
 1.5
 1.5
 1.5
 1.5
 1.5
 1.5
 1.5
 1.5
 1.5
 1.5
 1.5
 1.5
 1.5
 1.5
 1.5
 1.5
 1.5
 1.5
 1.5
 1.5
 1.5
 1.5
 1.5
 1.5
 1.5
 1.5
 1.5
 1.5
 1.5
 1.5
 1.5
 1.5
 1.5
 1.5
 1.5
 1.5
 1.5
 1.5
 1.5
 1.5
 1.5
 1.5
 1.5
 1.5
 1.5
 1.5
 1.5
 1.5
 1.5
 1.5
 1.5
 1.5
 1.5
 1.5
 1.5
 1.5
 1.5
 1.5
 1.5
 1.5
 1.5
 1.5
 1.5
 1.5
 1.5
 1.5
 1.5
 1.5
 1.5
 1.5
 1.5
 1.5
 1.5
 1.5
 1.5
 1.5
 1.5
 1.5
 1.5
 1.5
 1.5
 1.5
 1.5
 1.5
 1.5
 1.5
 1.5
 1.5
 1.5
 1.5
 1.5
 1.5
 1.5
 1.5
 1.5
 1.5
 1.5
 1.5
 1.5
 1.5
 1.5
 1.5
 1.5
 1.5
 1.5
 1.5
 1.5
 1.5
 1.5
 1.5
 1.5
 1.5
 1.5
 1.5
 1.5
 1.5
 1.5
 1.5
 1.5
 1.5
 1.5
 1.5
 1.5
 1.5
 1.5
 1.5
 1.5
 1.5
 1.5
 1.5
 1.5
 1.5
 1.5
 1.5
 1.5
 1.5
 1.5
 1.5
 1.5
 1.5
 1.5
 1.5
 1.5
 1.5
 1.5
 1.5
 1.5
 1.5
 1.5
 1.5
 1.5
 1.5
 1.5
 1.5
 1.5
 1.5
 1.5
 1.5
 1.5
</dep>
<dep neg.Vt time>
 2.962506
 2.962506
 2.962506
 2.786451
 2.419402
 2.225163
 2.156196
 2.208872
 2.389752
 2.700077
 2.974879
 3.366969
 4.000655
 4.477111
 4.75926
 4.81602
 4.647402
 4.280317
 3.764378
 3.461073
 2.271251
 1.120194
 0.513005
 0.4958715
 0.7011933
 1.068065
 1.56665
 2.559251
 3.836533
 5.044812
 5.821761
 6.037327
 5.838357
 5.380083
 4.710815
 3.903418
 2.179727
 0.5342076
-0.1039514
 0.07297379
 0.3026366
 0.6306644
 1.101457
 2.038909
 3.339926
 4.70084
 5.713806
 6.239239
 6.272069
 6.051116
 5.600272
 4.960809
 3.725022
 2.219965
 0.6837323
-0.1044811
-0.06557833
 0.1293104
 0.3668379
 0.7002155
 1.164908
 2.143105
 3.437944
 4.793901
 5.788738
 6.265739
 6.259683
 6.023534
 5.580488
 4.967124
 3.72881
 2.211469
 0.6728586
-0.1089112
-0.0630197
 0.1312386
 0.3684539
 0.7004915
 1.162747
 2.142432
 3.433162
 4.79199
 5.788988
 6.266526
 6.260388
 6.025419
 5.584725
 4.974309
 3.733106
 2.206433
 0.6649574
-0.1119464
-0.05974609
 0.1335071
 0.3697314
 0.6993966
 1.157556
 2.138731
 3.429162
 4.791787
 5.790773
 6.26766
 6.260512
 6.026622
 5.588865
 4.982592
 3.760911
 2.248762
 0.7134504
-0.09361929
-0.07750939
 0.1173519
 0.3551912
 0.6889631
 1.157236
 2.141683
 3.435351
 4.800142
 5.798668
 6.269197
 6.257132
 6.022345
 5.587345
 4.986711
 3.764344
 2.250484
 0.7132659
-0.09387166
-0.07653507
 0.1174938
 0.3539601
 0.6851099
 1.149377
 2.106422
 2.66526
 4.243674
 5.593233
 6.154937
 6.253834
 6.018128
 5.548626
 4.886429
 3.659496
 2.110914
 0.6185749
-0.1146481
-0.0521213
 0.1317703
 0.3601741
 0.6728051
 1.344719
 2.206509
 3.282499
 4.95995
 6.045933
 6.305791
 6.262697
 6.054608
 5.697017
 4.979434
 4.08792
 2.44323
 0.7828554
-0.08880359
-0.07524484
 0.1303983
 0.3817235
 0.7372739
 1.234543
 1.843626
</dep>
<dep pos.Vt time>
 2.962506
 2.962506
 2.962506
 3.138561
 3.505609
 3.699703
 3.768749
 3.716476
 3.535935
 3.225828
 2.951313
 2.559619
 1.926447
 1.450216
 1.167982
 1.110846
 1.278855
 1.645184
 2.160323
 2.463242
 3.65213
 4.802764
 5.410377
 5.426191
 5.22092
 4.854015
 4.356232
 3.365205
 2.089557
 0.8826381
 0.1995
 0.1579848
 0.3933475
 0.7860145
 1.356592
 2.056457
 3.604576
 5.118477
 6.055239
 6.239473
 6.065721
 5.658869
 5.055019
 3.894039
 2.375208
 0.8416936
-0.03298831
-0.09823067
 0.09356141
 0.3372408
 0.6807548
 1.169707
 2.153846
 3.424295
 4.786468
 5.787895
 6.266235
 6.260277
 6.029423
 5.59652
 4.995755
 3.77244
 2.242264
 0.70431
-0.09659232
-0.07354299
 0.1215925
 0.3606861
 0.6957874
 1.165254
 2.151322
 3.433287
 4.797198
 5.797446
 6.270541
 6.260529
 6.028036
 5.595565
 4.997164
 3.77092
 2.243891
 0.7028431
-0.09833752
-0.07302193
 0.1219412
 0.3602164
 0.6940459
 1.161391
 2.149732
 3.439986
 4.805827
 5.804914
 6.272174
 6.257935
 6.024828
 5.594907
 5.001652
 3.773575
 2.24674
 0.7021512
-0.09929461
-0.07173105
 0.1227515
 0.3599636
 0.6919085
 1.156153
 2.128559
 3.4062
 4.764451
 5.770604
 6.263334
 6.268841
 6.042169
 5.606285
 4.997038
 3.761782
 2.229675
 0.6835293
-0.1064309
-0.06598814
 0.1280742
 0.3649846
 0.6959639
 1.157443
 2.132093
 3.411673
 4.770864
 5.775891
 6.264997
 6.267942
 6.041232
 5.607569
 5.002253
 3.799589
 3.117988
 1.286087
 0.02288551
-0.1299942
 0.1110027
 0.3589953
 0.7206843
 1.233003
 2.217774
 3.54097
 4.867655
 5.831176
 6.273925
 6.255553
 6.032868
 5.624341
 4.758417
 3.685312
 2.408569
 0.5170127
-0.1944477
-0.01802342
 0.1490708
 0.3503346
 0.6213513
 1.16749
 1.870447
 3.254769
 4.71098
 5.771866
 6.268358
 6.249742
 5.990038
 5.51547
 4.86726
 4.098846
</dep>
