<Qucs Dataset>
default plugins: ignored
C:C1 pos _net0 C="2p" V="" 
                      ^ ? C1: V has no value?
C:C2 neg _net0 C="2p" V="" 
                      ^ ? C2: V has no value?
L:L2 _net2 _net0 L="3n" I="" 
                        ^ ? L2: I has no value?
L:L1 _net1 _net0 L="3n" I="" 
                        ^ ? L1: I has no value?
# Eqn:Eqn1 Vout="pos.Vt-neg.Vt" Spectrum="dB(Time2Freq(Vout,time))" Ex
^ ? # Eqn: no match
T1.n.mynmos: rsh - rs - rd conflict: using rsh
T1.n.mynmos: is - js conflict
T1.n.mynmos: nsub < ni, treating as if not input
T2.n.mynmos: rsh - rs - rd conflict: using rsh
T2.n.mynmos: is - js conflict
T2.n.mynmos: nsub < ni, treating as if not input
T3.n.mynmos: rsh - rs - rd conflict: using rsh
T3.n.mynmos: is - js conflict
T3.n.mynmos: nsub < ni, treating as if not input
Gnucap   System status
iterations: op=0, dc=0, tran=1210, fourier=0, total=1369
transient timesteps: accepted=159, rejected=7, total=166
transient timesteps: accepted=0, rejected=0, total=0
nodes: user=7, subckt=0, model=0, total=7
dctran density=63.3%, ac density=63.3%

<indep time 159>
 0.
 50.E-12
 100.E-12
 150.E-12
 200.E-12
 234.043E-12
 268.085E-12
 300.E-12
 331.915E-12
 363.83E-12
 381.915E-12
 400.E-12
 428.75E-12
 457.5E-12
 486.25E-12
 515.E-12
 543.75E-12
 572.5E-12
 601.25E-12
 615.625E-12
 659.469E-12
 703.313E-12
 747.156E-12
 777.974E-12
 800.079E-12
 822.184E-12
 844.289E-12
 880.425E-12
 916.562E-12
 952.698E-12
 988.835E-12
 1.024972E-9
 1.049661E-9
 1.074351E-9
 1.09904E-9
 1.12373E-9
 1.164967E-9
 1.206204E-9
 1.247441E-9
 1.279242E-9
 1.301001E-9
 1.32276E-9
 1.344519E-9
 1.378055E-9
 1.394823E-9
 1.441044E-9
 1.487264E-9
 1.522746E-9
 1.549494E-9
 1.576242E-9
 1.60299E-9
 1.629738E-9
 1.656487E-9
 1.701669E-9
 1.746852E-9
 1.782601E-9
 1.8101E-9
 1.837599E-9
 1.865098E-9
 1.892597E-9
 1.920096E-9
 1.964095E-9
 2.008094E-9
 2.042883E-9
 2.070264E-9
 2.097645E-9
 2.125025E-9
 2.152406E-9
 2.179787E-9
 2.223853E-9
 2.267918E-9
 2.302945E-9
 2.337972E-9
 2.36174E-9
 2.385508E-9
 2.409276E-9
 2.445765E-9
 2.482254E-9
 2.518743E-9
 2.555232E-9
 2.591721E-9
 2.613418E-9
 2.635114E-9
 2.65681E-9
 2.690769E-9
 2.707749E-9
 2.750999E-9
 2.794249E-9
 2.837499E-9
 2.864197E-9
 2.890894E-9
 2.917592E-9
 2.944289E-9
 2.970987E-9
 3.017101E-9
 3.063215E-9
 3.096607E-9
 3.121652E-9
 3.146697E-9
 3.171741E-9
 3.196786E-9
 3.221831E-9
 3.265201E-9
 3.308571E-9
 3.351941E-9
 3.38137E-9
 3.4108E-9
 3.44023E-9
 3.469659E-9
 3.499089E-9
 3.544571E-9
 3.590053E-9
 3.622097E-9
 3.645452E-9
 3.668806E-9
 3.69216E-9
 3.715514E-9
 3.751195E-9
 3.786875E-9
 3.822555E-9
 3.858235E-9
 3.893915E-9
 3.913667E-9
 3.933418E-9
 3.95317E-9
 3.984892E-9
 4.000753E-9
 4.046173E-9
 4.091594E-9
 4.137014E-9
 4.167835E-9
 4.190951E-9
 4.214066E-9
 4.237182E-9
 4.260298E-9
 4.280845E-9
 4.325792E-9
 4.370739E-9
 4.402202E-9
 4.426114E-9
 4.450026E-9
 4.473938E-9
 4.49785E-9
 4.533718E-9
 4.569586E-9
 4.605454E-9
 4.641321E-9
 4.677189E-9
 4.696178E-9
 4.715167E-9
 4.734156E-9
 4.763694E-9
 4.793232E-9
 4.834586E-9
 4.875939E-9
 4.917293E-9
 4.944862E-9
 4.972431E-9
 5.E-9
</indep>
<dep _net0.Vt time>
 3.
 3.
 3.
 3.
 3.
 3.
 3.
 3.
 3.
 3.
 3.
 3.
 3.
 3.
 3.
 3.
 3.
 3.
 3.
 3.
 3.
 3.
 3.
 3.
 3.
 3.
 3.
 3.
 3.
 3.
 3.
 3.
 3.
 3.
 3.
 3.
 3.
 3.
 3.
 3.
 3.
 3.
 3.
 3.
 3.
 3.
 3.
 3.
 3.
 3.
 3.
 3.
 3.
 3.
 3.
 3.
 3.
 3.
 3.
 3.
 3.
 3.
 3.
 3.
 3.
 3.
 3.
 3.
 3.
 3.
 3.
 3.
 3.
 3.
 3.
 3.
 3.
 3.
 3.
 3.
 3.
 3.
 3.
 3.
 3.
 3.
 3.
 3.
 3.
 3.
 3.
 3.
 3.
 3.
 3.
 3.
 3.
 3.
 3.
 3.
 3.
 3.
 3.
 3.
 3.
 3.
 3.
 3.
 3.
 3.
 3.
 3.
 3.
 3.
 3.
 3.
 3.
 3.
 3.
 3.
 3.
 3.
 3.
 3.
 3.
 3.
 3.
 3.
 3.
 3.
 3.
 3.
 3.
 3.
 3.
 3.
 3.
 3.
 3.
 3.
 3.
 3.
 3.
 3.
 3.
 3.
 3.
 3.
 3.
 3.
 3.
 3.
 3.
 3.
 3.
 3.
 3.
 3.
 3.
</dep>
<dep _net1.Vt time>
 3.
 3.
 3.
 3.171761
 3.521461
 3.694847
 3.739481
 3.664797
 3.466206
 3.146266
 2.871608
 2.485673
 1.876021
 1.438357
 1.204397
 1.198965
 1.415639
 1.821681
 2.36292
 2.672794
 3.850404
 4.939878
 5.450972
 5.39216
 5.138311
 4.731665
 4.205423
 3.19079
 1.931103
 0.7806629
 0.1831511
 0.2381939
 0.536569
 0.9828333
 1.593962
 2.318609
 3.847604
 5.290874
 6.126533
 6.231513
 6.012856
 5.578609
 4.964889
 3.801443
 3.149061
 1.268171
-0.0346551
-0.09872825
 0.2087632
 0.5883108
 1.119766
 1.83561
 2.668476
 4.286791
 5.694303
 6.239651
 6.231947
 5.85013
 5.150413
 4.223293
 3.169459
 1.314986
-0.01384993
-0.1382865
 0.1634564
 0.5381568
 1.064837
 1.784484
 2.626964
 4.229132
 5.633997
 6.216832
 6.199959
 5.842798
 5.248341
 4.473506
 3.097584
 1.507763
 0.1683921
-0.2091185
 0.1546857
 0.4426436
 0.8140177
 1.310058
 2.279595
 2.833796
 4.376472
 5.704874
 6.273342
 6.167681
 5.717175
 4.98332
 4.056658
 3.022157
 1.098429
-0.08819979
-0.08035594
 0.2056608
 0.5531994
 1.033557
 1.679901
 2.435115
 4.034648
 5.492514
 6.236041
 6.225645
 5.791864
 5.004735
 3.979174
 2.831002
 0.9189078
-0.1307277
-0.0551372
 0.2139543
 0.5352101
 0.9722864
 1.556299
 2.627897
 3.996491
 5.259617
 6.072155
 6.291446
 6.13309
 5.788223
 5.28085
 4.230252
 3.628981
 1.768898
 0.123877
-0.1799313
 0.2177941
 0.5460669
 0.9825095
 1.564223
 2.249745
 2.918825
 4.582591
 5.864048
 6.261029
 6.232217
 5.917375
 5.35453
 4.597444
 3.273753
 1.682291
 0.2741295
-0.2158644
 0.08271262
 0.3233707
 0.6071595
 0.9729873
 1.731955
 2.64462
 4.084228
 5.473679
 6.219036
 6.258409
 5.920786
 5.253262
</dep>
<dep _net2.Vt time>
 3.
 3.
 3.
 2.828239
 2.478539
 2.304955
 2.260531
 2.335613
 2.534523
 2.854656
 3.129735
 3.516038
 4.126149
 4.563973
 4.797782
 4.802783
 4.585459
 4.17864
 3.636604
 3.326354
 2.147866
 1.058051
 0.5472091
 0.6048161
 0.8587822
 1.265587
 1.792666
 2.808899
 4.070196
 5.221927
 5.910126
 6.023229
 5.755894
 5.238435
 4.524456
 3.690574
 1.990336
 0.4223604
-0.1229678
 0.1303584
 0.4073357
 0.7641945
 1.244082
 2.184572
 2.725348
 4.356095
 5.752034
 6.244692
 6.206496
 5.817004
 5.13018
 4.230877
 3.214439
 1.339922
-0.01464261
-0.128896
 0.1828112
 0.5668235
 1.107459
 1.841802
 2.703344
 4.306809
 5.683029
 6.232569
 6.246904
 5.888013
 5.209067
 4.296649
 3.260288
 1.397072
 0.007514452
-0.1564687
 0.2350277
 0.5715177
 1.030846
 1.641836
 2.764757
 4.138624
 5.385251
 6.138542
 6.261876
 6.015161
 5.555223
 4.919014
 3.711174
 3.03724
 1.241681
-0.03285139
-0.09345594
 0.2598127
 0.6659928
 1.230719
 1.97238
 2.824728
 4.499341
 5.838139
 6.261432
 6.214979
 5.857922
 5.235626
 4.414246
 3.481685
 1.617873
 0.09489952
-0.1729837
 0.1939996
 0.6227697
 1.234581
 2.057177
 3.006119
 4.676572
 5.928512
 6.280215
 6.21196
 5.8728
 5.301518
 4.549871
 3.223155
 1.638356
 0.2528284
-0.2175926
 0.08719406
 0.3383529
 0.6394346
 1.031983
 1.870225
 2.359133
 3.930737
 5.474259
 6.248829
 6.207404
 5.868779
 5.302102
 4.560911
 3.710914
 2.899143
 0.9952504
-0.1119773
-0.08275455
 0.1818418
 0.5050977
 0.9440012
 1.535225
 2.606159
 3.977355
 5.249984
 6.068683
 6.28854
 6.139135
 5.816619
 5.341902
 4.385367
 3.26636
 1.576402
 0.1154417
-0.1876752
 0.134621
 0.5148818
 1.036715
</dep>
<dep _net3.Vt time>
 1.608996
 1.608996
 1.608996
 1.654565
 1.98538
 2.01635
 1.973639
 2.007878
 2.012338
 1.748229
 1.604451
 1.849984
 1.820803
 1.391336
 1.121074
 1.064616
 1.225492
 1.567325
 1.975346
 1.977999
 2.005941
 1.083225
 0.4772056
 0.4682125
 0.6583484
 1.022669
 1.477542
 1.909168
 1.91873
 0.8639848
 0.1800472
 0.1486626
 0.3561461
 0.7520646
 1.28191
 1.932188
 1.925861
 0.5405292
-0.09357546
 0.05880912
 0.2509199
 0.5557703
 0.96747
 1.82032
 1.865268
 1.408841
 0.0584773
-0.1005603
 0.1081842
 0.3998031
 0.8633514
 1.506065
 1.951363
 1.474032
 0.08731852
-0.1211047
 0.09088098
 0.3805398
 0.8545309
 1.507904
 1.928055
 1.445303
 0.09169388
-0.1267134
 0.07895951
 0.355477
 0.8189224
 1.453696
 2.002723
 1.521053
 0.1172967
-0.1380798
 0.1303052
 0.3818633
 0.7883594
 1.326369
 1.873753
 1.609848
 0.2948602
-0.1650059
 0.0742687
 0.2767386
 0.5996431
 1.025793
 1.899515
 1.768804
 1.382086
 0.07054077
-0.1104162
 0.1444214
 0.4620136
 0.9647561
 1.619679
 1.79795
 1.231429
 0.005813191
-0.09228959
 0.111027
 0.3654911
 0.7931724
 1.356767
 1.990992
 1.703714
 0.2143365
-0.1619056
 0.1001121
 0.4226246
 0.9737178
 1.68273
 1.662655
 1.045999
-0.03907193
-0.07943764
 0.1207677
 0.3467203
 0.7434362
 1.239018
 2.028359
 1.700248
 0.3880454
-0.1609814
 0.02837444
 0.1951829
 0.4505978
 0.7741665
 1.557099
 1.895556
 1.877862
 0.2344969
-0.1610406
 0.1088152
 0.3691622
 0.7342607
 1.271684
 1.830478
 1.724023
 1.121126
-0.01489893
-0.09579733
 0.09743373
 0.3227589
 0.7184409
 1.221039
 2.052345
 1.734966
 0.4099589
-0.1578631
 0.02491559
 0.1840537
 0.4230671
 0.7219914
 1.430806
 1.922872
 1.716269
 0.2250488
-0.1587595
 0.04969331
 0.3442679
 0.7833664
</dep>
<dep _net4.Vt time>
 1.5
 1.5
 1.5
 1.5
 1.5
 1.5
 1.5
 1.5
 1.5
 1.5
 1.5
 1.5
 1.5
 1.5
 1.5
 1.5
 1.5
 1.5
 1.5
 1.5
 1.5
 1.5
 1.5
 1.5
 1.5
 1.5
 1.5
 1.5
 1.5
 1.5
 1.5
 1.5
 1.5
 1.5
 1.5
 1.5
 1.5
 1.5
 1.5
 1.5
 1.5
 1.5
 1.5
 1.5
 1.5
 1.5
 1.5
 1.5
 1.5
 1.5
 1.5
 1.5
 1.5
 1.5
 1.5
 1.5
 1.5
 1.5
 1.5
 1.5
 1.5
 1.5
 1.5
 1.5
 1.5
 1.5
 1.5
 1.5
 1.5
 1.5
 1.5
 1.5
 1.5
 1.5
 1.5
 1.5
 1.5
 1.5
 1.5
 1.5
 1.5
 1.5
 1.5
 1.5
 1.5
 1.5
 1.5
 1.5
 1.5
 1.5
 1.5
 1.5
 1.5
 1.5
 1.5
 1.5
 1.5
 1.5
 1.5
 1.5
 1.5
 1.5
 1.5
 1.5
 1.5
 1.5
 1.5
 1.5
 1.5
 1.5
 1.5
 1.5
 1.5
 1.5
 1.5
 1.5
 1.5
 1.5
 1.5
 1.5
 1.5
 1.5
 1.5
 1.5
 1.5
 1.5
 1.5
 1.5
 1.5
 1.5
 1.5
 1.5
 1.5
 1.5
 1.5
 1.5
 1.5
 1.5
 1.5
 1.5
 1.5
 1.5
 1.5
 1.5
 1.5
 1.5
 1.5
 1.5
 1.5
 1.5
 1.5
 1.5
 1.5
 1.5
 1.5
 1.5
 1.5
 1.5
 1.5
</dep>
<dep neg.Vt time>
 2.962506
 2.962506
 2.962506
 2.786451
 2.419402
 2.225163
 2.156196
 2.208872
 2.389752
 2.700077
 2.974879
 3.366969
 4.000655
 4.477111
 4.75926
 4.81602
 4.647402
 4.280317
 3.764378
 3.461073
 2.271251
 1.120194
 0.513005
 0.4958715
 0.6996978
 1.063539
 1.558105
 2.549065
 3.825923
 5.037315
 5.818479
 6.038679
 5.842686
 5.386866
 4.719299
 3.912766
 2.205965
 0.5642828
-0.09858305
 0.05942006
 0.2769696
 0.5812958
 1.017762
 1.915132
 2.446757
 4.102176
 5.593128
 6.191948
 6.240019
 5.931073
 5.31038
 4.455987
 3.458885
 1.552106
 0.0919275
-0.1321355
 0.09781029
 0.4096292
 0.8907659
 1.583169
 2.424699
 4.049804
 5.513907
 6.166195
 6.269213
 5.994299
 5.385105
 4.520624
 3.505586
 1.613024
 0.1221974
-0.149336
 0.1384424
 0.4132009
 0.8202589
 1.391711
 2.485555
 3.875564
 5.186602
 6.04074
 6.280694
 6.102053
 5.702532
 5.11483
 3.951653
 3.284088
 1.451709
 0.07350783
-0.1197691
 0.1556234
 0.4940627
 1.003977
 1.708304
 2.544584
 4.24966
 5.688849
 6.213961
 6.248604
 5.967581
 5.409047
 4.633329
 3.724515
 1.84122
 0.2253194
-0.1744647
 0.1045387
 0.4570304
 1.007841
 1.790589
 2.72573
 4.434206
 5.790923
 6.242071
 6.249626
 5.981507
 5.470631
 4.763919
 3.468841
 1.864008
 0.4051551
-0.1716834
 0.02373126
 0.2198355
 0.4711426
 0.8209345
 1.609687
 2.084552
 3.662701
 5.283606
 6.188292
 6.246355
 5.977935
 5.471002
 4.77443
 3.95069
 3.145208
 1.193892
-0.02830992
-0.09655107
 0.09749412
 0.3572257
 0.7417141
 1.290851
 2.328446
 3.709923
 5.040442
 5.954763
 6.288606
 6.200228
 5.934253
 5.508501
 4.606999
 3.512388
 1.798838
 0.2486948
-0.1800385
 0.05881915
 0.3653232
 0.825816
</dep>
<dep pos.Vt time>
 2.962506
 2.962506
 2.962506
 3.138561
 3.505609
 3.699703
 3.768749
 3.716476
 3.535935
 3.225828
 2.951313
 2.559619
 1.926447
 1.450216
 1.167982
 1.110846
 1.278855
 1.645184
 2.160323
 2.463242
 3.65213
 4.802764
 5.410377
 5.426191
 5.222415
 4.858537
 4.364757
 3.375358
 2.100126
 0.8900964
 0.2015908
 0.1558363
 0.3896833
 0.780631
 1.349507
 2.04838
 3.580785
 5.089003
 6.036336
 6.242362
 6.091632
 5.718208
 5.153891
 4.036834
 3.392432
 1.475285
 0.06223102
-0.110659
 0.1180581
 0.4280187
 0.902051
 1.57718
 2.390033
 4.029533
 5.526988
 6.178233
 6.259491
 5.961286
 5.330292
 4.449507
 3.414831
 1.526955
 0.09463765
-0.1367772
 0.08316805
 0.385329
 0.8517957
 1.528317
 2.349042
 3.969836
 5.459835
 6.145032
 6.240502
 5.955127
 5.421154
 4.690516
 3.343263
 1.728337
 0.3099596
-0.1777685
 0.07557451
 0.3049163
 0.624832
 1.078832
 2.007439
 2.554097
 4.122546
 5.539268
 6.236803
 6.217104
 5.845134
 5.173986
 4.287883
 3.267793
 1.300799
-0.001260619
-0.09641926
 0.1160324
 0.3979375
 0.8230214
 1.428216
 2.15982
 3.769497
 5.303808
 6.171667
 6.256255
 5.910997
 5.194405
 4.212702
 3.07647
 1.113449
-0.05470747
-0.07824587
 0.1226398
 0.382579
 0.7671909
 1.310673
 2.34987
 3.729328
 5.050566
 5.958424
 6.291241
 6.196333
 5.909938
 5.452609
 4.45769
 3.871165
 1.997445
 0.2590927
-0.1824939
 0.1233519
 0.3910973
 0.7758501
 1.317655
 1.97791
 2.638428
 4.336039
 5.717865
 6.211179
 6.259998
 6.018669
 5.51884
 4.80896
 3.518834
 1.908834
 0.4281432
-0.1684126
 0.02016509
 0.2077099
 0.4432167
 0.767075
 1.476954
 2.365642
 3.819983
 5.283105
 6.146147
 6.274713
 6.022254
 5.42602
</dep>
