<Qucs Dataset>
default plugins: ignored
;: already installed, replacing
stashing as ;:0
*: already installed, replacing
stashing as *:0
': already installed, replacing
stashing as ':0
": already installed, replacing
stashing as ":0
d: already installed, replacing
stashing as d:0
diode: already installed, replacing
stashing as diode:0
npn: already installed, replacing
stashing as npn:0
pnp: already installed, replacing
stashing as pnp:0
npn1: already installed, replacing
stashing as npn1:0
pnp1: already installed, replacing
stashing as pnp1:0
Q: already installed, replacing
stashing as Q:0
bjt: already installed, replacing
stashing as bjt:0
C:C1 pos _net0 C="2p" V="" 
                      ^ ? C1: V has no value?
C:C2 neg _net0 C="2p" V="" 
                      ^ ? C2: V has no value?
L:L2 _net2 _net0 L="3n" I="" 
                        ^ ? L2: I has no value?
L:L1 _net1 _net0 L="3n" I="" 
                        ^ ? L1: I has no value?
# Eqn:Eqn1 Vout="pos.Vt-neg.Vt" Spectrum="dB(Time2Freq(Vout,time))" Ex
^ ? # Eqn: no match
T1.mynmos: rsh - rs - rd conflict: using rsh
T1.mynmos: is - js conflict
T1.mynmos: nsub < ni, treating as if not input
T1.n.mynmos: rsh - rs - rd conflict: using rsh
T1.n.mynmos: is - js conflict
T1.n.mynmos: nsub < ni, treating as if not input
T1.p.mypmos: rsh - rs - rd conflict: using rsh
T1.p.mypmos: is - js conflict
T1.p.mypmos: nsub < ni, treating as if not input
T2.mynmos: rsh - rs - rd conflict: using rsh
T2.mynmos: is - js conflict
T2.mynmos: nsub < ni, treating as if not input
T2.n.mynmos: rsh - rs - rd conflict: using rsh
T2.n.mynmos: is - js conflict
T2.n.mynmos: nsub < ni, treating as if not input
T2.p.mypmos: rsh - rs - rd conflict: using rsh
T2.p.mypmos: is - js conflict
T2.p.mypmos: nsub < ni, treating as if not input
T3.mynmos: rsh - rs - rd conflict: using rsh
T3.mynmos: is - js conflict
T3.mynmos: nsub < ni, treating as if not input
T3.n.mynmos: rsh - rs - rd conflict: using rsh
T3.n.mynmos: is - js conflict
T3.n.mynmos: nsub < ni, treating as if not input
T3.p.mypmos: rsh - rs - rd conflict: using rsh
T3.p.mypmos: is - js conflict
T3.p.mypmos: nsub < ni, treating as if not input
Gnucap   System status
iterations: op=0, dc=0, tran=3659, fourier=0, total=4340
transient timesteps: accepted=635, rejected=49, total=684
transient timesteps: accepted=0, rejected=0, total=0
nodes: user=7, subckt=0, model=0, total=7
dctran density=63.3%, ac density=63.3%

<indep time 635>
 0.
 50.E-12
 100.E-12
 150.E-12
 200.E-12
 234.043E-12
 237.137E-12
 240.232E-12
 242.45E-12
 244.668E-12
 246.886E-12
 250.506E-12
 254.126E-12
 261.576E-12
 275.472E-12
 289.368E-12
 300.E-12
 318.651E-12
 337.302E-12
 355.952E-12
 357.904E-12
 359.004E-12
 360.104E-12
 361.204E-12
 371.489E-12
 393.53E-12
 400.E-12
 411.247E-12
 413.295E-12
 414.396E-12
 415.496E-12
 416.596E-12
 417.696E-12
 419.369E-12
 421.041E-12
 423.697E-12
 426.353E-12
 430.837E-12
 435.321E-12
 443.774E-12
 452.227E-12
 470.132E-12
 488.036E-12
 505.941E-12
 523.846E-12
 541.75E-12
 559.655E-12
 590.491E-12
 621.326E-12
 652.162E-12
 682.998E-12
 684.953E-12
 686.053E-12
 687.153E-12
 688.254E-12
 691.853E-12
 695.452E-12
 703.293E-12
 719.206E-12
 730.776E-12
 732.585E-12
 734.394E-12
 735.733E-12
 737.073E-12
 739.319E-12
 741.565E-12
 743.811E-12
 746.057E-12
 748.303E-12
 750.549E-12
 754.032E-12
 757.515E-12
 760.998E-12
 766.412E-12
 771.826E-12
 777.239E-12
 782.653E-12
 788.067E-12
 793.481E-12
 798.895E-12
 804.308E-12
 806.419E-12
 807.519E-12
 808.619E-12
 809.719E-12
 841.952E-12
 874.185E-12
 906.418E-12
 908.441E-12
 909.541E-12
 910.641E-12
 911.741E-12
 912.841E-12
 913.941E-12
 915.751E-12
 917.561E-12
 921.05E-12
 924.539E-12
 931.494E-12
 942.089E-12
 958.585E-12
 975.08E-12
 977.256E-12
 978.356E-12
 979.456E-12
 980.556E-12
 982.211E-12
 983.865E-12
 985.52E-12
 988.642E-12
 991.763E-12
 996.755E-12
 1.001747E-9
 1.010917E-9
 1.020087E-9
 1.029258E-9
 1.038428E-9
 1.047598E-9
 1.056768E-9
 1.065939E-9
 1.075109E-9
 1.077437E-9
 1.078537E-9
 1.079637E-9
 1.080737E-9
 1.092613E-9
 1.10449E-9
 1.147773E-9
 1.191057E-9
 1.23434E-9
 1.236381E-9
 1.237482E-9
 1.238582E-9
 1.239682E-9
 1.244169E-9
 1.248656E-9
 1.2573E-9
 1.274083E-9
 1.290867E-9
 1.30765E-9
 1.324434E-9
 1.326561E-9
 1.327661E-9
 1.328761E-9
 1.329861E-9
 1.337291E-9
 1.34472E-9
 1.363088E-9
 1.403498E-9
 1.431817E-9
 1.433845E-9
 1.434945E-9
 1.436045E-9
 1.437145E-9
 1.441593E-9
 1.444497E-9
 1.446772E-9
 1.447872E-9
 1.448972E-9
 1.450072E-9
 1.451173E-9
 1.452273E-9
 1.453373E-9
 1.454473E-9
 1.455573E-9
 1.456673E-9
 1.457773E-9
 1.458873E-9
 1.459973E-9
 1.461073E-9
 1.462173E-9
 1.463979E-9
 1.465785E-9
 1.469161E-9
 1.472536E-9
 1.479978E-9
 1.492461E-9
 1.504943E-9
 1.517425E-9
 1.537673E-9
 1.55792E-9
 1.578168E-9
 1.580293E-9
 1.581493E-9
 1.582694E-9
 1.583894E-9
 1.599352E-9
 1.627928E-9
 1.65056E-9
 1.673191E-9
 1.695823E-9
 1.718454E-9
 1.741085E-9
 1.763717E-9
 1.781401E-9
 1.799086E-9
 1.81677E-9
 1.834455E-9
 1.85214E-9
 1.854061E-9
 1.855161E-9
 1.856261E-9
 1.857361E-9
 1.860427E-9
 1.863493E-9
 1.869074E-9
 1.878708E-9
 1.899379E-9
 1.92005E-9
 1.94072E-9
 1.942852E-9
 1.943952E-9
 1.945052E-9
 1.946153E-9
 1.94972E-9
 1.953288E-9
 1.960773E-9
 1.966486E-9
 1.968704E-9
 1.969804E-9
 1.970904E-9
 1.972005E-9
 1.973105E-9
 1.974205E-9
 1.975995E-9
 1.977784E-9
 1.981203E-9
 1.984622E-9
 1.992275E-9
 2.005642E-9
 2.01901E-9
 2.032378E-9
 2.045745E-9
 2.059113E-9
 2.072481E-9
 2.085848E-9
 2.099216E-9
 2.101252E-9
 2.102352E-9
 2.103452E-9
 2.104552E-9
 2.122425E-9
 2.153038E-9
 2.174284E-9
 2.176215E-9
 2.177315E-9
 2.178415E-9
 2.179515E-9
 2.180615E-9
 2.181715E-9
 2.182815E-9
 2.183915E-9
 2.185015E-9
 2.186115E-9
 2.187958E-9
 2.189801E-9
 2.193588E-9
 2.197376E-9
 2.205293E-9
 2.217659E-9
 2.22749E-9
 2.229384E-9
 2.230484E-9
 2.231585E-9
 2.232685E-9
 2.235635E-9
 2.238585E-9
 2.244904E-9
 2.254605E-9
 2.264306E-9
 2.279421E-9
 2.294535E-9
 2.309649E-9
 2.324764E-9
 2.339878E-9
 2.354992E-9
 2.356909E-9
 2.358009E-9
 2.35911E-9
 2.36021E-9
 2.381329E-9
 2.397695E-9
 2.414062E-9
 2.430429E-9
 2.446795E-9
 2.448871E-9
 2.449971E-9
 2.451071E-9
 2.452171E-9
 2.455652E-9
 2.459133E-9
 2.467518E-9
 2.473635E-9
 2.476023E-9
 2.477124E-9
 2.478224E-9
 2.479324E-9
 2.480424E-9
 2.481525E-9
 2.482625E-9
 2.483725E-9
 2.484825E-9
 2.485926E-9
 2.487026E-9
 2.48925E-9
 2.491474E-9
 2.495814E-9
 2.502404E-9
 2.513169E-9
 2.523935E-9
 2.542276E-9
 2.556819E-9
 2.571361E-9
 2.585904E-9
 2.600447E-9
 2.61499E-9
 2.61683E-9
 2.61793E-9
 2.61903E-9
 2.620131E-9
 2.631463E-9
 2.648381E-9
 2.675104E-9
 2.701827E-9
 2.72855E-9
 2.755273E-9
 2.757295E-9
 2.758396E-9
 2.759496E-9
 2.760597E-9
 2.763122E-9
 2.765646E-9
 2.768171E-9
 2.77312E-9
 2.778068E-9
 2.786453E-9
 2.794837E-9
 2.807733E-9
 2.820629E-9
 2.833524E-9
 2.84642E-9
 2.859316E-9
 2.872212E-9
 2.874173E-9
 2.875273E-9
 2.876373E-9
 2.877474E-9
 2.88419E-9
 2.890907E-9
 2.907514E-9
 2.924121E-9
 2.940728E-9
 2.942712E-9
 2.943812E-9
 2.944913E-9
 2.946013E-9
 2.947113E-9
 2.948213E-9
 2.949313E-9
 2.950413E-9
 2.951514E-9
 2.952614E-9
 2.953714E-9
 2.954814E-9
 2.955914E-9
 2.958061E-9
 2.960208E-9
 2.964539E-9
 2.96887E-9
 2.978061E-9
 2.992712E-9
 3.004248E-9
 3.007218E-9
 3.010188E-9
 3.013158E-9
 3.016128E-9
 3.028845E-9
 3.041562E-9
 3.054279E-9
 3.066996E-9
 3.079714E-9
 3.092431E-9
 3.105148E-9
 3.117865E-9
 3.119795E-9
 3.120896E-9
 3.121996E-9
 3.123096E-9
 3.15919E-9
 3.177237E-9
 3.195285E-9
 3.19729E-9
 3.19839E-9
 3.199491E-9
 3.200591E-9
 3.201692E-9
 3.202793E-9
 3.203893E-9
 3.204994E-9
 3.206094E-9
 3.207195E-9
 3.208295E-9
 3.209396E-9
 3.210496E-9
 3.211597E-9
 3.213632E-9
 3.215666E-9
 3.219797E-9
 3.223927E-9
 3.232633E-9
 3.246441E-9
 3.257332E-9
 3.259437E-9
 3.261542E-9
 3.263223E-9
 3.264904E-9
 3.274544E-9
 3.289043E-9
 3.303543E-9
 3.318043E-9
 3.332542E-9
 3.347042E-9
 3.361542E-9
 3.376041E-9
 3.377882E-9
 3.378983E-9
 3.380083E-9
 3.381184E-9
 3.417975E-9
 3.454766E-9
 3.491558E-9
 3.493492E-9
 3.494592E-9
 3.495693E-9
 3.496793E-9
 3.497893E-9
 3.498994E-9
 3.500094E-9
 3.501195E-9
 3.502295E-9
 3.503396E-9
 3.504496E-9
 3.505597E-9
 3.506697E-9
 3.507797E-9
 3.508898E-9
 3.509998E-9
 3.511099E-9
 3.512199E-9
 3.5144E-9
 3.516601E-9
 3.520888E-9
 3.527376E-9
 3.537894E-9
 3.548413E-9
 3.567023E-9
 3.581353E-9
 3.595683E-9
 3.610012E-9
 3.624342E-9
 3.638672E-9
 3.64085E-9
 3.641951E-9
 3.643051E-9
 3.644152E-9
 3.65545E-9
 3.666749E-9
 3.707151E-9
 3.747552E-9
 3.787954E-9
 3.789967E-9
 3.791067E-9
 3.792167E-9
 3.793267E-9
 3.795662E-9
 3.798056E-9
 3.80045E-9
 3.805407E-9
 3.810364E-9
 3.821278E-9
 3.832192E-9
 3.843106E-9
 3.85402E-9
 3.864934E-9
 3.875848E-9
 3.886762E-9
 3.888839E-9
 3.88994E-9
 3.89104E-9
 3.89214E-9
 3.90011E-9
 3.90808E-9
 3.928683E-9
 3.949285E-9
 3.969887E-9
 3.990489E-9
 3.992431E-9
 3.993531E-9
 3.994631E-9
 3.995731E-9
 3.999112E-9
 4.002493E-9
 4.009568E-9
 4.01498E-9
 4.017076E-9
 4.018177E-9
 4.019277E-9
 4.020378E-9
 4.021479E-9
 4.022579E-9
 4.02368E-9
 4.025669E-9
 4.027657E-9
 4.03147E-9
 4.035283E-9
 4.043974E-9
 4.052665E-9
 4.061357E-9
 4.070048E-9
 4.086654E-9
 4.10326E-9
 4.119867E-9
 4.136473E-9
 4.153079E-9
 4.155186E-9
 4.156286E-9
 4.157386E-9
 4.158486E-9
 4.174986E-9
 4.199987E-9
 4.217765E-9
 4.21974E-9
 4.22095E-9
 4.22216E-9
 4.223369E-9
 4.224579E-9
 4.225789E-9
 4.226998E-9
 4.228208E-9
 4.229418E-9
 4.230627E-9
 4.231837E-9
 4.233047E-9
 4.234257E-9
 4.235466E-9
 4.237544E-9
 4.239621E-9
 4.243991E-9
 4.248361E-9
 4.257757E-9
 4.272602E-9
 4.284334E-9
 4.288863E-9
 4.293393E-9
 4.297923E-9
 4.302452E-9
 4.313021E-9
 4.32359E-9
 4.334159E-9
 4.350012E-9
 4.365865E-9
 4.381719E-9
 4.397572E-9
 4.39958E-9
 4.400682E-9
 4.401784E-9
 4.402885E-9
 4.414152E-9
 4.425418E-9
 4.461329E-9
 4.497241E-9
 4.533152E-9
 4.569063E-9
 4.578041E-9
 4.587019E-9
 4.595997E-9
 4.604975E-9
 4.613953E-9
 4.622931E-9
 4.631908E-9
 4.640886E-9
 4.649864E-9
 4.658842E-9
 4.661116E-9
 4.662217E-9
 4.663317E-9
 4.664417E-9
 4.669014E-9
 4.673611E-9
 4.682678E-9
 4.700307E-9
 4.717936E-9
 4.735565E-9
 4.737663E-9
 4.738766E-9
 4.739868E-9
 4.74097E-9
 4.742072E-9
 4.743175E-9
 4.744277E-9
 4.745379E-9
 4.746481E-9
 4.747584E-9
 4.748686E-9
 4.749788E-9
 4.75089E-9
 4.752792E-9
 4.754694E-9
 4.758587E-9
 4.762481E-9
 4.770671E-9
 4.783412E-9
 4.793257E-9
 4.795171E-9
 4.796272E-9
 4.797374E-9
 4.798475E-9
 4.801778E-9
 4.805082E-9
 4.812043E-9
 4.8231E-9
 4.834156E-9
 4.85074E-9
 4.867325E-9
 4.883909E-9
 4.900494E-9
 4.917078E-9
 4.919052E-9
 4.920161E-9
 4.92127E-9
 4.922379E-9
 4.935316E-9
 4.956877E-9
 4.978439E-9
 5.E-9
</indep>
<dep _net0.Vt time>
 3.
 3.
 3.
 3.
 3.
 3.
 3.
 3.
 3.
 3.
 3.
 3.
 3.
 3.
 3.
 3.
 3.
 3.
 3.
 3.
 3.
 3.
 3.
 3.
 3.
 3.
 3.
 3.
 3.
 3.
 3.
 3.
 3.
 3.
 3.
 3.
 3.
 3.
 3.
 3.
 3.
 3.
 3.
 3.
 3.
 3.
 3.
 3.
 3.
 3.
 3.
 3.
 3.
 3.
 3.
 3.
 3.
 3.
 3.
 3.
 3.
 3.
 3.
 3.
 3.
 3.
 3.
 3.
 3.
 3.
 3.
 3.
 3.
 3.
 3.
 3.
 3.
 3.
 3.
 3.
 3.
 3.
 3.
 3.
 3.
 3.
 3.
 3.
 3.
 3.
 3.
 3.
 3.
 3.
 3.
 3.
 3.
 3.
 3.
 3.
 3.
 3.
 3.
 3.
 3.
 3.
 3.
 3.
 3.
 3.
 3.
 3.
 3.
 3.
 3.
 3.
 3.
 3.
 3.
 3.
 3.
 3.
 3.
 3.
 3.
 3.
 3.
 3.
 3.
 3.
 3.
 3.
 3.
 3.
 3.
 3.
 3.
 3.
 3.
 3.
 3.
 3.
 3.
 3.
 3.
 3.
 3.
 3.
 3.
 3.
 3.
 3.
 3.
 3.
 3.
 3.
 3.
 3.
 3.
 3.
 3.
 3.
 3.
 3.
 3.
 3.
 3.
 3.
 3.
 3.
 3.
 3.
 3.
 3.
 3.
 3.
 3.
 3.
 3.
 3.
 3.
 3.
 3.
 3.
 3.
 3.
 3.
 3.
 3.
 3.
 3.
 3.
 3.
 3.
 3.
 3.
 3.
 3.
 3.
 3.
 3.
 3.
 3.
 3.
 3.
 3.
 3.
 3.
 3.
 3.
 3.
 3.
 3.
 3.
 3.
 3.
 3.
 3.
 3.
 3.
 3.
 3.
 3.
 3.
 3.
 3.
 3.
 3.
 3.
 3.
 3.
 3.
 3.
 3.
 3.
 3.
 3.
 3.
 3.
 3.
 3.
 3.
 3.
 3.
 3.
 3.
 3.
 3.
 3.
 3.
 3.
 3.
 3.
 3.
 3.
 3.
 3.
 3.
 3.
 3.
 3.
 3.
 3.
 3.
 3.
 3.
 3.
 3.
 3.
 3.
 3.
 3.
 3.
 3.
 3.
 3.
 3.
 3.
 3.
 3.
 3.
 3.
 3.
 3.
 3.
 3.
 3.
 3.
 3.
 3.
 3.
 3.
 3.
 3.
 3.
 3.
 3.
 3.
 3.
 3.
 3.
 3.
 3.
 3.
 3.
 3.
 3.
 3.
 3.
 3.
 3.
 3.
 3.
 3.
 3.
 3.
 3.
 3.
 3.
 3.
 3.
 3.
 3.
 3.
 3.
 3.
 3.
 3.
 3.
 3.
 3.
 3.
 3.
 3.
 3.
 3.
 3.
 3.
 3.
 3.
 3.
 3.
 3.
 3.
 3.
 3.
 3.
 3.
 3.
 3.
 3.
 3.
 3.
 3.
 3.
 3.
 3.
 3.
 3.
 3.
 3.
 3.
 3.
 3.
 3.
 3.
 3.
 3.
 3.
 3.
 3.
 3.
 3.
 3.
 3.
 3.
 3.
 3.
 3.
 3.
 3.
 3.
 3.
 3.
 3.
 3.
 3.
 3.
 3.
 3.
 3.
 3.
 3.
 3.
 3.
 3.
 3.
 3.
 3.
 3.
 3.
 3.
 3.
 3.
 3.
 3.
 3.
 3.
 3.
 3.
 3.
 3.
 3.
 3.
 3.
 3.
 3.
 3.
 3.
 3.
 3.
 3.
 3.
 3.
 3.
 3.
 3.
 3.
 3.
 3.
 3.
 3.
 3.
 3.
 3.
 3.
 3.
 3.
 3.
 3.
 3.
 3.
 3.
 3.
 3.
 3.
 3.
 3.
 3.
 3.
 3.
 3.
 3.
 3.
 3.
 3.
 3.
 3.
 3.
 3.
 3.
 3.
 3.
 3.
 3.
 3.
 3.
 3.
 3.
 3.
 3.
 3.
 3.
 3.
 3.
 3.
 3.
 3.
 3.
 3.
 3.
 3.
 3.
 3.
 3.
 3.
 3.
 3.
 3.
 3.
 3.
 3.
 3.
 3.
 3.
 3.
 3.
 3.
 3.
 3.
 3.
 3.
 3.
 3.
 3.
 3.
 3.
 3.
 3.
 3.
 3.
 3.
 3.
 3.
 3.
 3.
 3.
 3.
 3.
 3.
 3.
 3.
 3.
 3.
 3.
 3.
 3.
 3.
 3.
 3.
 3.
 3.
 3.
 3.
 3.
 3.
 3.
 3.
 3.
 3.
 3.
 3.
 3.
 3.
 3.
 3.
 3.
 3.
 3.
 3.
 3.
 3.
 3.
 3.
 3.
 3.
 3.
 3.
 3.
 3.
 3.
 3.
 3.
 3.
 3.
 3.
 3.
 3.
 3.
 3.
 3.
 3.
 3.
 3.
 3.
 3.
 3.
 3.
 3.
 3.
 3.
 3.
 3.
 3.
 3.
 3.
 3.
 3.
 3.
 3.
 3.
 3.
 3.
 3.
 3.
 3.
 3.
 3.
 3.
 3.
 3.
 3.
 3.
 3.
 3.
 3.
 3.
 3.
 3.
 3.
 3.
 3.
 3.
 3.
 3.
 3.
 3.
 3.
 3.
 3.
 3.
 3.
 3.
 3.
 3.
 3.
 3.
 3.
 3.
 3.
 3.
 3.
 3.
 3.
 3.
</dep>
<dep _net1.Vt time>
 3.
 3.
 3.
 3.171761
 3.521461
 3.694847
 3.704222
 3.71275
 3.718141
 3.722975
 3.727232
 3.732949
 3.737135
 3.740929
 3.730861
 3.699026
 3.660683
 3.558816
 3.410357
 3.219989
 3.19805
 3.185631
 3.173132
 3.16055
 3.033493
 2.619042
 2.461389
 2.203263
 2.159592
 2.13628
 2.113273
 2.090496
 2.067945
 2.034102
 2.000767
 1.948918
 1.8984
 1.816315
 1.738343
 1.603442
 1.485182
 1.295111
 1.191881
 1.179041
 1.255584
 1.416194
 1.651565
 2.188847
 2.841884
 3.700561
 4.571439
 4.618839
 4.645304
 4.671289
 4.69698
 4.778494
 4.856137
 5.01106
 5.26124
 5.386024
 5.401006
 5.414729
 5.424083
 5.432744
 5.445718
 5.456742
 5.46581
 5.472924
 5.478085
 5.48129
 5.482399
 5.478821
 5.470577
 5.448581
 5.415529
 5.371634
 5.317158
 5.252425
 5.177806
 5.093671
 5.000454
 4.961741
 4.941051
 4.920017
 4.898644
 4.155467
 3.240772
 2.119809
 2.0419
 1.999716
 1.958174
 1.916977
 1.876101
 1.835533
 1.769469
 1.704193
 1.580709
 1.460388
 1.231045
 0.9110811
 0.494253
 0.2173688
 0.1936201
 0.1832169
 0.1738012
 0.1652935
 0.154179
 0.1450137
 0.1377428
 0.1288656
 0.1258478
 0.1317641
 0.1490898
 0.2039544
 0.2823473
 0.3782671
 0.4901832
 0.6194601
 0.7707177
 0.9532084
 1.16055
 1.216862
 1.243953
 1.271348
 1.299037
 1.614667
 1.956736
 3.523725
 5.130169
 6.087717
 6.112074
 6.125061
 6.137389
 6.14915
 6.190695
 6.222
 6.252986
 6.203524
 6.013462
 5.6939
 5.261805
 5.199644
 5.167094
 5.134185
 5.100898
 4.867199
 4.619181
 3.961411
 2.220355
 0.948692
 0.8675574
 0.824404
 0.7816289
 0.7393638
 0.5733764
 0.4693919
 0.3904993
 0.3532172
 0.3165617
 0.2807091
 0.2458745
 0.2121666
 0.1796789
 0.1484964
 0.1186901
 0.09031873
 0.06342781
 0.03805033
 0.01420701
-0.008092594
-0.02884945
-0.05960853
-0.08640026
-0.1261909
-0.1538266
-0.1787297
-0.1433099
-0.04870839
 0.07475352
 0.3122164
 0.6077501
 0.9990203
 1.0475
 1.075413
 1.103722
 1.132422
 1.532379
 2.378885
 3.173528
 4.097064
 4.93688
 5.609858
 6.074243
 6.291803
 6.278611
 6.104197
 5.781833
 5.329099
 4.773621
 4.707484
 4.669756
 4.631359
 4.592889
 4.484106
 4.373546
 4.168037
 3.803428
 2.985587
 2.041814
 1.096338
 1.007276
 0.9615858
 0.9164966
 0.8717849
 0.7300563
 0.5933464
 0.3250099
 0.1440428
 0.08326134
 0.05500946
 0.02859972
 0.003764748
-0.01947539
-0.041125
-0.07295606
-0.1007624
-0.1430579
-0.1724831
-0.1994068
-0.1590927
-0.05306373
 0.08287611
 0.2368995
 0.4086877
 0.6127378
 0.861307
 1.163979
 1.214468
 1.242201
 1.270234
 1.298561
 1.792963
 2.752825
 3.579901
 3.665759
 3.71412
 3.762318
 3.809586
 3.85618
 3.902247
 3.94789
 3.993174
 4.038136
 4.082796
 4.156948
 4.230315
 4.378431
 4.522898
 4.811476
 5.22139
 5.508127
 5.558255
 5.587278
 5.615824
 5.643879
 5.716627
 5.785669
 5.920568
 6.091208
 6.21534
 6.311457
 6.287317
 6.145242
 5.892547
 5.540467
 5.103562
 5.042919
 5.007611
 4.97196
 4.935975
 4.195183
 3.570596
 2.913456
 2.148141
 1.366674
 1.274872
 1.226567
 1.178762
 1.131335
 0.9840799
 0.8411675
 0.5165352
 0.2996212
 0.2194731
 0.1843779
 0.1512263
 0.1194648
 0.08916659
 0.06038429
 0.03316228
 0.00752839
-0.01650034
-0.03891969
-0.05973542
-0.09698974
-0.1281277
-0.1722473
-0.2039073
-0.1889289
-0.1207702
 0.0520084
 0.2156423
 0.4065602
 0.6288252
 0.9047661
 1.243967
 1.290971
 1.319474
 1.348265
 1.377335
 1.691077
 2.19829
 3.110056
 4.167896
 5.125112
 5.837199
 5.87922
 5.901359
 5.923182
 5.944297
 5.990746
 6.034084
 6.074379
 6.144109
 6.201489
 6.269725
 6.301108
 6.277221
 6.1675
 5.97599
 5.709421
 5.375896
 4.985823
 4.922081
 4.885876
 4.849332
 4.812489
 4.581389
 4.340719
 3.717353
 3.059539
 2.292434
 2.190085
 2.133182
 2.076773
 2.020821
 1.965348
 1.911089
 1.857699
 1.804986
 1.752824
 1.701127
 1.649844
 1.598949
 1.548427
 1.450896
 1.354734
 1.165314
 0.9821498
 0.6168557
 0.1323894
-0.1090381
-0.1442292
-0.1697664
-0.1864294
-0.1952863
-0.1719401
-0.08124649
 0.04200633
 0.1833747
 0.340273
 0.5216313
 0.736409
 0.9984144
 1.0425
 1.068102
 1.094039
 1.120306
 2.110321
 2.687054
 3.384434
 3.4748
 3.525096
 3.575343
 3.625251
 3.674674
 3.722849
 3.770838
 3.817976
 3.864481
 3.910489
 3.956094
 4.001351
 4.046294
 4.090938
 4.172697
 4.2535
 4.414318
 4.570712
 4.883785
 5.328364
 5.628814
 5.680928
 5.73195
 5.771357
 5.809538
 6.003484
 6.21036
 6.309594
 6.298003
 6.177243
 5.953213
 5.635214
 5.235565
 5.179685
 5.145771
 5.111488
 5.076841
 3.784099
 2.16565
 0.558681
 0.4869746
 0.4469982
 0.4074991
 0.3685661
 0.330253
 0.29258
 0.2558698
 0.2202631
 0.1858602
 0.1527612
 0.1210482
 0.09079221
 0.06204912
 0.03486145
 0.00925842
-0.01474362
-0.03713963
-0.05793569
-0.09480086
-0.1256838
-0.1695882
-0.2016188
-0.1889553
-0.1243876
 0.04901711
 0.2095882
 0.3966437
 0.6132143
 0.8808485
 1.210165
 1.265168
 1.29341
 1.321946
 1.350765
 1.661212
 1.994602
 3.482373
 5.032689
 6.03513
 6.066085
 6.083036
 6.099326
 6.115057
 6.147138
 6.176341
 6.20259
 6.247517
 6.279582
 6.304566
 6.267076
 6.168198
 6.010624
 5.798173
 5.535963
 5.229533
 5.166714
 5.132905
 5.098716
 5.064174
 4.804031
 4.528131
 3.765685
 2.950287
 2.008423
 1.070175
 0.9892693
 0.9436943
 0.8987491
 0.8541752
 0.7201582
 0.590665
 0.3360831
 0.1623109
 0.1030502
 0.07372146
 0.04618776
 0.0202161
-0.004164974
-0.02695203
-0.04814481
-0.08243605
-0.1118095
-0.1549513
-0.1826583
-0.1996184
-0.1698103
-0.110567
-0.03388698
 0.140956
 0.346446
 0.5887226
 0.8963813
 1.285218
 1.339816
 1.36875
 1.397961
 1.427441
 1.89621
 2.678006
 3.355614
 3.443929
 3.499536
 3.554744
 3.609764
 3.664185
 3.71825
 3.770599
 3.822617
 3.873783
 3.924297
 3.974299
 4.023873
 4.07306
 4.121883
 4.204893
 4.286886
 4.455727
 4.619505
 4.951936
 5.415587
 5.721575
 5.824481
 5.919047
 6.004159
 6.079444
 6.215164
 6.293296
 6.31255
 6.231895
 6.024815
 5.701945
 5.278585
 5.218398
 5.184968
 5.151156
 5.116975
 4.74839
 4.349525
 2.968477
 1.42535
 0.1351953
-0.2097606
-0.1314538
-0.04177305
 0.05595782
 0.1597764
 0.2704418
 0.3883995
 0.517135
 0.6599706
 0.8297619
 1.025063
 1.078171
 1.10451
 1.131057
 1.157996
 1.273754
 1.394667
 1.646267
 2.173845
 2.744702
 3.437722
 3.532726
 3.583157
 3.633237
 3.682861
 3.731319
 3.779627
 3.827022
 3.873751
 3.919958
 3.965744
 4.011171
 4.056273
 4.101071
 4.177652
 4.253388
 4.405602
 4.553894
 4.851243
 5.269604
 5.552346
 5.602169
 5.630653
 5.658651
 5.686148
 5.76557
 5.840254
 5.981435
 6.157835
 6.272529
 6.324242
 6.231571
 6.00106
 5.645415
 5.18264
 5.121379
 5.086444
 5.051145
 5.01549
 4.576731
 3.776337
 2.917239
 1.932158
</dep>
<dep _net2.Vt time>
 3.
 3.
 3.
 2.828239
 2.478539
 2.304955
 2.295642
 2.287124
 2.28174
 2.276915
 2.272664
 2.26696
 2.262786
 2.259019
 2.269136
 2.301021
 2.339399
 2.441325
 2.589833
 2.780238
 2.80218
 2.8146
 2.827102
 2.839685
 2.966754
 3.381217
 3.53887
 3.796991
 3.840661
