<Qucs Dataset>
default plugins: ignored
Gnucap   System status
iterations: op=0, dc=0, tran=2602, fourier=0, total=3024
transient timesteps: accepted=395, rejected=27, total=422
transient timesteps: accepted=0, rejected=0, total=0
nodes: user=9, subckt=4, model=4, total=17
dctran density=54.3%, ac density=54.3%

<indep time 395>
 0.
 10.E-6
 20.E-6
 36.33333E-6
 52.66667E-6
 52.77003E-6
 52.83512E-6
 52.87785E-6
 52.92059E-6
 53.06636E-6
 53.21213E-6
 53.443E-6
 53.67387E-6
 54.08947E-6
 54.50507E-6
 55.1603E-6
 56.19631E-6
 57.23232E-6
 59.53175E-6
 63.55085E-6
 70.69932E-6
 82.61343E-6
 94.52754E-6
 106.4417E-6
 106.4919E-6
 106.5422E-6
 106.5925E-6
 106.6427E-6
 106.693E-6
 106.9533E-6
 107.2136E-6
 107.8013E-6
 109.0103E-6
 111.5415E-6
 116.83E-6
 126.5351E-6
 141.5949E-6
 156.6546E-6
 156.719E-6
 156.7834E-6
 156.8334E-6
 156.8835E-6
 156.9335E-6
 157.38E-6
 157.8266E-6
 159.1007E-6
 162.3349E-6
 173.3568E-6
 184.3787E-6
 195.4006E-6
 206.4225E-6
 206.4683E-6
 206.514E-6
 206.5598E-6
 206.6056E-6
 206.6513E-6
 206.8916E-6
 207.1318E-6
 207.6768E-6
 208.8006E-6
 211.1624E-6
 216.062E-6
 225.1776E-6
 240.078E-6
 254.9785E-6
 255.0501E-6
 255.1217E-6
 255.1665E-6
 255.2113E-6
 255.2854E-6
 255.5486E-6
 255.8117E-6
 256.4549E-6
 257.7995E-6
 260.9849E-6
 265.9117E-6
 275.204E-6
 284.4962E-6
 300.0506E-6
 300.1437E-6
 300.1957E-6
 300.2321E-6
 300.2684E-6
 301.3144E-6
 301.8547E-6
 302.3951E-6
 302.9355E-6
 303.4758E-6
 304.0162E-6
 304.5565E-6
 305.0969E-6
 306.2807E-6
 307.4645E-6
 309.8362E-6
 313.9444E-6
 321.4834E-6
 333.5998E-6
 345.7162E-6
 351.1469E-6
 351.1889E-6
 351.2309E-6
 351.273E-6
 351.3007E-6
 351.3605E-6
 351.4993E-6
 351.6382E-6
 351.8645E-6
 352.0909E-6
 352.3173E-6
 352.5437E-6
 352.7701E-6
 352.9965E-6
 353.2228E-6
 353.4492E-6
 353.6756E-6
 354.0836E-6
 354.4917E-6
 355.1464E-6
 356.1881E-6
 357.2299E-6
 359.5504E-6
 363.4795E-6
 370.7127E-6
 382.3662E-6
 394.0196E-6
 405.6731E-6
 405.7241E-6
 405.7751E-6
 405.8261E-6
 405.8771E-6
 405.9281E-6
 406.4609E-6
 407.3415E-6
 409.2595E-6
 415.3496E-6
 421.4397E-6
 434.0171E-6
 446.5945E-6
 446.6528E-6
 446.6949E-6
 446.8946E-6
 446.9406E-6
 446.9866E-6
 447.0326E-6
 447.1769E-6
 447.2399E-6
 447.303E-6
 447.3661E-6
 447.413E-6
 447.46E-6
 447.5976E-6
 447.7353E-6
 447.8729E-6
 448.0106E-6
 448.1482E-6
 448.2859E-6
 448.4235E-6
 448.5612E-6
 448.6988E-6
 448.8365E-6
 448.9741E-6
 449.0827E-6
 449.1912E-6
 449.2997E-6
 449.4645E-6
 449.8107E-6
 450.157E-6
 451.1441E-6
 452.1313E-6
 453.1184E-6
 454.1056E-6
 455.0927E-6
 456.7193E-6
 458.3459E-6
 459.9725E-6
 464.1915E-6
 472.1886E-6
 485.3839E-6
 498.5792E-6
 498.6488E-6
 498.6964E-6
 498.7327E-6
 498.7689E-6
 498.8052E-6
 498.8415E-6
 499.016E-6
 499.1905E-6
 499.365E-6
 499.5395E-6
 499.714E-6
 500.0129E-6
 500.3117E-6
 501.0038E-6
 501.6959E-6
 502.388E-6
 503.0801E-6
 503.7722E-6
 504.4643E-6
 505.7156E-6
 506.967E-6
 508.2183E-6
 510.8623E-6
 515.9575E-6
 525.266E-6
 539.2288E-6
 553.1915E-6
 553.2688E-6
 553.346E-6
 553.3864E-6
 553.4267E-6
 553.5364E-6
 553.8693E-6
 554.2023E-6
 554.5352E-6
 555.6745E-6
 556.8138E-6
 558.5518E-6
 561.5548E-6
 566.9677E-6
 576.5907E-6
 586.2136E-6
 601.539E-6
 601.598E-6
 601.657E-6
 601.6946E-6
 601.7322E-6
 601.8162E-6
 601.9936E-6
 602.171E-6
 602.3483E-6
 602.5257E-6
 602.7031E-6
 602.8804E-6
 603.0578E-6
 603.3253E-6
 603.5928E-6
 603.8602E-6
 604.6462E-6
 605.4322E-6
 606.7652E-6
 608.0982E-6
 610.7284E-6
 615.7191E-6
 624.4528E-6
 637.8652E-6
 651.2776E-6
 651.3358E-6
 651.394E-6
 651.4308E-6
 651.4675E-6
 651.5503E-6
 651.7374E-6
 651.9245E-6
 652.1117E-6
 652.2988E-6
 652.486E-6
 652.6731E-6
 652.8602E-6
 653.0474E-6
 653.2345E-6
 653.4216E-6
 653.7171E-6
 654.0126E-6
 654.4878E-6
 654.9631E-6
 655.9603E-6
 656.9575E-6
 659.0366E-6
 662.6638E-6
 668.9108E-6
 679.5911E-6
 690.2714E-6
 700.9517E-6
 701.024E-6
 701.0563E-6
 701.0886E-6
 701.121E-6
 701.2216E-6
 701.4295E-6
 701.6374E-6
 701.8454E-6
 702.0533E-6
 702.2612E-6
 702.4691E-6
 702.677E-6
 702.885E-6
 703.0929E-6
 703.3008E-6
 703.5087E-6
 703.8328E-6
 704.5296E-6
 705.2265E-6
 707.6427E-6
 709.2944E-6
 712.2608E-6
 718.0156E-6
 728.4594E-6
 738.9033E-6
 749.3472E-6
 749.4347E-6
 749.4811E-6
 749.5108E-6
 749.5406E-6
 749.6814E-6
 749.8221E-6
 750.6789E-6
 751.5357E-6
 752.3925E-6
 753.2492E-6
 754.106E-6
 754.9628E-6
 755.8196E-6
 757.231E-6
 758.6425E-6
 761.9041E-6
 767.8565E-6
 777.9496E-6
 788.0428E-6
 803.1826E-6
 803.2589E-6
 803.3351E-6
 803.3749E-6
 803.4147E-6
 803.5226E-6
 803.8661E-6
 804.2095E-6
 804.553E-6
 805.6152E-6
 806.6775E-6
 808.3733E-6
 811.2767E-6
 816.3773E-6
 825.5585E-6
 838.9771E-6
 852.3956E-6
 852.4766E-6
 852.515E-6
 852.5534E-6
 852.5918E-6
 852.6842E-6
 852.8645E-6
 853.0449E-6
 853.2252E-6
 853.4055E-6
 853.6941E-6
 853.9826E-6
 854.4583E-6
 854.9339E-6
 855.9483E-6
 856.9628E-6
 859.0062E-6
 862.531E-6
 868.7796E-6
 879.7146E-6
 890.6497E-6
 901.5847E-6
 901.6515E-6
 901.7183E-6
 901.7522E-6
 901.786E-6
 901.8799E-6
 902.0586E-6
 902.2373E-6
 902.416E-6
 902.5948E-6
 902.7735E-6
 902.9522E-6
 903.1309E-6
 903.4E-6
 903.6691E-6
 903.9382E-6
 904.4574E-6
 904.9767E-6
 906.0325E-6
 907.0883E-6
 909.153E-6
 912.7869E-6
 919.0164E-6
 929.1394E-6
 939.2623E-6
 954.4467E-6
 954.5132E-6
 954.5797E-6
 954.6218E-6
 954.664E-6
 954.7342E-6
 955.0281E-6
 955.3221E-6
 956.1059E-6
 959.0322E-6
 961.9584E-6
 967.3929E-6
 975.5447E-6
 987.7724E-6
 0.001
</indep>
<dep Output.Vt time>
 0.
 30.83413E-6
 61.96399E-6
 111.617E-6
-13.546E-12
-661.5762E-9
-1.052303E-6
-1.426241E-6
-1.929157E-6
-5.319051E-6
-13.87758E-6
-47.72486E-6
-94.05253E-6
-136.6564E-6
-150.6194E-6
-159.6054E-6
-166.48E-6
-171.09E-6
-179.2509E-6
-191.7285E-6
-212.49E-6
-245.1041E-6
-265.6852E-6
-219.442E-12
 299.6943E-6
 299.979E-6
 300.247E-6
 300.5209E-6
 300.7786E-6
 302.0758E-6
 303.2615E-6
 305.6868E-6
 309.9366E-6
 317.4197E-6
 330.9195E-6
 353.0796E-6
 379.8721E-6
 76.46589E-9
-403.5005E-6
-403.7009E-6
-404.1003E-6
-404.2122E-6
-404.6007E-6
-406.4669E-6
-408.3366E-6
-412.2021E-6
-419.8617E-6
-438.2575E-6
-452.4457E-6
-426.7928E-6
 6.561934E-9
 464.9962E-6
 465.428E-6
 465.5227E-6
 465.9398E-6
 466.0205E-6
 467.3742E-6
 468.255E-6
 470.3987E-6
 473.2327E-6
 477.4974E-6
 482.5784E-6
 488.6769E-6
 489.9515E-6
 137.1544E-9
-467.4304E-6
-468.8197E-6
-469.7824E-6
-470.4927E-6
-471.8396E-6
-475.3621E-6
-478.19E-6
-482.5133E-6
-487.2168E-6
-490.6446E-6
-491.403E-6
-488.3547E-6
-482.2264E-6
 67.78201E-9
-67.2614E-9
 67.76006E-9
-67.22538E-9
 67.72059E-9
-67.08377E-9
 70.51646E-9
 63.57781E-9
 6.261654E-6
 155.9531E-6
 374.8684E-6
 424.9618E-6
 440.8233E-6
 452.1313E-6
 455.5069E-6
 456.6012E-6
 454.0269E-6
 445.4411E-6
 427.3415E-6
 356.8881E-6
 66.86372E-9
-67.38569E-9
 66.79838E-9
-67.37463E-9
 66.73166E-9
-67.37536E-9
 66.56119E-9
-67.80506E-9
 64.26121E-9
-79.65694E-9
 3.59993E-9
-387.8389E-9
-1.558914E-6
-8.073205E-6
-36.00395E-6
-118.2832E-6
-226.7774E-6
-324.6878E-6
-354.6416E-6
-370.8398E-6
-378.0991E-6
-379.998E-6
-378.8413E-6
-373.0576E-6
-358.8661E-6
-332.9106E-6
-296.4033E-6
-66.9728E-9
 266.6737E-6
 266.7992E-6
 266.9599E-6
 267.0591E-6
 267.1954E-6
 267.7932E-6
 267.5317E-6
 264.6026E-6
 250.386E-6
 234.2839E-6
 198.931E-6
-5.609029E-9
 5.318855E-9
 24.13356E-6
 6.940146E-6
 5.089325E-6
 3.677192E-6
 2.700859E-6
-19.5882E-9
 634.8559E-9
 372.4851E-9
 268.1887E-9
 158.2925E-9
 145.8945E-9
 27.50888E-9
 36.52973E-9
-13.04424E-9
 21.52813E-9
-18.58355E-9
 19.49167E-9
-19.31171E-9
 19.22843E-9
-19.39558E-9
 19.19434E-9
-19.39523E-9
 19.20005E-9
-19.38701E-9
 19.20057E-9
-19.37893E-9
 19.20602E-9
-19.37263E-9
 19.18902E-9
-25.50461E-9
-6.679716E-6
-117.2905E-6
-130.4214E-6
-130.1018E-6
-126.4627E-6
-122.2297E-6
-110.0391E-6
-86.00974E-6
-45.22554E-6
-18.52077E-9
 18.53086E-9
-18.51881E-9
 18.5258E-9
-18.51406E-9
 18.52051E-9
-18.50917E-9
 18.51654E-9
-18.50939E-9
 18.51386E-9
-18.50934E-9
 18.51115E-9
-18.50974E-9
 18.50811E-9
-18.51267E-9
 18.49144E-9
-20.47622E-9
-327.7892E-9
-7.799878E-6
-12.52334E-6
-17.13381E-6
-21.24788E-6
-25.20833E-6
-33.55079E-6
-49.41699E-6
-78.20136E-6
-119.9625E-6
 18.48214E-9
 19.56713E-6
 30.17426E-6
 36.9229E-6
 44.5265E-6
 67.17161E-6
 120.4654E-6
 141.8068E-6
 151.2721E-6
 163.4858E-6
 169.3891E-6
 175.9224E-6
 185.6984E-6
 201.7563E-6
 228.9583E-6
 254.2793E-6
 19.31567E-9
-20.0316E-9
 18.8975E-9
-20.29561E-9
 18.58652E-9
-21.04025E-9
 14.70296E-9
-36.17515E-9
-39.75473E-9
-231.6013E-9
-738.0065E-9
-2.701531E-6
-9.228518E-6
-49.64525E-6
-144.5505E-6
-218.5911E-6
-278.2788E-6
-291.6598E-6
-301.1624E-6
-306.7897E-6
-315.1529E-6
-328.1964E-6
-348.5391E-6
-375.2636E-6
 19.5744E-9
-18.9645E-9
 19.66974E-9
-18.89737E-9
 19.73145E-9
-18.73332E-9
 20.60723E-9
-15.16021E-9
 34.23211E-9
 37.34878E-9
 236.5152E-9
 812.8106E-9
 3.18247E-6
 11.68831E-6
 39.88383E-6
 108.4992E-6
 251.3011E-6
 326.8276E-6
 369.3849E-6
 384.9819E-6
 398.4243E-6
 404.616E-6
 412.1256E-6
 420.4204E-6
 431.5379E-6
 446.7977E-6
 456.6653E-6
-18.95716E-9
 18.3584E-9
-18.96505E-9
 18.33651E-9
-18.96399E-9
 18.29659E-9
-19.1094E-9
 17.7097E-9
-21.54857E-9
 7.037131E-9
-69.22139E-9
-206.2177E-9
-1.018413E-6
-4.379468E-6
-18.63111E-6
-68.62754E-6
-178.104E-6
-336.5764E-6
-431.6031E-6
-452.5547E-6
-470.1932E-6
-474.3616E-6
-478.8218E-6
-484.2425E-6
-489.9686E-6
-490.7636E-6
-19.25022E-9
 19.81181E-9
-19.24725E-9
 19.7993E-9
-19.23789E-9
 19.78813E-9
-19.24156E-9
 19.80002E-9
-18.85935E-9
 155.2E-9
 53.0697E-6
 412.2945E-6
 465.3165E-6
 478.2396E-6
 485.65E-6
 488.6953E-6
 491.0262E-6
 491.0787E-6
 486.8915E-6
 478.4936E-6
-16.86657E-9
-53.10749E-6
-81.73735E-6
-100.2181E-6
-120.9688E-6
-183.8602E-6
-341.2072E-6
-401.0089E-6
-424.7981E-6
-447.6897E-6
-453.6777E-6
-456.4256E-6
-456.0279E-6
-451.588E-6
-439.8819E-6
-417.0221E-6
-19.04672E-9
 217.9769E-9
 242.059E-9
 363.9027E-9
 434.0453E-9
 899.0662E-9
 3.157117E-6
 11.21474E-6
 36.52468E-6
 97.82627E-6
 234.1025E-6
 310.4488E-6
 353.1556E-6
 367.4469E-6
 377.1907E-6
 379.7589E-6
 379.4008E-6
 374.6598E-6
 362.8576E-6
 339.1325E-6
 310.9919E-6
 19.70531E-9
-20.52321E-9
 19.08172E-9
-20.92099E-9
 18.67753E-9
-22.08926E-9
 12.62652E-9
-45.61459E-9
-72.56245E-9
-352.9507E-9
-1.174878E-6
-4.246763E-6
-14.31654E-6
-68.317E-6
-160.315E-6
-216.2573E-6
-251.8221E-6
-261.9282E-6
-267.3921E-6
-267.6984E-6
-264.8321E-6
-256.7465E-6
-240.8168E-6
-212.9328E-6
-183.1346E-6
-20.08595E-9
 126.6094E-6
 127.3152E-6
 127.8077E-6
 128.1272E-6
 128.7515E-6
 130.2116E-6
 130.9733E-6
 130.8993E-6
 124.7657E-6
 116.5578E-6
 100.5541E-6
 75.6649E-6
 37.8431E-6
-1.502121E-9
</dep>
<dep _net0.Vt time>
 0.
 0.7834813
 0.8130509
 0.7989295
-0.5003059
-0.5194533
-0.531501
-0.5393969
-0.5472776
-0.5739908
-0.600174
-0.6386549
-0.6692228
-0.7021489
-0.720073
-0.7370759
-0.7533938
-0.7643846
-0.7808812
-0.7985441
-0.8138887
-0.8087279
-0.742879
 1.181341
 0.7569031
 0.7574589
 0.7580187
 0.7585569
 0.7590994
 0.7617452
 0.7642164
 0.7692198
 0.7777473
 0.7908882
 0.8075525
 0.8159476
 0.7737315
-1.218188
-0.7593693
-0.7600406
-0.7605508
-0.7610567
-0.7615524
-0.7657055
-0.7694215
-0.7783094
-0.7941446
-0.8159053
-0.8046633
-0.7231205
 1.178035
 0.7566356
 0.757145
 0.7576602
 0.7581547
 0.7586553
 0.7611341
 0.7634605
 0.7682151
 0.776406
 0.7892094
 0.8057725
 0.816242
 0.7830627
-0.9232412
-0.7347531
-0.7362861
-0.7371978
-0.7381005
-0.7395216
-0.7441562
-0.7482141
-0.7564825
-0.7692061
-0.7883962
-0.8054001
-0.8162422
-0.8043569
 0.009508341
 0.02711539
 0.03685663
 0.04378154
 0.05055881
 0.2475078
 0.3487804
 0.4497949
 0.5499789
 0.6436155
 0.6978287
 0.7217753
 0.7357578
 0.7544344
 0.7664368
 0.7825945
 0.7998308
 0.8146748
 0.8065775
 0.7116584
-0.2160339
-0.2238602
-0.2318305
-0.2396537
-0.2449325
-0.2560955
-0.2822325
-0.3082027
-0.3506892
-0.3929592
-0.4352937
-0.4773881
-0.519497
-0.5611859
-0.6020956
-0.639573
-0.6694363
-0.701812
-0.719624
-0.7367873
-0.7532937
-0.7643607
-0.7809893
-0.7983031
-0.813904
-0.80922
-0.7505874
 1.046886
 0.7469172
 0.7476796
 0.7484251
 0.7491545
 0.7498684
 0.7565483
 0.7653653
 0.7792783
 0.8039486
 0.8146347
 0.8055769
 0.637026
 0.6263032
 0.6162971
 0.5810808
 0.5727269
 0.5643352
 0.5558972
 0.5293667
 0.5176036
 0.5059097
 0.4941911
 0.4854762
 0.4767452
 0.4511218
 0.4254503
 0.3997558
 0.3740206
 0.3482674
 0.3224779
 0.2966745
 0.2708386
 0.2449927
 0.2191183
 0.1932376
 0.1728164
 0.1523974
 0.1319611
 0.1009291
 0.0356758
-0.02958418
-0.2154776
-0.4005316
-0.5834306
-0.7030337
-0.7356742
-0.7593731
-0.7733116
-0.7833334
-0.8006091
-0.8152432
-0.8018903
-0.2674623
-0.2543914
-0.2454516
-0.2386395
-0.2318151
-0.2250006
-0.2181737
-0.1853617
-0.1525161
-0.1196635
-0.08678523
-0.05390774
 0.002428165
 0.05875204
 0.1890918
 0.3190629
 0.4484386
 0.5764835
 0.6792289
 0.7186654
 0.7467889
 0.761882
 0.772394
 0.7878203
 0.8055143
 0.8162382
 0.7873865
-0.5975691
-0.6100716
-0.6231685
-0.6297574
-0.6361463
-0.6522101
-0.6875683
-0.7079559
-0.7210771
-0.7461587
-0.7603522
-0.7747441
-0.7909473
-0.8078513
-0.8159266
-0.799322
 0.2896483
 0.3007193
 0.3117761
 0.3188295
 0.325871
 0.3416125
 0.3748004
 0.4079516
 0.4410406
 0.4740802
 0.5070339
 0.5398747
 0.572429
 0.6197082
 0.6596219
 0.6868447
 0.7245355
 0.7421855
 0.7598523
 0.7715086
 0.7871811
 0.8049149
 0.8162092
 0.793355
-0.2405582
-0.2514904
-0.2624293
-0.2693272
-0.2762337
-0.2917525
-0.326844
-0.3618802
-0.3968761
-0.4318062
-0.4666828
-0.5014705
-0.5361441
-0.5705281
-0.6041108
-0.6353512
-0.6738346
-0.6976158
-0.7194859
-0.7328053
-0.7503118
-0.7617891
-0.7779105
-0.7954013
-0.8114827
-0.8135564
-0.7819977
 0.1792851
 0.1928748
 0.1989627
 0.2050399
 0.211126
 0.2300386
 0.2690992
 0.308104
 0.347066
 0.3859588
 0.4247947
 0.4635446
 0.502209
 0.5407058
 0.5788094
 0.6155642
 0.648352
 0.6845885
 0.7208926
 0.7383936
 0.7679375
 0.7794877
 0.7938546
 0.809946
 0.8147249
 0.7889114
 0.1230242
 0.106537
 0.09779391
 0.09218758
 0.08659051
 0.060056
 0.03352639
-0.127937
-0.2890201
-0.4492719
-0.6066813
-0.7030594
-0.7327985
-0.7483309
-0.7643724
-0.7753582
-0.7924182
-0.8096489
-0.8151417
-0.7926367
 0.5959257
 0.6083542
 0.6213491
 0.6279036
 0.6342712
 0.6502956
 0.6873071
 0.7083009
 0.7216564
 0.7452299
 0.7589312
 0.7735052
 0.7897258
 0.806525
 0.8162073
 0.7885718
-0.4498598
-0.4649465
-0.4720849
-0.4792293
-0.4863607
-0.5035441
-0.5369373
-0.5700762
-0.6024693
-0.6328152
-0.6714169
-0.6957049
-0.7184529
-0.7321245
-0.7501471
-0.7618413
-0.7777194
-0.7949007
-0.8112712
-0.8134088
-0.7798206
 0.2982144
 0.3107495
 0.3232694
 0.3296092
 0.3359379
 0.3535242
 0.3869505
 0.420337
 0.4536587
 0.486925
 0.520092
 0.5531024
 0.585684
 0.6319481
 0.6686925
 0.6926918
 0.7184243
 0.7331189
 0.7512846
 0.7630485
 0.7786314
 0.7958584
 0.811649
 0.8140633
 0.7872257
-0.8273241
-0.7203491
-0.7225021
-0.7238078
-0.7250562
-0.7270466
-0.7342741
-0.7402106
-0.7522446
-0.7778833
-0.7926412
-0.8087412
-0.816209
-0.7937246
 12.42618E-6
</dep>
<dep _net1.Vt time>
 0.
 0.7834815
 0.8130513
 0.7989298
-0.5003059
-0.5194533
-0.531501
-0.5393969
-0.5472776
-0.5739908
-0.600174
-0.6386549
-0.6692228
-0.7021489
-0.720073
-0.7370759
-0.7533939
-0.7643847
-0.7808814
-0.7985444
-0.8138891
-0.8087283
-0.742879
 1.181341
 0.7569032
 0.7574589
 0.7580188
 0.758557
 0.7590995
 0.7617454
 0.7642165
 0.76922
 0.7777475
 0.7908884
 0.8075529
 0.815948
 0.7737317
-1.218188
-0.7593694
-0.7600407
-0.7605509
-0.7610568
-0.7615525
-0.7657056
-0.7694216
-0.7783096
-0.7941448
-0.8159057
-0.8046636
-0.7231205
 1.178035
 0.7566357
 0.757145
 0.7576603
 0.7581548
 0.7586554
 0.7611342
 0.7634606
 0.7682152
 0.7764062
 0.7892097
 0.8057728
 0.8162424
 0.7830629
-0.9232412
-0.7347531
-0.7362862
-0.7371979
-0.7381005
-0.7395216
-0.7441562
-0.7482142
-0.7564826
-0.7692062
-0.7883964
-0.8054004
-0.8162427
-0.8043573
 0.009508341
 0.02711539
 0.03685663
 0.04378154
 0.05055881
 0.2475078
 0.3487804
 0.4497949
 0.5499789
 0.6436155
 0.6978287
 0.7217753
 0.7357579
 0.7544345
 0.7664369
 0.7825947
 0.7998311
 0.8146752
 0.8065778
 0.7116584
-0.2160339
-0.2238602
-0.2318305
-0.2396537
-0.2449325
-0.2560955
-0.2822325
-0.3082027
-0.3506892
-0.3929592
-0.4352937
-0.4773881
-0.519497
-0.5611859
-0.6020956
-0.639573
-0.6694363
-0.7018121
-0.719624
-0.7367873
-0.7532938
-0.7643609
-0.7809894
-0.7983034
-0.8139044
-0.8092204
-0.7505875
 1.046886
 0.7469173
 0.7476797
 0.7484252
 0.7491546
 0.7498685
 0.7565484
 0.7653654
 0.7792785
 0.8039489
 0.8146351
 0.8055773
 0.637026
 0.6263032
 0.6162971
 0.5810808
 0.5727269
 0.5643352
 0.5558972
 0.5293667
 0.5176036
 0.5059097
 0.4941911
 0.4854762
 0.4767452
 0.4511218
 0.4254503
 0.3997558
 0.3740206
 0.3482674
 0.3224779
 0.2966745
 0.2708386
 0.2449927
 0.2191183
 0.1932376
 0.1728164
 0.1523974
 0.1319611
 0.1009291
 0.0356758
-0.02958418
-0.2154776
-0.4005316
-0.5834306
-0.7030337
-0.7356743
-0.7593732
-0.7733118
-0.7833335
-0.8006094
-0.8152436
-0.8018906
-0.2674623
-0.2543914
-0.2454516
-0.2386395
-0.2318151
-0.2250006
-0.2181737
-0.1853617
-0.1525161
-0.1196635
-0.08678523
-0.05390774
 0.002428165
 0.05875204
 0.1890918
 0.3190629
 0.4484386
 0.5764835
 0.6792289
 0.7186654
 0.746789
 0.7618821
 0.7723941
 0.7878205
 0.8055146
 0.8162386
 0.7873867
-0.5975691
-0.6100716
-0.6231685
-0.6297574
-0.6361463
-0.6522101
-0.6875683
-0.707956
-0.7210771
-0.7461588
-0.7603523
-0.7747442
-0.7909475
-0.8078517
-0.815927
-0.7993223
 0.2896483
 0.3007193
 0.3117761
 0.3188295
 0.325871
 0.3416125
 0.3748004
 0.4079516
 0.4410406
 0.4740802
 0.5070339
 0.5398747
 0.572429
 0.6197082
 0.659622
 0.6868447
 0.7245356
 0.7421856
 0.7598524
 0.7715087
 0.7871813
 0.8049153
 0.8162096
 0.7933553
-0.2405582
-0.2514904
-0.2624293
-0.2693272
-0.2762337
-0.2917525
-0.326844
-0.3618802
-0.3968761
-0.4318062
-0.4666828
-0.5014705
-0.5361441
-0.5705281
-0.6041108
-0.6353512
-0.6738346
-0.6976158
-0.7194859
-0.7328053
-0.7503119
-0.7617892
-0.7779107
-0.7954016
-0.8114831
-0.8135568
-0.7819978
 0.1792851
 0.1928748
 0.1989627
 0.2050399
 0.211126
 0.2300386
 0.2690992
 0.308104
 0.347066
 0.3859588
 0.4247947
 0.4635446
 0.502209
 0.5407058
 0.5788094
 0.6155642
 0.648352
 0.6845885
 0.7208926
 0.7383937
 0.7679376
 0.7794879
 0.7938549
 0.8099463
 0.8147253
 0.7889116
 0.1230242
 0.106537
 0.09779391
 0.09218758
 0.08659051
 0.060056
 0.03352639
-0.127937
-0.2890201
-0.4492719
-0.6066813
-0.7030594
-0.7327985
-0.748331
-0.7643725
-0.7753583
-0.7924184
-0.8096493
-0.8151421
-0.7926369
 0.5959257
 0.6083542
 0.6213491
 0.6279036
 0.6342712
 0.6502956
 0.6873071
 0.7083009
 0.7216565
 0.74523
 0.7589313
 0.7735054
 0.7897261
 0.8065254
 0.8162078
 0.788572
-0.4498598
-0.4649465
-0.4720849
-0.4792293
-0.4863607
-0.5035441
-0.5369373
-0.5700762
-0.6024693
-0.6328152
-0.6714169
-0.6957049
-0.718453
-0.7321246
-0.7501472
-0.7618414
-0.7777196
-0.794901
-0.8112716
-0.8134092
-0.7798208
 0.2982144
 0.3107495
 0.3232694
 0.3296092
 0.3359379
 0.3535242
 0.3869505
 0.420337
 0.4536587
 0.486925
 0.520092
 0.5531024
 0.585684
 0.6319481
 0.6686925
 0.6926918
 0.7184243
 0.733119
 0.7512846
 0.7630486
 0.7786316
 0.7958586
 0.8116494
 0.8140637
 0.7872259
-0.8273241
-0.7203491
-0.7225022
-0.7238079
-0.7250562
-0.7270467
-0.7342741
-0.7402107
-0.7522446
-0.7778835
-0.7926414
-0.8087416
-0.8162095
-0.7937248
 12.42617E-6
</dep>
<dep _net2.Vt time>
 0.
-0.7834813
-0.8130509
-0.7989295
 0.5003059
 0.5194533
 0.531501
 0.5393969
 0.5472776
 0.5739908
 0.600174
 0.6386549
 0.6692228
 0.7021489
 0.720073
 0.7370759
 0.7533938
 0.7643846
 0.7808812
 0.7985441
 0.8138887
 0.8087279
 0.742879
-1.181341
-0.7569031
-0.7574589
-0.7580187
-0.7585569
-0.7590994
-0.7617452
-0.7642164
-0.7692198
-0.7777473
-0.7908882
-0.8075525
-0.8159476
-0.7737315
 1.218188
 0.7593693
 0.7600406
 0.7605508
 0.7610567
 0.7615524
 0.7657055
 0.7694215
 0.7783094
 0.7941446
 0.8159053
 0.8046633
 0.7231205
-1.178035
-0.7566356
-0.757145
-0.7576602
-0.7581547
-0.7586553
-0.7611341
-0.7634605
-0.7682151
-0.776406
-0.7892094
-0.8057725
-0.816242
-0.7830627
 0.9232412
 0.7347531
 0.7362861
 0.7371978
 0.7381005
 0.7395216
 0.7441562
 0.7482141
 0.7564825
