<Qucs Dataset>
default plugins: ignored
clear: already installed, replacing
stashing as clear:0
;: already installed, replacing
stashing as ;:0
*: already installed, replacing
stashing as *:0
': already installed, replacing
stashing as ':0
": already installed, replacing
stashing as ":0
T: already installed, replacing
stashing as T:0
tline: already installed, replacing
stashing as tline:0
Gnucap   System status
iterations: op=0, dc=0, tran=2355, fourier=0, total=2747
transient timesteps: accepted=364, rejected=28, total=392
transient timesteps: accepted=0, rejected=0, total=0
nodes: user=9, subckt=4, model=4, total=17
dctran density=54.3%, ac density=54.3%

<indep time 364>
 0.
 10.E-6
 20.E-6
 36.33333E-6
 52.66667E-6
 52.76949E-6
 52.83458E-6
 52.87731E-6
 52.92004E-6
 53.06494E-6
 53.20985E-6
 53.44021E-6
 53.67057E-6
 54.08273E-6
 54.4949E-6
 55.14339E-6
 56.17942E-6
 57.21545E-6
 59.49822E-6
 63.4834E-6
 70.57822E-6
 82.49388E-6
 94.40955E-6
 106.3252E-6
 106.3757E-6
 106.4261E-6
 106.4766E-6
 106.527E-6
 106.5775E-6
 106.8397E-6
 107.102E-6
 107.696E-6
 108.9234E-6
 111.4988E-6
 116.9497E-6
 126.6536E-6
 141.7112E-6
 156.7689E-6
 156.8325E-6
 156.8961E-6
 156.9467E-6
 156.9972E-6
 157.0477E-6
 157.6634E-6
 158.6615E-6
 160.9354E-6
 167.0155E-6
 177.9759E-6
 188.9362E-6
 199.8965E-6
 199.9366E-6
 199.9768E-6
 200.008E-6
 200.0391E-6
 200.5549E-6
 201.6986E-6
 202.4454E-6
 203.1922E-6
 203.9389E-6
 204.6857E-6
 206.0314E-6
 207.3771E-6
 208.7228E-6
 211.8753E-6
 217.8916E-6
 228.4606E-6
 239.0296E-6
 249.5987E-6
 249.6325E-6
 249.6664E-6
 249.7003E-6
 249.7342E-6
 249.9184E-6
 250.8298E-6
 251.7412E-6
 252.6526E-6
 253.564E-6
 254.4754E-6
 255.3868E-6
 256.2982E-6
 258.3028E-6
 260.3074E-6
 264.9018E-6
 273.2552E-6
 286.4687E-6
 299.6823E-6
 299.7638E-6
 299.8145E-6
 299.8493E-6
 299.8841E-6
 300.1622E-6
 300.4402E-6
 301.7309E-6
 302.5235E-6
 303.3161E-6
 304.1087E-6
 304.9013E-6
 305.6939E-6
 307.0909E-6
 308.4879E-6
 311.6311E-6
 317.4157E-6
 327.4537E-6
 337.4917E-6
 352.8989E-6
 352.9803E-6
 353.0074E-6
 353.0345E-6
 353.0616E-6
 353.1386E-6
 353.3058E-6
 353.473E-6
 353.7573E-6
 354.4544E-6
 355.1515E-6
 356.411E-6
 357.6705E-6
 359.9322E-6
 364.1993E-6
 371.8596E-6
 384.4224E-6
 396.9852E-6
 397.045E-6
 397.0882E-6
 397.2491E-6
 397.2893E-6
 397.3295E-6
 397.3697E-6
 397.5013E-6
 397.6329E-6
 397.7644E-6
 397.896E-6
 398.0276E-6
 398.1592E-6
 398.2907E-6
 398.4223E-6
 398.5539E-6
 398.6855E-6
 398.8171E-6
 398.9486E-6
 399.0802E-6
 399.2118E-6
 399.4209E-6
 399.63E-6
 399.9666E-6
 400.9888E-6
 401.6427E-6
 402.2966E-6
 402.9506E-6
 403.6045E-6
 404.2585E-6
 404.9124E-6
 405.5664E-6
 407.1686E-6
 408.7709E-6
 412.0738E-6
 418.0125E-6
 428.2228E-6
 438.4331E-6
 454.0322E-6
 454.1031E-6
 454.1395E-6
 454.1759E-6
 454.2122E-6
 454.2753E-6
 454.579E-6
 455.1238E-6
 456.0934E-6
 457.7026E-6
 460.2249E-6
 464.5431E-6
 472.1925E-6
 484.7593E-6
 497.3262E-6
 497.3875E-6
 497.4312E-6
 497.7815E-6
 497.813E-6
 497.8444E-6
 497.8924E-6
 497.9404E-6
 497.9711E-6
 498.1164E-6
 498.1649E-6
 498.2133E-6
 498.2618E-6
 498.3102E-6
 498.3587E-6
 498.4988E-6
 498.5455E-6
 498.5922E-6
 498.6389E-6
 498.6856E-6
 498.7323E-6
 498.8733E-6
 499.0142E-6
 499.117E-6
 499.2198E-6
 499.3227E-6
 499.4975E-6
 499.8661E-6
 500.2347E-6
 501.731E-6
 502.6837E-6
 503.6364E-6
 504.5891E-6
 505.5418E-6
 506.4945E-6
 508.3639E-6
 510.2332E-6
 515.0348E-6
 523.543E-6
 536.7779E-6
 550.0128E-6
 550.1005E-6
 550.1524E-6
 550.1876E-6
 550.2227E-6
 551.4221E-6
 552.0358E-6
 552.6494E-6
 553.2631E-6
 553.8767E-6
 554.4904E-6
 555.5717E-6
 556.6531E-6
 557.7344E-6
 560.2331E-6
 564.9114E-6
 573.2785E-6
 586.2095E-6
 599.1404E-6
 599.2148E-6
 599.2634E-6
 599.2973E-6
 599.3311E-6
 599.4255E-6
 599.5199E-6
 599.9933E-6
 600.4667E-6
 601.2563E-6
 602.0458E-6
 602.8354E-6
 603.625E-6
 604.4146E-6
 605.2042E-6
 605.9938E-6
 607.6776E-6
 609.3614E-6
 613.3072E-6
 620.338E-6
 632.2024E-6
 644.0669E-6
 655.9313E-6
 655.9826E-6
 656.0339E-6
 656.0853E-6
 656.1366E-6
 656.1879E-6
 656.4544E-6
 656.7209E-6
 657.3285E-6
 658.593E-6
 661.2395E-6
 667.2888E-6
 677.0745E-6
 691.7529E-6
 706.4313E-6
 706.4945E-6
 706.5576E-6
 706.607E-6
 706.6564E-6
 706.7058E-6
 707.4559E-6
 708.7446E-6
 712.0172E-6
 719.2167E-6
 730.4481E-6
 741.6794E-6
 752.9107E-6
 752.9701E-6
 753.0296E-6
 753.0668E-6
 753.104E-6
 753.1874E-6
 753.3776E-6
 753.5677E-6
 753.903E-6
 754.2383E-6
 754.7471E-6
 756.774E-6
 758.1482E-6
 760.4515E-6
 764.6541E-6
 772.499E-6
 785.8814E-6
 799.2638E-6
 799.3394E-6
 799.389E-6
 799.4237E-6
 799.4584E-6
 799.5788E-6
 799.6993E-6
 800.2799E-6
 800.8604E-6
 801.9197E-6
 802.7626E-6
 803.6055E-6
 804.4484E-6
 805.2913E-6
 806.1342E-6
 807.9292E-6
 809.7243E-6
 813.9526E-6
 821.3945E-6
 833.3016E-6
 845.2086E-6
 857.1156E-6
 857.1638E-6
 857.2119E-6
 857.2601E-6
 857.3083E-6
 857.3564E-6
 857.5978E-6
 857.8391E-6
 858.3696E-6
 859.4345E-6
 861.597E-6
 865.791E-6
 874.1791E-6
 889.9067E-6
 905.6343E-6
 905.7071E-6
 905.78E-6
 905.8268E-6
 905.8737E-6
 905.9483E-6
 906.2201E-6
 906.492E-6
 907.1368E-6
 908.4827E-6
 911.2559E-6
 916.1862E-6
 926.6629E-6
 937.1396E-6
 952.8547E-6
 952.9427E-6
 953.0122E-6
 953.0522E-6
 953.0922E-6
 953.2049E-6
 953.3177E-6
 953.6419E-6
 953.966E-6
 954.4558E-6
 954.9455E-6
 956.1632E-6
 957.3809E-6
 959.5118E-6
 963.1926E-6
 969.3271E-6
 979.5514E-6
 989.7757E-6
 0.001
</indep>
<dep Output.Vt time>
 0.
 30.83413E-6
 61.96399E-6
 111.617E-6
-14.45E-12
-659.0335E-9
-1.048236E-6
-1.420747E-6
-1.921755E-6
-5.267952E-6
-13.68032E-6
-47.16667E-6
-93.4803E-6
-136.2962E-6
-150.402E-6
-159.4487E-6
-166.3937E-6
-171.0226E-6
-179.1408E-6
-191.5264E-6
-212.1464E-6
-244.7909E-6
-266.1966E-6
-224.607E-12
 299.0258E-6
 299.3255E-6
 299.608E-6
 299.8953E-6
 300.1661E-6
 301.5259E-6
 302.7615E-6
 305.2756E-6
 309.6528E-6
 317.3021E-6
 331.2094E-6
 353.335E-6
 379.933E-6
 74.96109E-9
-404.0943E-6
-404.2768E-6
-404.6635E-6
-404.7687E-6
-405.1455E-6
-407.5914E-6
-411.0764E-6
-416.7412E-6
-428.4482E-6
-444.678E-6
-456.2291E-6
-10.25528E-9
 10.76263E-9
-10.24917E-9
 10.75889E-9
-10.2448E-9
 10.76827E-9
-9.250959E-9
 200.1619E-9
 35.67939E-6
 365.4106E-6
 438.449E-6
 462.1462E-6
 469.2069E-6
 473.2202E-6
 478.2781E-6
 484.2173E-6
 489.9004E-6
 490.7721E-6
-7.731157E-9
 7.180057E-9
-7.726674E-9
 7.182983E-9
-7.725963E-9
 7.18614E-9
-7.752374E-9
 5.809483E-9
-885.3035E-9
-220.9424E-6
-446.598E-6
-473.3877E-6
-481.6251E-6
-488.2083E-6
-490.2399E-6
-491.487E-6
-489.2306E-6
-480.3364E-6
-7.446671E-9
 7.959031E-9
-7.442961E-9
 7.955335E-9
-7.438959E-9
 7.952423E-9
-7.433647E-9
 9.167568E-9
 321.1554E-9
 73.77074E-6
 389.0876E-6
 436.7144E-6
 448.3064E-6
 454.8779E-6
 456.3912E-6
 455.9117E-6
 450.3405E-6
 437.2154E-6
 420.0595E-6
 9.959345E-9
-7.172712E-6
-8.636531E-6
-10.43759E-6
-12.54159E-6
-21.03334E-6
-58.73617E-6
-129.9956E-6
-256.9192E-6
-352.9474E-6
-370.9244E-6
-378.7207E-6
-380.1513E-6
-378.3836E-6
-371.7937E-6
-356.4392E-6
-327.9297E-6
-12.8782E-9
 13.3915E-9
-3.359534E-6
-1.053651E-6
-812.5756E-9
-586.3975E-9
-462.189E-9
-161.0519E-9
-80.44984E-9
-12.72672E-9
-22.97115E-9
 9.514671E-9
-14.37053E-9
 12.80387E-9
-13.12155E-9
 13.26008E-9
-12.95165E-9
 13.30637E-9
-12.93732E-9
 13.29644E-9
-12.94174E-9
 13.28295E-9
-12.95188E-9
 13.27254E-9
-12.93272E-9
 13.68975E-9
 26.17022E-9
 4.193762E-6
 139.787E-6
 243.6901E-6
 261.0908E-6
 266.1818E-6
 267.5763E-6
 265.6001E-6
 258.3835E-6
 243.5437E-6
 215.4542E-6
 185.7878E-6
-13.58121E-9
-117.2207E-6
-118.4549E-6
-119.7708E-6
-120.741E-6
-122.4855E-6
-127.2787E-6
-130.6047E-6
-130.878E-6
-128.1118E-6
-121.4323E-6
-109.1006E-6
-85.8964E-6
-47.27064E-6
-28.46513E-9
 28.4763E-9
-36.08874E-9
 28.45105E-9
-28.82078E-9
 28.06494E-9
-28.5907E-9
 28.20908E-9
-28.44941E-9
 28.34059E-9
-28.33638E-9
 28.29349E-9
-28.29642E-9
 28.27742E-9
-28.26534E-9
 28.26885E-9
-28.24621E-9
 28.24433E-9
-28.22358E-9
 28.2224E-9
-28.20235E-9
 28.208E-9
-28.19697E-9
 28.1998E-9
-28.19003E-9
 28.19164E-9
-28.18558E-9
 28.18699E-9
-28.18675E-9
 28.1658E-9
-46.83351E-9
-5.966188E-6
-13.14631E-6
-16.46252E-6
-19.8075E-6
-25.58408E-6
-31.66363E-6
-46.46247E-6
-72.99255E-6
-112.8233E-6
-28.22628E-9
 28.38994E-9
-28.21713E-9
 28.37871E-9
-28.20217E-9
 28.44122E-9
-24.82523E-9
 306.8247E-9
 18.92414E-6
 121.1275E-6
 150.3647E-6
 162.773E-6
 168.7204E-6
 172.9551E-6
 181.5891E-6
 195.7021E-6
 219.8224E-6
 254.2311E-6
-26.53043E-9
 26.18294E-9
-26.51381E-9
 26.16963E-9
-26.49117E-9
 26.15985E-9
-26.48037E-9
 26.16198E-9
-26.48216E-9
 26.09547E-9
-33.22335E-9
-1.922132E-6
-156.1764E-6
-270.1573E-6
-289.0464E-6
-296.4587E-6
-305.2952E-6
-310.9657E-6
-322.217E-6
-339.1238E-6
-364.9587E-6
-377.0619E-6
-25.76388E-9
 398.5067E-6
 399.0611E-6
 399.318E-6
 399.8453E-6
 400.0764E-6
 401.9828E-6
 403.3691E-6
 406.3941E-6
 410.7277E-6
 417.5574E-6
 428.7659E-6
 443.6217E-6
 456.26E-6
 68.11326E-9
-465.2248E-6
-465.6001E-6
-465.8578E-6
-466.1371E-6
-466.3793E-6
-469.5773E-6
-473.1823E-6
-478.5434E-6
-485.0949E-6
-490.6343E-6
-488.1585E-6
-26.71012E-9
 8.393607E-6
 12.60458E-6
 16.32927E-6
 20.92824E-6
 36.21843E-6
 107.4993E-6
 223.241E-6
 372.0152E-6
 428.3396E-6
 458.9683E-6
 484.0711E-6
 487.8435E-6
 490.4254E-6
 491.3979E-6
 489.6359E-6
 480.8452E-6
 28.38866E-9
-28.93273E-9
 28.38571E-9
-28.91892E-9
 28.37582E-9
-28.90622E-9
 28.37988E-9
-28.90048E-9
 28.35566E-9
-33.28226E-9
-1.793844E-6
-232.3836E-6
-419.3948E-6
-443.9458E-6
-451.3981E-6
-456.0805E-6
-456.626E-6
-454.0139E-6
-445.5618E-6
-427.8474E-6
-380.6792E-6
-28.10719E-9
 379.917E-6
 379.9182E-6
 379.9781E-6
 379.9723E-6
 380.0256E-6
 380.0599E-6
 380.0909E-6
 379.8785E-6
 379.0349E-6
 376.1109E-6
 368.785E-6
 351.5129E-6
 313.3091E-6
 81.54279E-9
-266.7019E-6
-266.7314E-6
-267.0431E-6
-266.9696E-6
-267.3183E-6
-267.5368E-6
-267.9124E-6
-267.5856E-6
-266.1053E-6
-260.2714E-6
-248.3228E-6
-219.8197E-6
-189.7489E-6
 38.83422E-9
 1.978018E-6
 3.289929E-6
 4.261841E-6
 5.645483E-6
 11.70605E-6
 22.75735E-6
 76.75672E-6
 110.4359E-6
 125.8517E-6
 129.868E-6
 130.9296E-6
 128.7071E-6
 123.5102E-6
 112.9498E-6
 94.73828E-6
 63.29296E-6
 31.59535E-6
 38.53465E-9
</dep>
<dep _net0.Vt time>
 0.
 0.7834813
 0.8130509
 0.7989295
-0.5003056
-0.5193535
-0.5314004
-0.5392964
-0.5471773
-0.5737333
-0.5997706
-0.6382276
-0.6688572
-0.7017724
-0.7197276
-0.7367306
-0.7531823
-0.7642307
-0.7806876
-0.798317
-0.8137529
-0.8089683
-0.7448334
 1.161134
 0.7555666
 0.7561465
 0.7567295
 0.7572903
 0.7578545
 0.7606127
 0.7631798
 0.7683725
 0.7771974
 0.7907032
 0.8078135
 0.8158997
 0.7729053
-1.237851
-0.7605422
-0.761183
-0.7616823
-0.7621763
-0.7626618
-0.7681089
-0.7754848
-0.7881643
-0.8079539
-0.8151225
-0.7887599
-0.01951227
-0.01193943
-0.004377081
 0.001504169
 0.007374846
 0.1045795
 0.3195699
 0.4591296
 0.5966351
 0.6927437
 0.7256847
 0.7512699
 0.7656795
 0.775893
 0.7923001
 0.8097146
 0.8147243
 0.7883273
 0.07564217
 0.06926404
 0.06287497
 0.05649624
 0.05010664
 0.01537537
-0.1563537
-0.3275595
-0.4976794
-0.655919
-0.7190576
-0.7413849
-0.754644
-0.7730038
-0.7850908
-0.8027142
-0.8158615
-0.7984781
-0.05989303
-0.04451534
-0.03495973
-0.02839564
-0.02184217
 0.03057263
 0.08296734
 0.3256318
 0.4736687
 0.6181633
 0.7032029
 0.7313458
 0.7464571
 0.7630723
 0.7743056
 0.7912738
 0.8087871
 0.8154828
 0.7948141
-0.5434065
-0.5582533
-0.5632207
-0.5681865
-0.5731276
-0.587062
-0.6164089
-0.6431661
-0.6778163
-0.7183174
-0.7368967
-0.7559755
-0.7681657
-0.7831167
-0.8006328
-0.8149942
-0.8045501
-0.5648897
-0.5538066
-0.5456639
-0.5159156
-0.5084625
-0.5009942
-0.4935296
-0.4690563
-0.4445527
-0.4200069
-0.3954403
-0.3708372
-0.3462177
-0.3215654
-0.2969001
-0.2722055
-0.2475013
-0.2227711
-0.1980348
-0.1732759
-0.1485142
-0.109129
-0.06973401
-0.006301313
 0.1862551
 0.3090952
 0.4314028
 0.5528031
 0.6610943
 0.7105418
 0.7316138
 0.7444434
 0.7637999
 0.7762091
 0.7931104
 0.8099398
 0.8149272
 0.7909988
-0.7519408
-0.7029019
-0.7048352
-0.7066755
-0.7084272
-0.7112804
-0.7224825
-0.7363269
-0.7520838
-0.7684278
-0.7846658
-0.8016742
-0.8152465
-0.8036547
-0.501637
-0.4902464
-0.4820856
-0.4168347
-0.4109493
-0.4050742
-0.3961034
-0.3871398
-0.3814059
-0.3542211
-0.3451454
-0.3360775
-0.3269956
-0.3179215
-0.3088336
-0.2825551
-0.2737834
-0.2650202
-0.2562439
-0.2474762
-0.2386955
-0.2122125
-0.1857021
-0.166358
-0.1469961
-0.127639
-0.09469252
-0.02524173
 0.04423343
 0.3256332
 0.5034415
 0.6649428
 0.7228008
 0.7440411
 0.7569297
 0.7734383
 0.7847091
 0.8030882
 0.8159784
 0.7974189
-0.002416765
-0.01894356
-0.02872916
-0.03536098
-0.04198147
-0.2677145
-0.3826899
-0.4970858
-0.6090888
-0.688148
-0.7195733
-0.7445308
-0.758671
-0.7686856
-0.7847082
-0.8027416
-0.8158717
-0.7993354
-0.1619419
-0.1479582
-0.1387868
-0.1324231
-0.1260472
-0.108271
-0.09047946
-0.001268832
 0.08795454
 0.23655
 0.3845747
 0.5315577
 0.6635964
 0.7168712
 0.7379568
 0.750766
 0.7682248
 0.779886
 0.7977154
 0.8134718
 0.8095372
 0.7499373
-1.092322
-0.7506184
-0.7513007
-0.7519811
-0.7526369
-0.7532913
-0.7564718
-0.7593927
-0.765248
-0.7750257
-0.7895586
-0.8085285
-0.815701
-0.7726044
 1.179599
 0.7569277
 0.7576331
 0.7581729
 0.758707
 0.7592304
 0.7663648
 0.7760364
 0.7928816
 0.8119553
 0.8124456
 0.7731307
-0.5456026
-0.5563964
-0.5672809
-0.5740714
-0.5808229
-0.5957987
-0.6283379
-0.6564053
-0.6901454
-0.7096338
-0.7273978
-0.7599426
-0.7718799
-0.7858195
-0.802002
-0.8154527
-0.8003827
-0.138723
-0.1244822
-0.1151511
-0.1086093
-0.1020729
-0.07937694
-0.05668238
 0.05275159
 0.1621094
 0.3609789
 0.5180737
 0.6612142
 0.7181011
 0.7396359
 0.7526083
 0.7702256
 0.7819726
 0.7998587
 0.8145925
 0.8072605
 0.7285801
-1.297021
-0.7637581
-0.7641954
-0.7646397
-0.7650664
-0.7654999
-0.7675629
-0.7695239
-0.7734768
-0.7803183
-0.7911271
-0.8050987
-0.8161612
-0.7839789
 1.040079
 0.7466549
 0.7477564
 0.7484305
 0.7491106
 0.7501424
 0.7536943
 0.7568961
 0.7635079
 0.7742668
 0.7896352
 0.8060699
 0.8158983
 0.7961259
-0.5351675
-0.5513963
-0.5640505
-0.5714585
-0.578626
-0.5989501
-0.6183801
-0.6656186
-0.6945863
-0.7183745
-0.7323909
-0.7529803
-0.7657105
-0.7807671
-0.7973158
-0.8121204
-0.8136033
-0.7846631
 51.94285E-6
</dep>
<dep _net1.Vt time>
 0.
 0.7834815
 0.8130513
 0.7989298
-0.5003056
-0.5193535
-0.5314004
-0.5392964
-0.5471773
-0.5737333
-0.5997706
-0.6382276
-0.6688572
-0.7017724
-0.7197276
-0.7367307
-0.7531823
-0.7642308
-0.7806877
-0.7983173
-0.8137534
-0.8089687
-0.7448334
 1.161134
 0.7555667
 0.7561466
 0.7567296
 0.7572904
 0.7578546
 0.7606128
 0.7631799
 0.7683727
 0.7771975
 0.7907035
 0.8078139
 0.8159002
 0.7729054
-1.237851
-0.7605423
-0.7611831
-0.7616824
-0.7621764
-0.7626619
-0.768109
-0.775485
-0.7881645
-0.8079543
-0.8151229
-0.7887601
-0.01951227
-0.01193943
-0.004377081
 0.001504169
 0.007374846
 0.1045795
 0.3195699
 0.4591296
 0.5966351
 0.6927437
 0.7256847
 0.7512699
 0.7656796
 0.7758932
 0.7923004
 0.809715
 0.8147247
 0.7883276
 0.07564217
 0.06926404
 0.06287497
 0.05649624
 0.05010664
 0.01537537
-0.1563537
-0.3275595
-0.4976794
-0.655919
-0.7190577
-0.741385
-0.7546441
-0.7730039
-0.785091
-0.8027145
-0.8158619
-0.7984783
-0.05989303
-0.04451534
-0.03495973
-0.02839564
-0.02184217
 0.03057263
 0.08296734
 0.3256318
 0.4736687
 0.6181633
 0.7032029
 0.7313459
 0.7464572
 0.7630724
 0.7743057
 0.791274
 0.8087875
 0.8154832
 0.7948144
-0.5434065
-0.5582533
-0.5632207
-0.5681865
-0.5731276
-0.587062
-0.6164089
-0.6431661
-0.6778163
-0.7183174
-0.7368968
-0.7559756
-0.7681658
-0.7831169
-0.8006331
-0.8149946
-0.8045505
-0.5648897
-0.5538066
-0.5456639
-0.5159156
-0.5084625
-0.5009942
-0.4935296
-0.4690563
-0.4445527
-0.4200069
-0.3954403
-0.3708372
-0.3462177
-0.3215654
-0.2969001
-0.2722055
-0.2475013
-0.2227711
-0.1980348
-0.1732759
-0.1485142
-0.109129
-0.06973401
-0.006301313
 0.1862551
 0.3090952
 0.4314028
 0.5528031
 0.6610943
 0.7105419
 0.7316138
 0.7444435
 0.7638
 0.7762093
 0.7931106
 0.8099402
 0.8149277
 0.790999
-0.7519408
-0.7029019
-0.7048352
-0.7066756
-0.7084272
-0.7112804
-0.7224825
-0.7363269
-0.7520839
-0.7684279
-0.784666
-0.8016745
-0.8152469
-0.803655
-0.501637
-0.4902464
-0.4820856
-0.4168347
-0.4109493
-0.4050742
-0.3961034
-0.3871398
-0.3814059
-0.3542211
-0.3451454
-0.3360775
-0.3269956
-0.3179215
-0.3088336
-0.2825551
-0.2737834
-0.2650202
-0.2562439
-0.2474762
-0.2386955
-0.2122125
-0.1857021
-0.166358
-0.1469961
-0.127639
-0.09469252
-0.02524173
 0.04423343
 0.3256332
 0.5034415
 0.6649428
 0.7228008
 0.7440411
 0.7569298
 0.7734384
 0.7847093
 0.8030885
 0.8159788
 0.7974192
-0.002416765
-0.01894356
-0.02872916
-0.03536098
-0.04198147
-0.2677145
-0.3826899
-0.4970858
-0.6090888
-0.688148
-0.7195734
-0.7445308
-0.7586711
-0.7686857
-0.7847084
-0.802742
-0.8158721
-0.7993357
-0.1619419
-0.1479582
-0.1387868
-0.1324231
-0.1260472
-0.108271
-0.09047946
-0.001268832
 0.08795454
 0.23655
 0.3845747
 0.5315577
 0.6635965
 0.7168713
 0.7379568
 0.750766
 0.7682249
 0.7798862
 0.7977157
 0.8134722
 0.8095376
 0.7499374
-1.092322
-0.7506184
-0.7513008
-0.7519811
-0.7526369
-0.7532914
-0.7564718
-0.7593928
-0.7652482
-0.7750258
-0.7895588
-0.8085289
-0.8157014
-0.7726046
 1.179599
 0.7569278
 0.7576332
 0.758173
 0.758707
 0.7592305
 0.7663649
 0.7760365
 0.7928818
 0.8119557
 0.812446
 0.7731308
-0.5456026
-0.5563964
-0.5672809
-0.5740714
-0.5808229
-0.5957987
-0.6283379
-0.6564053
-0.6901454
-0.7096339
-0.7273979
-0.7599426
-0.77188
-0.7858198
-0.8020023
-0.8154531
-0.800383
-0.138723
-0.1244822
-0.1151511
-0.1086093
-0.1020729
-0.07937694
-0.05668238
 0.05275159
 0.1621094
 0.3609789
 0.5180737
 0.6612142
 0.7181011
 0.7396359
 0.7526084
 0.7702257
 0.7819728
 0.799859
 0.8145929
 0.8072608
 0.7285802
-1.297021
-0.7637582
-0.7641955
-0.7646398
-0.7650665
-0.7655
-0.7675631
-0.7695241
-0.773477
-0.7803185
-0.7911273
-0.805099
-0.8161616
-0.7839791
 1.040079
 0.7466549
 0.7477564
 0.7484305
 0.7491106
 0.7501424
 0.7536944
 0.7568962
 0.763508
 0.7742669
 0.7896355
 0.8060702
 0.8158988
 0.7961261
-0.5351675
-0.5513963
-0.5640505
-0.5714585
-0.578626
-0.5989501
-0.6183801
-0.6656186
-0.6945863
-0.7183746
-0.7323909
-0.7529804
-0.7657107
-0.7807673
-0.7973161
-0.8121208
-0.8136037
-0.7846633
 51.94284E-6
</dep>
<dep _net2.Vt time>
 0.
-0.7834813
-0.8130509
-0.7989295
 0.5003056
 0.5193535
 0.5314004
 0.5392964
 0.5471773
 0.5737333
 0.5997706
 0.6382276
 0.6688572
 0.7017724
 0.7197276
 0.7367306
 0.7531823
 0.7642307
 0.7806876
 0.798317
 0.8137529
 0.8089683
 0.7448334
-1.161134
-0.7555666
-0.7561465
-0.7567295
-0.7572903
-0.7578545
-0.7606127
-0.7631798
-0.7683725
-0.7771974
-0.7907032
-0.8078135
-0.8158997
-0.7729053
 1.237851
 0.7605422
 0.761183
 0.7616823
 0.7621763
 0.7626618
 0.7681089
 0.7754848
 0.7881643
 0.8079539
 0.8151225
 0.7887599
 0.01951227
 0.01193943
 0.004377081
-0.001504169
-0.007374846
-0.1045795
-0.3195699
-0.4591296
-0.5966351
-0.6927437
-0.7256847
-0.7512699
-0.7656795
-0.775893
-0.7923002
-0.8097146
-0.8147243
-0.7883273
-0.07564217
-0.06926404
-0.06287497
-0.05649624
-0.05010664
-0.01537537
 0.1563537
 0.3275595
 0.4976794
 0.655919
 0.7190576
 0.7413849
 0.754644
 0.7730038
 0.7850908
 0.8027142
 0.8158615
 0.7984781
 0.05989303
 0.04451534
 0.03495973
 0.02839564
 0.02184217
-0.03057263
-0.08296734
-0.3256318
-0.4736687
-0.6181633
-0.7032029
-0.7313458
-0.7464571
-0.7630723
-0.7743056
-0.7912738
-0.8087871
-0.8154828
-0.7948141
 0.5434065
 0.5582533
 0.5632207
 0.5681865
 0.5731276
 0.587062
 0.6164089
 0.6431661
 0.6778163
 0.7183174
 0.7368967
 0.7559755
 0.7681657
 0.7831167
 0.8006328
 0.8149942
 0.8045501
 0.5648897
 0.5538066
 0.5456639
 0.5159156
 0.5084625
 0.5009942
 0.4935296
 0.4690563
 0.4445527
 0.4200069
 0.3954403
 0.3708372
 0.3462177
 0.3215654
 0.2969001
 0.2722055
 0.2475013
 0.2227711
 0.1980348
 0.1732759
 0.1485142
 0.109129
 0.06973401
 0.006301313
-0.1862551
-0.3090952
-0.4314028
-0.5528031
-0.6610943
-0.7105418
-0.7316138
-0.7444434
-0.7637999
-0.7762091
-0.7931104
-0.8099398
-0.8149272
-0.7909988
 0.7519408
 0.7029019
 0.7048352
 0.7066755
 0.7084272
 0.7112804
 0.7224825
