<Qucs Dataset>
default plugins: ignored
Gnucap   System status
iterations: op=0, dc=0, tran=2270, fourier=0, total=2654
transient timesteps: accepted=360, rejected=24, total=384
transient timesteps: accepted=0, rejected=0, total=0
nodes: user=9, subckt=4, model=4, total=17
dctran density=54.3%, ac density=54.3%

<indep time 360>
 0.
 10.E-6
 20.E-6
 36.33333E-6
 52.66667E-6
 52.77003E-6
 52.83512E-6
 52.87785E-6
 52.92058E-6
 53.06635E-6
 53.21213E-6
 53.44299E-6
 53.67386E-6
 54.08946E-6
 54.50507E-6
 55.16029E-6
 56.1963E-6
 57.23231E-6
 59.53174E-6
 63.55084E-6
 70.69931E-6
 82.61342E-6
 94.52753E-6
 106.4416E-6
 106.4919E-6
 106.5422E-6
 106.5925E-6
 106.6427E-6
 106.693E-6
 106.9533E-6
 107.2136E-6
 107.8013E-6
 109.0103E-6
 111.5415E-6
 116.8299E-6
 126.5351E-6
 141.5948E-6
 156.6546E-6
 156.719E-6
 156.7834E-6
 156.8334E-6
 156.8834E-6
 156.9335E-6
 157.38E-6
 157.8266E-6
 159.1006E-6
 162.3349E-6
 173.3568E-6
 184.3787E-6
 195.4006E-6
 206.4225E-6
 206.4683E-6
 206.514E-6
 206.5598E-6
 206.6055E-6
 206.6513E-6
 206.8916E-6
 207.1318E-6
 207.6767E-6
 208.8006E-6
 211.1624E-6
 216.062E-6
 225.1776E-6
 240.078E-6
 254.9784E-6
 255.0501E-6
 255.1217E-6
 255.1665E-6
 255.2113E-6
 255.2854E-6
 255.5486E-6
 255.8117E-6
 256.4549E-6
 257.7995E-6
 260.9849E-6
 265.9117E-6
 275.2039E-6
 284.4962E-6
 300.0506E-6
 300.1436E-6
 300.1957E-6
 300.232E-6
 300.2684E-6
 301.3143E-6
 301.8547E-6
 302.3951E-6
 302.9354E-6
 303.4758E-6
 304.0161E-6
 304.5565E-6
 305.0969E-6
 306.2807E-6
 307.4645E-6
 309.8362E-6
 313.9443E-6
 321.4834E-6
 333.5998E-6
 345.7161E-6
 351.1469E-6
 351.189E-6
 351.231E-6
 351.273E-6
 351.3007E-6
 351.3605E-6
 351.4994E-6
 351.6382E-6
 351.8646E-6
 352.091E-6
 352.3174E-6
 352.5437E-6
 352.7701E-6
 352.9965E-6
 353.2229E-6
 353.4493E-6
 353.6757E-6
 354.0837E-6
 354.4917E-6
 355.1464E-6
 356.1882E-6
 357.2299E-6
 359.5504E-6
 363.4795E-6
 370.7127E-6
 382.3662E-6
 394.0197E-6
 405.6731E-6
 405.7241E-6
 405.7751E-6
 405.8261E-6
 405.8771E-6
 405.9281E-6
 406.4605E-6
 407.3411E-6
 409.2529E-6
 415.3431E-6
 421.4332E-6
 434.0108E-6
 446.5883E-6
 446.6465E-6
 446.6887E-6
 446.8883E-6
 446.9343E-6
 446.9803E-6
 447.0264E-6
 447.1713E-6
 447.2346E-6
 447.2978E-6
 447.3611E-6
 447.4081E-6
 447.4551E-6
 447.5928E-6
 447.7306E-6
 447.8683E-6
 448.006E-6
 448.1437E-6
 448.2815E-6
 448.4192E-6
 448.5569E-6
 448.6946E-6
 448.8324E-6
 448.9701E-6
 449.0778E-6
 449.1855E-6
 449.2932E-6
 449.4562E-6
 449.7997E-6
 450.1431E-6
 451.052E-6
 451.9608E-6
 452.8697E-6
 453.7785E-6
 454.6874E-6
 455.5962E-6
 456.5051E-6
 458.1877E-6
 460.8179E-6
 465.857E-6
 474.7594E-6
 488.2271E-6
 501.6948E-6
 501.7928E-6
 501.8538E-6
 501.8913E-6
 501.9287E-6
 502.0572E-6
 502.1856E-6
 502.398E-6
 502.6104E-6
 502.8227E-6
 503.0351E-6
 503.2475E-6
 503.4599E-6
 503.6722E-6
 504.0911E-6
 504.5099E-6
 505.1777E-6
 506.2107E-6
 507.2438E-6
 509.5572E-6
 513.5772E-6
 520.7305E-6
 532.7122E-6
 544.694E-6
 556.6757E-6
 556.7257E-6
 556.7757E-6
 556.8228E-6
 556.8699E-6
 556.9169E-6
 557.1639E-6
 557.4109E-6
 557.9634E-6
 559.0998E-6
 561.4702E-6
 566.2892E-6
 575.5171E-6
 590.6772E-6
 605.8373E-6
 605.9058E-6
 605.9742E-6
 606.0214E-6
 606.0686E-6
 606.1158E-6
 606.4095E-6
 606.7032E-6
 607.392E-6
 608.9138E-6
 612.6384E-6
 619.0944E-6
 630.9977E-6
 642.901E-6
 654.8043E-6
 654.8596E-6
 654.9149E-6
 654.9702E-6
 655.0086E-6
 655.0695E-6
 655.2938E-6
 655.5181E-6
 656.0067E-6
 657.0335E-6
 658.9712E-6
 664.851E-6
 670.7308E-6
 682.4904E-6
 694.25E-6
 706.0097E-6
 706.0603E-6
 706.1109E-6
 706.1615E-6
 706.2121E-6
 706.2626E-6
 706.4857E-6
 706.7087E-6
 707.1765E-6
 708.0775E-6
 709.8361E-6
 713.1713E-6
 719.6901E-6
 734.4433E-6
 749.1964E-6
 749.2712E-6
 749.3223E-6
 749.3593E-6
 749.3963E-6
 749.5066E-6
 749.6169E-6
 750.1167E-6
 750.6165E-6
 751.5575E-6
 752.2992E-6
 753.0408E-6
 753.7824E-6
 754.524E-6
 755.7894E-6
 757.0547E-6
 758.32E-6
 761.0355E-6
 766.5928E-6
 775.57E-6
 789.5969E-6
 803.6238E-6
 803.6987E-6
 803.7735E-6
 803.8147E-6
 803.8559E-6
 803.9492E-6
 804.1043E-6
 804.2594E-6
 804.604E-6
 805.1575E-6
 806.5394E-6
 807.9213E-6
 810.7459E-6
 815.252E-6
 823.6496E-6
 836.2461E-6
 848.8425E-6
 848.9142E-6
 848.9616E-6
 848.9945E-6
 849.0275E-6
 849.0802E-6
 849.1329E-6
 849.2793E-6
 849.4999E-6
 849.7206E-6
 849.9413E-6
 850.3202E-6
 851.033E-6
 851.7458E-6
 852.4585E-6
 853.1713E-6
 853.884E-6
 854.5968E-6
 856.1274E-6
 857.6579E-6
 859.1885E-6
 862.4632E-6
 868.443E-6
 880.4028E-6
 892.3625E-6
 904.3222E-6
 904.3798E-6
 904.4373E-6
 904.4796E-6
 904.5219E-6
 904.5642E-6
 904.7135E-6
 904.8629E-6
 905.1402E-6
 905.6369E-6
 906.5188E-6
 908.1881E-6
 910.8884E-6
 917.2535E-6
 923.6187E-6
 936.3489E-6
 949.0791E-6
 949.154E-6
 949.2017E-6
 949.2351E-6
 949.2685E-6
 949.3524E-6
 949.4362E-6
 949.7372E-6
 950.0382E-6
 950.6627E-6
 951.5936E-6
 952.5245E-6
 953.4554E-6
 954.3863E-6
 955.3172E-6
 956.2481E-6
 960.2255E-6
 962.7114E-6
 968.0383E-6
 976.0288E-6
 988.0144E-6
 0.001
</indep>
<dep Output.Vt time>
 0.
 30.83413E-6
 61.96399E-6
 111.617E-6
-13.538E-12
-661.5672E-9
-1.05228E-6
-1.426201E-6
-1.929089E-6
-5.31887E-6
-13.87714E-6
-47.72386E-6
-94.05167E-6
-136.656E-6
-150.6193E-6
-159.6054E-6
-166.48E-6
-171.09E-6
-179.2508E-6
-191.7284E-6
-212.4899E-6
-245.104E-6
-265.6853E-6
-219.484E-12
 299.6942E-6
 299.9789E-6
 300.247E-6
 300.5208E-6
 300.7786E-6
 302.0757E-6
 303.2615E-6
 305.6868E-6
 309.9366E-6
 317.4197E-6
 330.9195E-6
 353.0795E-6
 379.8721E-6
 76.46612E-9
-403.5004E-6
-403.7009E-6
-404.1002E-6
-404.2121E-6
-404.6006E-6
-406.4668E-6
-408.3365E-6
-412.202E-6
-419.8617E-6
-438.2574E-6
-452.4457E-6
-426.7936E-6
 6.564741E-9
 464.9961E-6
 465.4279E-6
 465.5226E-6
 465.9397E-6
 466.0204E-6
 467.3741E-6
 468.2549E-6
 470.3986E-6
 473.2326E-6
 477.4974E-6
 482.5784E-6
 488.6769E-6
 489.9515E-6
 137.1575E-9
-467.4299E-6
-468.8193E-6
-469.7819E-6
-470.4922E-6
-471.8392E-6
-475.3618E-6
-478.1897E-6
-482.5132E-6
-487.2167E-6
-490.6446E-6
-491.403E-6
-488.3547E-6
-482.2265E-6
 67.78129E-9
-67.261E-9
 67.76012E-9
-67.22498E-9
 67.7206E-9
-67.08373E-9
 70.51544E-9
 63.54401E-9
 6.260045E-6
 155.9306E-6
 374.8615E-6
 424.9599E-6
 440.8226E-6
 452.1311E-6
 455.5069E-6
 456.6012E-6
 454.027E-6
 445.4412E-6
 427.3416E-6
 356.8915E-6
 66.86321E-9
-67.38507E-9
 66.79828E-9
-67.37386E-9
 66.73199E-9
-67.37427E-9
 66.56195E-9
-67.80333E-9
 64.26092E-9
-79.66149E-9
 3.577211E-9
-387.9458E-9
-1.559448E-6
-8.075703E-6
-36.01375E-6
-118.3041E-6
-226.7946E-6
-324.6927E-6
-354.6433E-6
-370.8403E-6
-378.0993E-6
-379.998E-6
-378.8413E-6
-373.0576E-6
-358.866E-6
-332.9105E-6
-296.4031E-6
-66.97256E-9
 266.6738E-6
 266.7993E-6
 266.96E-6
 267.0592E-6
 267.1955E-6
 267.793E-6
 267.5321E-6
 264.6153E-6
 250.4028E-6
 234.3015E-6
 198.9495E-6
-5.60774E-9
 5.317655E-9
 24.9901E-6
 7.237875E-6
 5.282764E-6
 3.867697E-6
 2.791688E-6
 8.842409E-9
 630.607E-9
 415.7633E-9
 249.0382E-9
 193.1103E-9
 122.0075E-9
 57.54172E-9
 8.73799E-9
 15.56522E-9
-6.781897E-9
 9.83209E-9
-8.883205E-9
 9.074071E-9
-9.150609E-9
 8.983402E-9
-9.182288E-9
 8.979139E-9
-9.17224E-9
 8.98222E-9
-9.167164E-9
 8.98648E-9
-9.15944E-9
 8.991356E-9
-9.17051E-9
 7.162736E-9
-1.213205E-6
-94.98704E-6
-128.3546E-6
-131.1602E-6
-130.4188E-6
-126.889E-6
-119.8407E-6
-105.1266E-6
-78.10737E-6
-36.39077E-6
-9.600952E-9
 9.564316E-9
-9.633169E-9
 9.538462E-9
-9.656514E-9
 9.423602E-9
-10.01743E-9
 7.45791E-9
-20.22886E-9
-42.85051E-9
-259.9062E-9
-1.062099E-6
-3.383195E-6
-6.527176E-6
-10.5551E-6
-12.70304E-6
-15.30635E-6
-18.77319E-6
-22.13513E-6
-29.43011E-6
-42.03317E-6
-64.20917E-6
-100.8487E-6
-130.9038E-6
-9.503307E-9
 168.9699E-6
 169.1978E-6
 169.3917E-6
 169.6027E-6
 169.7926E-6
 170.8203E-6
 171.7879E-6
 173.8717E-6
 177.8146E-6
 185.4101E-6
 199.8087E-6
 225.9771E-6
 264.4881E-6
 35.1341E-9
-295.9323E-6
-296.3844E-6
-296.7761E-6
-297.0501E-6
-297.4246E-6
-299.199E-6
-300.8621E-6
-304.0055E-6
-309.6522E-6
-320.3417E-6
-336.3495E-6
-362.4114E-6
-379.8801E-6
-16.46168E-9
 382.5823E-6
 383.8607E-6
 385.2142E-6
 385.9497E-6
 387.2632E-6
 390.9788E-6
 394.0494E-6
 398.7294E-6
 405.0536E-6
 411.8659E-6
 424.6389E-6
 434.3358E-6
 450.3593E-6
 448.8103E-6
-55.1829E-9
-462.1955E-6
-462.7885E-6
-462.9621E-6
-463.5272E-6
-463.674E-6
-465.2828E-6
-466.2997E-6
-468.6209E-6
-471.4139E-6
-475.4567E-6
-479.7742E-6
-485.5312E-6
-491.2769E-6
-167.0031E-9
 167.5593E-9
-166.9464E-9
 167.4659E-9
-166.847E-9
 167.3899E-9
-166.8214E-9
 167.3606E-9
-166.8047E-9
 167.7885E-9
-97.34423E-9
 13.7609E-6
 333.228E-6
 449.4154E-6
 477.8693E-6
 485.1742E-6
 488.0996E-6
 490.7879E-6
 491.2026E-6
 488.2907E-6
 476.228E-6
 169.3859E-9
-279.8583E-6
-311.178E-6
-325.5145E-6
-338.3476E-6
-361.769E-6
-388.5212E-6
-405.8377E-6
-426.9642E-6
-441.9748E-6
-453.1147E-6
-456.1685E-6
-456.2092E-6
-452.8571E-6
-442.4614E-6
-422.6711E-6
 139.8134E-9
-139.2654E-9
 139.7391E-9
-139.1954E-9
 139.6406E-9
-139.1218E-9
 139.5764E-9
-139.0911E-9
 139.5435E-9
-139.0914E-9
 139.5211E-9
-139.0807E-9
 139.5536E-9
-137.94E-9
 312.9869E-9
 25.96719E-6
 291.4668E-6
 358.7364E-6
 377.9783E-6
 380.0457E-6
 379.3025E-6
 374.7027E-6
 363.6064E-6
 337.4629E-6
 305.0764E-6
-137.1871E-9
-248.9869E-6
-251.24E-6
-252.4132E-6
-253.8298E-6
-254.7642E-6
-258.2014E-6
-260.4126E-6
-263.6443E-6
-266.2683E-6
-267.9299E-6
-266.3714E-6
-261.3017E-6
-245.3487E-6
-228.4556E-6
-191.9249E-6
-178.4505E-9
 178.6194E-9
-178.3974E-9
 178.5338E-9
-178.301E-9
 178.4629E-9
-178.2657E-9
 178.4327E-9
-178.2602E-9
 178.4263E-9
-178.0985E-9
 280.7273E-9
 43.8881E-6
 124.7633E-6
 130.8548E-6
 130.854E-6
 121.4233E-6
 114.4881E-6
 98.49962E-6
 74.28772E-6
 36.97598E-6
 177.9794E-9
</dep>
<dep _net0.Vt time>
 0.
 0.7834813
 0.8130509
 0.7989295
-0.5003055
-0.519453
-0.5315004
-0.5393961
-0.5472767
-0.5739899
-0.6001731
-0.6386541
-0.6692222
-0.7021486
-0.7200728
-0.7370757
-0.7533937
-0.7643846
-0.7808812
-0.798544
-0.8138887
-0.8087279
-0.7428792
 1.181338
 0.756903
 0.7574587
 0.7580185
 0.7585568
 0.7590993
 0.7617451
 0.7642163
 0.7692197
 0.7777472
 0.7908881
 0.8075525
 0.8159476
 0.7737317
-1.218185
-0.7593691
-0.7600405
-0.7605506
-0.7610565
-0.7615522
-0.7657054
-0.7694214
-0.7783093
-0.7941445
-0.8159053
-0.8046633
-0.7231211
 1.178032
 0.7566354
 0.7571447
 0.75766
 0.7581545
 0.7586551
 0.7611339
 0.7634603
 0.7682149
 0.7764059
 0.7892093
 0.8057724
 0.816242
 0.7830628
-0.9232371
-0.7347526
-0.7362857
-0.7371973
-0.7381
-0.7395211
-0.7441557
-0.7482137
-0.7564822
-0.7692058
-0.7883961
-0.8054
-0.8162422
-0.804357
 0.00950212
 0.02710899
 0.03685022
 0.04377513
 0.0505524
 0.2475014
 0.3487739
 0.4497882
 0.5499721
 0.6436099
 0.6978263
 0.721774
 0.7357569
 0.7544339
 0.7664365
 0.7825943
 0.7998307
 0.8146747
 0.8065776
 0.7116603
-0.2160437
-0.22387
-0.2318403
-0.2396634
-0.2449421
-0.2561051
-0.2822421
-0.3082122
-0.3506986
-0.3929683
-0.4353026
-0.4773968
-0.5195055
-0.5611942
-0.6021033
-0.6395796
-0.6694409
-0.7018143
-0.7196253
-0.7367881
-0.7532942
-0.7643611
-0.7809895
-0.7983032
-0.813904
-0.8092199
-0.7505869
 1.046892
 0.7469178
 0.7476802
 0.7484257
 0.749155
 0.7498689
 0.7565433
 0.7653614
 0.7792384
 0.803931
 0.8146288
 0.8055926
 0.6381706
 0.6274527
 0.6173559
 0.5822148
 0.5738637
 0.565473
 0.5570345
 0.5303892
 0.5185968
 0.5068763
 0.4951307
 0.4863957
 0.4776444
 0.4520096
 0.4263265
 0.4006202
 0.374873
 0.3491079
 0.3233062
 0.2974906
 0.2716424
 0.2457842
 0.2198972
 0.1940042
 0.1737349
 0.153468
 0.1331838
 0.102483
 0.03775867
-0.02697283
-0.198149
-0.3686686
-0.5378893
-0.6798155
-0.7257335
-0.7449259
-0.7570483
-0.7721703
-0.7876097
-0.8052637
-0.8162399
-0.7918735
 0.3188523
 0.3372145
 0.3486462
 0.3556613
 0.3626634
 0.3866885
 0.4106772
 0.4502975
 0.4898164
 0.529212
 0.5682909
 0.6063803
 0.6412093
 0.6690445
 0.7022379
 0.7202369
 0.7374273
 0.7535734
 0.7644887
 0.7810272
 0.7986324
 0.8139228
 0.8085261
 0.739912
-1.221765
-0.7594435
-0.7599576
-0.7604463
-0.7609166
-0.7613922
-0.7637535
-0.765977
-0.7704864
-0.7783051
-0.790579
-0.8063183
-0.8162125
-0.7796588
 1.075865
 0.749555
 0.7505038
 0.7511342
 0.7517631
 0.7523707
 0.75596
 0.7592021
 0.7658117
 0.7771325
 0.7953073
 0.8117687
 0.8116277
 0.7631473
-0.8918712
-0.7303299
-0.7316674
-0.732975
-0.7338357
-0.7351834
-0.7396781
-0.7436518
-0.7509369
-0.7625286
-0.777498
-0.8025706
-0.8139231
-0.8089756
-0.7473026
 1.106017
 0.7516582
 0.7523028
 0.7529625
 0.7535831
 0.7542189
 0.7568232
 0.7592678
 0.7638675
 0.7713578
 0.782589
 0.7972439
 0.8126356
 0.8044984
 0.1513145
 0.1374177
 0.1276198
 0.1208337
 0.1136678
 0.09307849
 0.07210565
-0.02190154
-0.116266
-0.2930247
-0.4319669
-0.5692343
-0.6802181
-0.7206902
-0.7478967
-0.7627246
-0.7731305
-0.7886277
-0.8070232
-0.8162047
-0.7855789
 0.6772757
 0.6718527
 0.6793986
 0.683007
 0.6865362
 0.6934207
 0.7029919
 0.7105589
 0.7232769
 0.7370088
 0.7574369
 0.7701589
 0.7872682
 0.8036834
 0.8160179
 0.7992139
 0.2180785
 0.2044147
 0.1956962
 0.1893066
 0.1832885
 0.1731836
 0.163449
 0.1357146
 0.0943353
 0.05256578
 0.01115826
-0.06045145
-0.1944851
-0.3285005
-0.4614798
-0.5930101
-0.6886722
-0.7230543
-0.7525158
-0.7680669
-0.7788452
-0.7946431
-0.8107067
-0.81251
-0.7678915
 0.8046449
 0.715576
 0.7176828
 0.7192207
 0.7206173
 0.7220312
 0.7264555
 0.7304191
 0.7366539
 0.7455812
 0.7571948
 0.7721776
 0.7879403
 0.8084576
 0.8160032
 0.7988807
 0.1733847
 0.1594997
 0.1503144
 0.1442289
 0.13773
 0.122145
 0.1061441
 0.04963789
-0.007298563
-0.124776
-0.2999857
-0.4737482
-0.6406198
-0.7157831
-0.7401283
-0.7540275
-0.7846714
-0.795577
-0.8099893
-0.8161116
-0.7927548
 102.6927E-6
</dep>
<dep _net1.Vt time>
 0.
 0.7834815
 0.8130513
 0.7989298
-0.5003055
-0.519453
-0.5315004
-0.5393961
-0.5472767
-0.5739899
-0.6001731
-0.6386541
-0.6692222
-0.7021486
-0.7200728
-0.7370758
-0.7533938
-0.7643847
-0.7808813
-0.7985443
-0.8138891
-0.8087283
-0.7428793
 1.181338
 0.7569031
 0.7574588
 0.7580186
 0.7585569
 0.7590994
 0.7617452
 0.7642164
 0.7692198
 0.7777474
 0.7908883
 0.8075529
 0.815948
 0.7737318
-1.218185
-0.7593692
-0.7600406
-0.7605507
-0.7610566
-0.7615523
-0.7657055
-0.7694215
-0.7783095
-0.7941448
-0.8159057
-0.8046636
-0.7231211
 1.178032
 0.7566355
 0.7571448
 0.75766
 0.7581546
 0.7586552
 0.761134
 0.7634604
 0.7682151
 0.776406
 0.7892096
 0.8057728
 0.8162424
 0.783063
-0.9232371
-0.7347526
-0.7362857
-0.7371974
-0.7381
-0.7395211
-0.7441558
-0.7482138
-0.7564822
-0.769206
-0.7883963
-0.8054003
-0.8162427
-0.8043573
 0.00950212
 0.02710899
 0.03685022
 0.04377513
 0.0505524
 0.2475014
 0.3487739
 0.4497882
 0.5499721
 0.6436099
 0.6978263
 0.7217741
 0.735757
 0.754434
 0.7664366
 0.7825945
 0.799831
 0.8146752
 0.8065779
 0.7116603
-0.2160437
-0.22387
-0.2318403
-0.2396634
-0.2449421
-0.2561051
-0.2822421
-0.3082122
-0.3506986
-0.3929683
-0.4353026
-0.4773968
-0.5195055
-0.5611942
-0.6021033
-0.6395796
-0.6694409
-0.7018144
-0.7196254
-0.7367881
-0.7532943
-0.7643612
-0.7809897
-0.7983035
-0.8139044
-0.8092203
-0.750587
 1.046892
 0.7469179
 0.7476802
 0.7484257
 0.7491551
 0.749869
 0.7565434
 0.7653615
 0.7792386
 0.8039314
 0.8146292
 0.8055929
 0.6381706
 0.6274527
 0.6173559
 0.5822148
 0.5738637
 0.565473
 0.5570345
 0.5303892
 0.5185968
 0.5068763
 0.4951307
 0.4863957
 0.4776444
 0.4520096
 0.4263265
 0.4006202
 0.374873
 0.3491079
 0.3233062
 0.2974906
 0.2716424
 0.2457842
 0.2198972
 0.1940042
 0.1737349
 0.153468
 0.1331838
 0.102483
 0.03775867
-0.02697283
-0.198149
-0.3686686
-0.5378893
-0.6798156
-0.7257335
-0.744926
-0.7570484
-0.7721704
-0.7876099
-0.8052641
-0.8162403
-0.7918737
 0.3188523
 0.3372145
 0.3486462
 0.3556613
 0.3626634
 0.3866885
 0.4106772
 0.4502975
 0.4898164
 0.529212
 0.5682909
 0.6063803
 0.6412093
 0.6690445
 0.7022379
 0.720237
 0.7374274
 0.7535735
 0.7644889
 0.7810274
 0.7986327
 0.8139233
 0.8085265
 0.739912
-1.221765
-0.7594436
-0.7599577
-0.7604464
-0.7609167
-0.7613923
-0.7637537
-0.7659772
-0.7704865
-0.7783053
-0.7905793
-0.8063186
-0.8162129
-0.779659
 1.075865
 0.749555
 0.7505038
 0.7511343
 0.7517632
 0.7523708
 0.7559601
 0.7592022
 0.7658118
 0.7771327
 0.7953076
 0.8117691
 0.8116281
 0.7631474
-0.8918712
-0.73033
-0.7316674
-0.732975
-0.7338357
-0.7351835
-0.7396782
-0.7436519
-0.7509369
-0.7625287
-0.7774982
-0.8025709
-0.8139235
-0.8089759
-0.7473027
 1.106017
 0.7516583
 0.7523029
 0.7529626
 0.7535832
 0.754219
 0.7568233
 0.7592679
 0.7638676
 0.7713579
 0.7825891
 0.7972442
 0.812636
 0.8044987
 0.1513145
 0.1374177
 0.1276198
 0.1208337
 0.1136678
 0.09307849
 0.07210565
-0.02190154
-0.116266
-0.2930247
-0.4319669
-0.5692343
-0.6802181
-0.7206903
-0.7478968
-0.7627247
-0.7731306
-0.7886279
-0.8070235
-0.8162051
-0.7855791
 0.6772757
 0.6718527
 0.6793986
 0.683007
 0.6865362
 0.6934207
 0.7029919
 0.7105589
 0.7232769
 0.7370089
 0.7574369
 0.770159
 0.7872684
 0.8036837
 0.8160183
 0.7992142
 0.2180785
 0.2044147
 0.1956962
 0.1893066
 0.1832885
 0.1731836
 0.163449
 0.1357146
 0.0943353
 0.05256578
 0.01115826
-0.06045145
-0.1944851
-0.3285005
-0.4614798
-0.5930101
-0.6886722
-0.7230543
-0.7525159
-0.768067
-0.7788454
-0.7946434
-0.8107071
-0.8125104
-0.7678916
 0.8046449
 0.715576
 0.7176828
 0.7192207
 0.7206173
 0.7220312
 0.7264555
 0.7304192
 0.7366539
 0.7455812
 0.7571948
 0.7721778
 0.7879405
 0.8084579
 0.8160036
 0.798881
 0.1733847
 0.1594997
 0.1503144
 0.1442289
 0.13773
 0.122145
 0.1061441
 0.04963789
-0.007298563
-0.124776
-0.2999857
-0.4737482
-0.6406198
-0.7157831
-0.7401284
-0.7540275
-0.7846716
-0.7955772
-0.8099896
-0.816112
-0.7927551
 102.6927E-6
</dep>
<dep _net2.Vt time>
 0.
-0.7834813
-0.8130509
-0.7989295
 0.5003055
 0.519453
 0.5315004
 0.5393961
 0.5472767
 0.5739899
 0.6001731
 0.6386541
 0.6692222
 0.7021486
 0.7200728
 0.7370757
 0.7533937
 0.7643846
 0.7808812
 0.798544
 0.8138887
 0.8087279
 0.7428792
-1.181338
-0.756903
-0.7574587
-0.7580185
-0.7585568
-0.7590993
-0.7617451
-0.7642163
-0.7692197
-0.7777472
-0.7908881
-0.8075525
-0.8159476
-0.7737317
 1.218185
 0.7593691
 0.7600405
 0.7605506
 0.7610565
 0.7615522
 0.7657054
 0.7694214
 0.7783093
 0.7941445
 0.8159053
 0.8046633
 0.7231211
-1.178032
-0.7566354
-0.7571447
-0.75766
-0.7581545
-0.7586551
-0.7611339
-0.7634603
-0.7682149
-0.7764059
-0.7892093
-0.8057724
-0.816242
-0.7830628
 0.9232371
 0.7347526
 0.7362857
 0.7371973
 0.7381
 0.7395211
 0.7441557
 0.7482137
 0.7564822
 0.7692058
 0.7883961
 0.8054
 0.8162422
 0.804357
-0.00950212
-0.02710899
-0.03685022
-0.04377513
-0.0505524
-0.2475014
-0.3487739
-0.4497882
-0.5499721
-0.6436099
-0.6978263
-0.721774
-0.7357569
-0.7544339
-0.7664365
-0.7825943
-0.7998307
-0.8146747
-0.8065776
-0.7116603
 0.2160437
 0.22387
 0.2318403
 0.2396634
 0.2449421
 0.2561051
 0.2822421
 0.3082122
 0.3506986
 0.3929683
 0.4353026
 0.4773968
 0.5195055
 0.5611942
 0.6021033
 0.6395796
 0.6694409
 0.7018143
 0.7196253
 0.7367881
 0.7532942
 0.7643611
 0.7809895
 0.7983032
 0.813904
 0.8092199
 0.7505869
-1.046892
-0.7469178
-0.7476802
-0.7484257
-0.749155
-0.7498689
-0.7565433
-0.7653614
-0.7792384
-0.803931
-0.8146288
-0.8055926
-0.6381706
-0.6274527
-0.6173559
-0.5822148
-0.5738637
-0.565473
-0.5570345
-0.5303892
-0.5185968
-0.5068763
-0.4951307
-0.4863957
-0.4776444
-0.4520096
-0.4263265
-0.4006202
-0.374873
-0.3491079
-0.3233062
-0.2974906
-0.2716424
-0.2457842
-0.2198972
-0.1940042
-0.1737349
-0.153468
-0.1331838
-0.102483
-0.03775867
 0.02697283
 0.198149
 0.3686686
 0.5378893
 0.6798155
 0.7257335
 0.7449259
 0.7570483
 0.7721703
 0.7876097
 0.8052637
 0.8162399
 0.7918735
-0.3188523
-0.3372145
-0.3486462
-0.3556613
-0.3626634
-0.3866885
-0.4106772
-0.4502975
-0.4898164
-0.529212
-0.5682909
-0.6063803
-0.6412093
-0.6690445
-0.7022379
-0.7202369
-0.7374273
-0.7535734
-0.7644887
-0.7810272
-0.7986324
-0.8139228
-0.8085261
-0.739912
 1.221765
 0.7594435
 0.7599576
 0.7604463
 0.7609166
 0.7613922
 0.7637535
 0.765977
 0.7704864
 0.7783051
 0.790579
 0.8063183
 0.8162125
 0.7796588
-1.075865
-0.749555
-0.7505038
-0.7511342
-0.7517631
-0.7523707
-0.75596
-0.7592021
-0.7658117
-0.7771325
-0.7953073
-0.8117687
