<Qucs Dataset>
default plugins: ignored
Gnucap   System status
iterations: op=0, dc=0, tran=2502, fourier=0, total=2909
transient timesteps: accepted=380, rejected=27, total=407
transient timesteps: accepted=0, rejected=0, total=0
nodes: user=9, subckt=4, model=4, total=17
dctran density=54.3%, ac density=54.3%

<indep time 380>
 0.
 10.E-6
 20.E-6
 36.33333E-6
 52.66667E-6
 52.77003E-6
 52.83512E-6
 52.87785E-6
 52.92058E-6
 53.06635E-6
 53.21213E-6
 53.44299E-6
 53.67386E-6
 54.08946E-6
 54.50507E-6
 55.16029E-6
 56.1963E-6
 57.23231E-6
 59.53174E-6
 63.55084E-6
 70.69931E-6
 82.61342E-6
 94.52753E-6
 106.4416E-6
 106.4919E-6
 106.5422E-6
 106.5925E-6
 106.6427E-6
 106.693E-6
 106.9533E-6
 107.2136E-6
 107.8013E-6
 109.0103E-6
 111.5415E-6
 116.8299E-6
 126.5351E-6
 141.5948E-6
 156.6546E-6
 156.719E-6
 156.7834E-6
 156.8334E-6
 156.8834E-6
 156.9335E-6
 157.38E-6
 157.8266E-6
 159.1006E-6
 162.3349E-6
 173.3568E-6
 184.3787E-6
 195.4006E-6
 206.4225E-6
 206.4683E-6
 206.514E-6
 206.5598E-6
 206.6055E-6
 206.6513E-6
 206.8916E-6
 207.1318E-6
 207.6768E-6
 208.8006E-6
 211.1624E-6
 216.062E-6
 225.1776E-6
 240.078E-6
 254.9784E-6
 255.0501E-6
 255.1217E-6
 255.1665E-6
 255.2113E-6
 255.2854E-6
 255.5486E-6
 255.8117E-6
 256.4549E-6
 257.7995E-6
 260.9849E-6
 265.9117E-6
 275.2039E-6
 284.4962E-6
 300.0506E-6
 300.1436E-6
 300.1957E-6
 300.2321E-6
 300.2684E-6
 301.3143E-6
 301.8547E-6
 302.3951E-6
 302.9354E-6
 303.4758E-6
 304.0161E-6
 304.5565E-6
 305.0969E-6
 306.2807E-6
 307.4645E-6
 309.8362E-6
 313.9443E-6
 321.4834E-6
 333.5998E-6
 345.7161E-6
 351.1469E-6
 351.189E-6
 351.231E-6
 351.273E-6
 351.3007E-6
 351.3605E-6
 351.4994E-6
 351.6382E-6
 351.8646E-6
 352.091E-6
 352.3173E-6
 352.5437E-6
 352.7701E-6
 352.9965E-6
 353.2229E-6
 353.4493E-6
 353.6756E-6
 354.0837E-6
 354.4917E-6
 355.1464E-6
 356.1882E-6
 357.2299E-6
 359.5504E-6
 363.4795E-6
 370.7127E-6
 382.3662E-6
 394.0197E-6
 405.6731E-6
 405.7241E-6
 405.7751E-6
 405.8261E-6
 405.8771E-6
 405.9281E-6
 406.4605E-6
 407.3411E-6
 409.2529E-6
 415.3431E-6
 421.4332E-6
 434.0108E-6
 446.5883E-6
 446.6465E-6
 446.6887E-6
 446.8883E-6
 446.9343E-6
 446.9803E-6
 447.0264E-6
 447.1714E-6
 447.2346E-6
 447.2979E-6
 447.3611E-6
 447.4081E-6
 447.4552E-6
 447.5929E-6
 447.7306E-6
 447.8684E-6
 448.0061E-6
 448.1438E-6
 448.2815E-6
 448.4192E-6
 448.557E-6
 448.6947E-6
 448.8324E-6
 448.9701E-6
 449.0779E-6
 449.1856E-6
 449.2933E-6
 449.4564E-6
 449.7998E-6
 450.1433E-6
 451.0536E-6
 451.964E-6
 452.8744E-6
 453.7847E-6
 454.6951E-6
 455.6054E-6
 456.5158E-6
 458.1984E-6
 460.8413E-6
 465.9277E-6
 474.9798E-6
 488.7961E-6
 502.6125E-6
 502.695E-6
 502.7342E-6
 502.7735E-6
 502.8127E-6
 502.9077E-6
 503.0894E-6
 503.271E-6
 503.4527E-6
 503.7481E-6
 504.2504E-6
 504.7527E-6
 505.608E-6
 506.4634E-6
 508.1195E-6
 511.0301E-6
 516.1771E-6
 525.1368E-6
 538.7043E-6
 552.2718E-6
 552.3565E-6
 552.4229E-6
 552.4613E-6
 552.4997E-6
 552.6166E-6
 552.8061E-6
 552.9957E-6
 553.1853E-6
 553.3748E-6
 553.666E-6
 553.9571E-6
 554.4617E-6
 554.9663E-6
 556.0491E-6
 557.1319E-6
 559.2408E-6
 562.976E-6
 569.5976E-6
 580.924E-6
 592.2504E-6
 603.5768E-6
 603.6334E-6
 603.6901E-6
 603.7295E-6
 603.769E-6
 603.8388E-6
 604.131E-6
 604.5978E-6
 605.3538E-6
 606.1098E-6
 607.5906E-6
 610.0901E-6
 614.4711E-6
 622.1816E-6
 634.7756E-6
 647.3695E-6
 647.4312E-6
 647.4751E-6
 647.793E-6
 647.8254E-6
 647.8577E-6
 647.8901E-6
 647.9225E-6
 647.9548E-6
 648.0749E-6
 648.1951E-6
 648.3152E-6
 648.4353E-6
 648.5554E-6
 648.6755E-6
 648.7956E-6
 648.9157E-6
 649.0358E-6
 649.1559E-6
 649.3536E-6
 649.5513E-6
 649.8495E-6
 650.4617E-6
 651.0738E-6
 651.686E-6
 652.2981E-6
 652.9103E-6
 653.5224E-6
 654.1346E-6
 654.7467E-6
 655.3589E-6
 657.2842E-6
 659.2096E-6
 662.4552E-6
 668.3771E-6
 678.7403E-6
 689.1035E-6
 704.6483E-6
 704.7157E-6
 704.7831E-6
 704.826E-6
 704.8689E-6
 704.9393E-6
 705.2269E-6
 705.5145E-6
 706.2735E-6
 708.2317E-6
 711.3029E-6
 716.8548E-6
 725.9885E-6
 739.6891E-6
 753.3897E-6
 753.4638E-6
 753.538E-6
 753.5785E-6
 753.6189E-6
 753.7176E-6
 753.9323E-6
 754.3581E-6
 755.0329E-6
 755.7077E-6
 756.9292E-6
 758.8738E-6
 762.3184E-6
 768.4128E-6
 778.9395E-6
 789.4662E-6
 799.9929E-6
 800.0429E-6
 800.093E-6
 800.1236E-6
 800.1542E-6
 801.4519E-6
 802.1072E-6
 802.7625E-6
 803.4177E-6
 804.073E-6
 804.7283E-6
 805.3836E-6
 806.6985E-6
 808.0135E-6
 810.7562E-6
 815.7363E-6
 824.1119E-6
 837.6417E-6
 851.1716E-6
 851.2292E-6
 851.2868E-6
 851.3236E-6
 851.3604E-6
 851.4432E-6
 851.7071E-6
 851.971E-6
 852.2348E-6
 852.4987E-6
 852.7626E-6
 853.0264E-6
 853.2903E-6
 853.5542E-6
 853.818E-6
 854.4271E-6
 855.0362E-6
 856.665E-6
 858.2938E-6
 860.737E-6
 865.3791E-6
 873.7929E-6
 886.4136E-6
 899.0344E-6
 899.1081E-6
 899.156E-6
 899.1892E-6
 899.2223E-6
 899.2989E-6
 899.3754E-6
 899.9313E-6
 900.4872E-6
 901.0432E-6
 901.8963E-6
 902.7493E-6
 903.6024E-6
 904.4555E-6
 905.3086E-6
 906.1616E-6
 907.9662E-6
 909.7708E-6
 914.0674E-6
 921.2285E-6
 932.4816E-6
 943.7346E-6
 954.9877E-6
 955.0385E-6
 955.0892E-6
 955.14E-6
 955.179E-6
 955.218E-6
 955.4313E-6
 955.6445E-6
 956.0881E-6
 957.0224E-6
 958.891E-6
 963.4587E-6
 968.0263E-6
 978.6842E-6
 989.3421E-6
 0.001
</indep>
<dep Output.Vt time>
 0.
 30.83413E-6
 61.96399E-6
 111.617E-6
-13.901E-12
-661.5689E-9
-1.052285E-6
-1.426212E-6
-1.929111E-6
-5.318921E-6
-13.87725E-6
-47.72402E-6
-94.05173E-6
-136.6561E-6
-150.6193E-6
-159.6054E-6
-166.48E-6
-171.09E-6
-179.2508E-6
-191.7284E-6
-212.4899E-6
-245.104E-6
-265.6853E-6
-219.018E-12
 299.6942E-6
 299.979E-6
 300.247E-6
 300.5208E-6
 300.7786E-6
 302.0758E-6
 303.2615E-6
 305.6868E-6
 309.9366E-6
 317.4197E-6
 330.9195E-6
 353.0795E-6
 379.8721E-6
 76.4668E-9
-403.5004E-6
-403.7009E-6
-404.1002E-6
-404.2121E-6
-404.6006E-6
-406.4668E-6
-408.3365E-6
-412.202E-6
-419.8617E-6
-438.2575E-6
-452.4457E-6
-426.7935E-6
 6.563377E-9
 464.9961E-6
 465.4279E-6
 465.5226E-6
 465.9397E-6
 466.0204E-6
 467.3741E-6
 468.2549E-6
 470.3986E-6
 473.2326E-6
 477.4974E-6
 482.5784E-6
 488.6769E-6
 489.9515E-6
 137.1559E-9
-467.43E-6
-468.8193E-6
-469.782E-6
-470.4923E-6
-471.8392E-6
-475.3618E-6
-478.1898E-6
-482.5132E-6
-487.2167E-6
-490.6446E-6
-491.403E-6
-488.3547E-6
-482.2265E-6
 67.77884E-9
-67.25992E-9
 67.75905E-9
-67.22401E-9
 67.71958E-9
-67.08266E-9
 70.5147E-9
 63.54835E-9
 6.260188E-6
 155.9326E-6
 374.8621E-6
 424.9601E-6
 440.8226E-6
 452.1312E-6
 455.5069E-6
 456.6012E-6
 454.027E-6
 445.4412E-6
 427.3416E-6
 356.8911E-6
 66.86218E-9
-67.3841E-9
 66.79718E-9
-67.37289E-9
 66.73083E-9
-67.37303E-9
 66.56089E-9
-67.80217E-9
 64.26038E-9
-79.65959E-9
 3.579368E-9
-387.9308E-9
-1.559385E-6
-8.07541E-6
-36.01264E-6
-118.3019E-6
-226.7928E-6
-324.6922E-6
-354.6431E-6
-370.8403E-6
-378.0993E-6
-379.998E-6
-378.8413E-6
-373.0576E-6
-358.866E-6
-332.9105E-6
-296.4031E-6
-66.97033E-9
 266.6738E-6
 266.7992E-6
 266.96E-6
 267.0592E-6
 267.1955E-6
 267.793E-6
 267.5321E-6
 264.6153E-6
 250.4028E-6
 234.3015E-6
 198.9495E-6
-5.607486E-9
 5.316474E-9
 24.99061E-6
 7.238091E-6
 5.282935E-6
 3.867816E-6
 2.791787E-6
 8.837131E-9
 630.4286E-9
 415.6196E-9
 248.9445E-9
 193.0275E-9
 121.9555E-9
 57.5139E-9
 8.736136E-9
 15.55603E-9
-6.776457E-9
 9.825378E-9
-8.876718E-9
 9.067805E-9
-9.144199E-9
 8.977065E-9
-9.175892E-9
 8.972791E-9
-9.165848E-9
 8.975985E-9
-9.160842E-9
 8.980063E-9
-9.153121E-9
 8.985109E-9
-9.16415E-9
 7.115074E-9
-1.253713E-6
-95.66085E-6
-128.417E-6
-131.1624E-6
-130.4024E-6
-126.8628E-6
-119.7746E-6
-104.9153E-6
-77.43086E-6
-34.61062E-6
-9.608458E-9
-10.53308E-9
-36.63809E-9
-26.69183E-9
-58.26813E-9
-88.98051E-9
-378.281E-9
-1.232114E-6
-3.280791E-6
-7.507329E-6
-11.48605E-6
-13.70354E-6
-16.7955E-6
-19.59705E-6
-24.92087E-6
-34.05055E-6
-50.12529E-6
-77.77912E-6
-118.5034E-6
 9.606582E-9
 24.4109E-9
 64.05254E-9
 62.55369E-9
 104.328E-9
 210.61E-9
 865.3111E-9
 3.258207E-6
 11.71459E-6
 34.91728E-6
 92.67698E-6
 128.1749E-6
 149.662E-6
 157.6469E-6
 165.7061E-6
 170.6892E-6
 178.2868E-6
 190.0045E-6
 209.3522E-6
 240.647E-6
 267.077E-6
-9.373387E-9
-158.9931E-6
-177.3644E-6
-188.7352E-6
-199.0063E-6
-214.4472E-6
-253.1158E-6
-276.847E-6
-290.8146E-6
-297.3443E-6
-304.8656E-6
-313.271E-6
-325.1095E-6
-343.4299E-6
-369.8503E-6
 31.17946E-9
-30.48423E-9
-249.2188E-9
-30.46817E-9
 8.651279E-9
-48.27204E-9
 17.03588E-9
-41.59764E-9
 22.28661E-9
-34.12482E-9
 29.55984E-9
-31.09406E-9
 30.79627E-9
-30.58678E-9
 30.98771E-9
-30.51269E-9
 31.00013E-9
-30.51065E-9
 30.98696E-9
-30.51922E-9
 30.97039E-9
-30.52704E-9
 30.97181E-9
-30.47919E-9
 31.74684E-9
 25.63595E-9
 4.535928E-6
 159.9936E-6
 343.1145E-6
 379.3494E-6
 391.9774E-6
 406.1157E-6
 412.592E-6
 420.0152E-6
 430.6588E-6
 445.7262E-6
 456.2618E-6
-30.63788E-9
-439.6291E-6
-441.9789E-6
-443.2932E-6
-444.5847E-6
-446.4518E-6
-452.5679E-6
-456.8273E-6
-463.864E-6
-471.9207E-6
-477.6222E-6
-483.3088E-6
-488.9858E-6
-490.3011E-6
-96.26812E-9
 157.63E-6
 204.5479E-6
 229.8602E-6
 253.9364E-6
 305.6857E-6
 379.4345E-6
 438.9101E-6
 466.9191E-6
 477.2297E-6
 484.5775E-6
 489.0588E-6
 491.0886E-6
 491.0069E-6
 486.2389E-6
 476.5795E-6
-81.84032E-9
 81.31692E-9
-81.81572E-9
 81.27631E-9
-81.76634E-9
 81.02167E-9
-98.26777E-9
-1.740641E-6
-122.6041E-6
-384.1032E-6
-431.681E-6
-445.1576E-6
-453.7594E-6
-456.1504E-6
-456.3088E-6
-452.2552E-6
-441.9293E-6
-419.8383E-6
-83.0529E-9
 83.59272E-9
-82.98306E-9
 83.59659E-9
-82.91207E-9
 83.65053E-9
-82.1478E-9
 88.76798E-9
-48.11186E-9
 315.751E-9
 1.456739E-6
 9.940895E-6
 53.77362E-6
 170.9545E-6
 275.1129E-6
 351.7705E-6
 369.0977E-6
 379.4E-6
 379.8483E-6
 377.4826E-6
 369.4627E-6
 352.4526E-6
 322.7576E-6
 83.33678E-9
-83.6891E-9
 83.32025E-9
-83.65128E-9
 83.28247E-9
-83.61867E-9
 83.27E-9
-83.59598E-9
 83.27437E-9
-83.61968E-9
 81.00138E-9
-1.088323E-6
-139.1159E-6
-251.7529E-6
-264.7774E-6
-267.5658E-6
-266.7958E-6
-263.5992E-6
-253.612E-6
-234.8672E-6
-203.384E-6
-166.8293E-6
 83.6457E-9
 130.1949E-6
 130.5274E-6
 130.4965E-6
 130.7625E-6
 130.6757E-6
 131.1512E-6
 131.08E-6
 131.0361E-6
 129.4213E-6
 125.1869E-6
 112.1423E-6
 98.6975E-6
 65.94428E-6
 32.98322E-6
-110.8848E-9
</dep>
<dep _net0.Vt time>
 0.
 0.7834813
 0.8130509
 0.7989295
-0.5003056
-0.519453
-0.5315006
-0.5393963
-0.547277
-0.5739901
-0.6001734
-0.6386542
-0.6692223
-0.7021486
-0.7200728
-0.7370757
-0.7533937
-0.7643846
-0.7808812
-0.798544
-0.8138887
-0.8087279
-0.7428792
 1.181339
 0.756903
 0.7574587
 0.7580186
 0.7585568
 0.7590993
 0.7617452
 0.7642163
 0.7692197
 0.7777473
 0.7908881
 0.8075525
 0.8159476
 0.7737316
-1.218186
-0.7593692
-0.7600405
-0.7605507
-0.7610565
-0.7615522
-0.7657054
-0.7694214
-0.7783093
-0.7941445
-0.8159053
-0.8046633
-0.723121
 1.178032
 0.7566354
 0.7571448
 0.75766
 0.7581546
 0.7586551
 0.7611339
 0.7634604
 0.768215
 0.7764059
 0.7892093
 0.8057724
 0.816242
 0.7830628
-0.9232376
-0.7347526
-0.7362857
-0.7371974
-0.7381
-0.7395211
-0.7441558
-0.7482138
-0.7564822
-0.7692059
-0.7883961
-0.8054
-0.8162422
-0.804357
 0.009502888
 0.02710978
 0.03685095
 0.0437758
 0.05055301
 0.247502
 0.3487745
 0.4497888
 0.5499727
 0.6436104
 0.6978265
 0.7217742
 0.735757
 0.7544339
 0.7664365
 0.7825943
 0.7998307
 0.8146748
 0.8065776
 0.7116601
-0.2160427
-0.223869
-0.2318392
-0.2396623
-0.244941
-0.2561039
-0.2822408
-0.3082109
-0.3506973
-0.3929671
-0.4353015
-0.4773957
-0.5195045
-0.5611932
-0.6021024
-0.6395789
-0.6694404
-0.7018141
-0.7196252
-0.736788
-0.7532942
-0.7643611
-0.7809895
-0.7983032
-0.813904
-0.8092199
-0.750587
 1.046891
 0.7469177
 0.7476801
 0.7484256
 0.7491549
 0.7498689
 0.7565432
 0.7653614
 0.7792384
 0.803931
 0.8146288
 0.8055926
 0.6381712
 0.6274533
 0.6173565
 0.5822156
 0.5738646
 0.5654739
 0.5570354
 0.530383
 0.5185894
 0.5068676
 0.4951207
 0.4863849
 0.4776329
 0.451998
 0.4263148
 0.4006086
 0.3748614
 0.3490962
 0.3232945
 0.2974789
 0.2716307
 0.2457725
 0.2198855
 0.1939924
 0.1737191
 0.1534483
 0.13316
 0.10245
 0.03772573
-0.02700573
-0.1984648
-0.3692642
-0.5387551
-0.6803839
-0.7259527
-0.7450732
-0.7571683
-0.7722484
-0.7877211
-0.8054404
-0.8162472
-0.7893984
 0.490226
 0.5055428
 0.5128149
 0.5200917
 0.52735
 0.5448998
 0.5781655
 0.6104676
 0.6401328
 0.676936
 0.7101805
 0.7275487
 0.7451148
 0.7565763
 0.7716675
 0.7886045
 0.8060502
 0.8162445
 0.7898108
-0.4267764
-0.442574
-0.4549414
-0.4620948
-0.4692341
-0.4909753
-0.5261345
-0.5610853
-0.5954104
-0.6278981
-0.6683434
-0.6940033
-0.7185749
-0.7328801
-0.7515037
-0.7634585
-0.779165
-0.7965475
-0.812509
-0.8117416
-0.7688082
 0.6685373
 0.6645949
 0.6709882
 0.6750992
 0.6789288
 0.6850972
 0.7043894
 0.7230701
 0.7407907
 0.7522967
 0.7675062
 0.7839602
 0.8014601
 0.8152383
 0.8036108
 0.4935816
 0.4821008
 0.473927
 0.4146719
 0.408636
 0.4025838
 0.3965454
 0.39049
 0.3844482
 0.3619763
 0.339499
 0.3169869
 0.2944721
 0.2719252
 0.2493782
 0.2268016
 0.2042275
 0.1816263
 0.1590302
 0.1218058
 0.08457801
 0.02836149
-0.08700597
-0.2022601
-0.3171996
-0.4316836
-0.5453734
-0.650282
-0.7045785
-0.7273878
-0.7408822
-0.7648547
-0.7789762
-0.7946111
-0.8105935
-0.8144667
-0.7879811
 0.8637823
 0.7265355
 0.7283604
 0.7294785
 0.730552
 0.7322546
 0.738401
 0.7435901
 0.7543435
 0.7724916
 0.7898428
 0.8076062
 0.8161232
 0.7851086
-0.6341317
-0.6417941
-0.6524459
-0.6577874
-0.6628622
-0.6738768
-0.6922845
-0.7147047
-0.7343833
-0.7466676
-0.7615119
-0.7768768
-0.7940815
-0.8106553
-0.814271
-0.7862293
-0.001354631
 0.00811097
 0.01751115
 0.02331333
 0.02905011
 0.2733144
 0.3960176
 0.5180657
 0.6347274
 0.7012262
 0.7268793
 0.7413281
 0.7591538
 0.7708713
 0.7873141
 0.804959
 0.8161471
 0.7942362
-0.2206584
-0.2314527
-0.2423096
-0.2491921
-0.2561388
-0.2716543
-0.3211807
-0.3705532
-0.4198885
-0.4690375
-0.5180869
-0.5666931
-0.6137908
-0.6546003
-0.6833463
-0.7173291
-0.7344562
-0.7587976
-0.7729406
-0.7872217
-0.8040282
-0.8160619
-0.7986634
-0.1818922
-0.1680555
-0.1590057
-0.1527922
-0.1465121
-0.1321369
-0.1176926
-0.0129641
 0.09184617
 0.1964784
 0.356608
 0.5156021
 0.6608439
 0.7183524
 0.7399602
 0.7529573
 0.7705104
 0.782232
 0.8002219
 0.8144364
 0.808993
 0.7542446
-0.9248295
-0.7345082
-0.7355945
-0.7366647
-0.7374491
-0.7382331
-0.7421653
-0.745696
-0.7520121
-0.7624218
-0.7769866
-0.7982343
-0.8099647
-0.8145206
-0.786838
-40.77765E-6
</dep>
<dep _net1.Vt time>
 0.
 0.7834815
 0.8130513
 0.7989298
-0.5003056
-0.519453
-0.5315006
-0.5393963
-0.547277
-0.5739901
-0.6001734
-0.6386542
-0.6692223
-0.7021486
-0.7200728
-0.7370758
-0.7533938
-0.7643847
-0.7808813
-0.7985443
-0.8138891
-0.8087283
-0.7428792
 1.181339
 0.7569031
 0.7574588
 0.7580186
 0.7585569
 0.7590994
 0.7617453
 0.7642164
 0.7692199
 0.7777474
 0.7908884
 0.8075529
 0.815948
 0.7737318
-1.218186
-0.7593693
-0.7600406
-0.7605508
-0.7610566
-0.7615523
-0.7657055
-0.7694215
-0.7783095
-0.7941448
-0.8159057
-0.8046636
-0.7231211
 1.178032
 0.7566355
 0.7571448
 0.7576601
 0.7581546
 0.7586552
 0.761134
 0.7634605
 0.7682151
 0.7764061
 0.7892096
 0.8057728
 0.8162424
 0.783063
-0.9232376
-0.7347527
-0.7362858
-0.7371974
-0.7381001
-0.7395212
-0.7441558
-0.7482138
-0.7564823
-0.769206
-0.7883963
-0.8054003
-0.8162427
-0.8043573
 0.009502888
 0.02710978
 0.03685095
 0.0437758
 0.05055301
 0.247502
 0.3487745
 0.4497888
 0.5499727
 0.6436104
 0.6978265
 0.7217742
 0.7357571
 0.754434
 0.7664366
 0.7825945
 0.799831
 0.8146752
 0.8065779
 0.7116601
-0.2160427
-0.223869
-0.2318392
-0.2396623
-0.244941
-0.2561039
-0.2822408
-0.3082109
-0.3506973
-0.3929671
-0.4353015
-0.4773957
-0.5195045
-0.5611932
-0.6021024
-0.6395789
-0.6694404
-0.7018141
-0.7196252
-0.736788
-0.7532942
-0.7643612
-0.7809896
-0.7983035
-0.8139044
-0.8092203
-0.7505871
 1.046891
 0.7469178
 0.7476801
 0.7484256
 0.749155
 0.7498689
 0.7565433
 0.7653615
 0.7792386
 0.8039314
 0.8146292
 0.8055929
 0.6381712
 0.6274533
 0.6173565
 0.5822156
 0.5738646
 0.5654739
 0.5570354
 0.530383
 0.5185894
 0.5068676
 0.4951207
 0.4863849
 0.4776329
 0.451998
 0.4263148
 0.4006086
 0.3748614
 0.3490962
 0.3232945
 0.2974789
 0.2716307
 0.2457725
 0.2198855
 0.1939924
 0.1737191
 0.1534483
 0.13316
 0.10245
 0.03772573
-0.02700573
-0.1984648
-0.3692642
-0.5387551
-0.680384
-0.7259528
-0.7450733
-0.7571684
-0.7722486
-0.7877213
-0.8054407
-0.8162476
-0.7893986
 0.490226
 0.5055428
 0.5128149
 0.5200917
 0.52735
 0.5448998
 0.5781655
 0.6104676
 0.6401328
 0.676936
 0.7101805
 0.7275487
 0.7451149
 0.7565764
 0.7716676
 0.7886047
 0.8060506
 0.8162449
 0.789811
-0.4267764
-0.442574
-0.4549414
-0.4620948
-0.4692341
-0.4909753
-0.5261345
-0.5610853
-0.5954104
-0.6278981
-0.6683434
-0.6940033
-0.7185749
-0.7328801
-0.7515038
-0.7634586
-0.7791652
-0.7965478
-0.8125094
-0.811742
-0.7688083
 0.6685373
 0.6645949
 0.6709882
 0.6750992
 0.6789288
 0.6850972
 0.7043895
 0.7230701
 0.7407907
 0.7522968
 0.7675063
 0.7839604
 0.8014604
 0.8152387
 0.8036112
 0.4935816
 0.4821008
 0.473927
 0.4146719
 0.408636
 0.4025838
 0.3965454
 0.39049
 0.3844482
 0.3619763
 0.339499
 0.3169869
 0.2944721
 0.2719252
 0.2493782
 0.2268016
 0.2042275
 0.1816263
 0.1590302
 0.1218058
 0.08457801
 0.02836149
-0.08700597
-0.2022601
-0.3171996
-0.4316836
-0.5453734
-0.650282
-0.7045785
-0.7273879
-0.7408823
-0.7648548
-0.7789763
-0.7946114
-0.8105939
-0.8144671
-0.7879814
 0.8637823
 0.7265355
 0.7283604
 0.7294785
 0.7305521
 0.7322546
 0.738401
 0.7435901
 0.7543436
 0.7724917
 0.789843
 0.8076066
 0.8161236
 0.7851088
-0.6341317
-0.6417941
-0.6524459
-0.6577874
-0.6628622
-0.6738768
-0.6922845
-0.7147047
-0.7343833
-0.7466677
-0.761512
-0.776877
-0.7940818
-0.8106557
-0.8142714
-0.7862295
-0.001354631
 0.00811097
 0.01751115
 0.02331333
 0.02905011
 0.2733144
 0.3960176
 0.5180657
 0.6347274
 0.7012262
 0.7268793
 0.7413281
 0.7591539
 0.7708714
 0.7873143
 0.8049593
 0.8161475
 0.7942365
-0.2206584
-0.2314527
-0.2423096
-0.2491921
-0.2561388
-0.2716543
-0.3211807
-0.3705532
-0.4198885
-0.4690375
-0.5180869
-0.5666931
-0.6137908
-0.6546003
-0.6833463
-0.7173292
-0.7344562
-0.7587976
-0.7729407
-0.7872219
-0.8040285
-0.8160624
-0.7986637
-0.1818922
-0.1680555
-0.1590057
-0.1527922
-0.1465121
-0.1321369
-0.1176926
-0.0129641
 0.09184617
 0.1964784
 0.356608
 0.5156021
 0.6608439
 0.7183524
 0.7399603
 0.7529573
 0.7705105
 0.7822321
 0.8002222
 0.8144368
 0.8089933
 0.7542447
-0.9248295
-0.7345083
-0.7355945
-0.7366647
-0.7374492
-0.7382331
-0.7421654
-0.7456961
-0.7520122
-0.7624219
-0.7769868
-0.7982346
-0.8099651
-0.814521
-0.7868383
-40.77764E-6
</dep>
<dep _net2.Vt time>
 0.
-0.7834813
-0.8130509
-0.7989295
 0.5003056
 0.519453
 0.5315006
 0.5393963
 0.547277
 0.5739901
 0.6001734
 0.6386542
 0.6692223
 0.7021486
 0.7200728
 0.7370757
 0.7533937
 0.7643846
 0.7808812
 0.798544
 0.8138887
 0.8087279
 0.7428792
-1.181339
-0.756903
-0.7574587
-0.7580186
-0.7585568
-0.7590993
-0.7617452
-0.7642163
-0.7692197
-0.7777473
-0.7908881
-0.8075525
-0.8159476
-0.7737316
 1.218186
 0.7593692
 0.7600405
 0.7605507
 0.7610565
 0.7615522
 0.7657054
 0.7694214
 0.7783093
 0.7941445
 0.8159053
 0.8046633
 0.723121
-1.178032
-0.7566354
-0.7571448
-0.75766
-0.7581546
-0.7586551
-0.7611339
-0.7634604
-0.768215
-0.7764059
-0.7892093
-0.8057724
-0.816242
-0.7830628
 0.9232376
 0.7347526
 0.7362857
 0.7371974
 0.7381
 0.7395211
 0.7441558
 0.7482138
 0.7564822
 0.7692059
 0.7883961
 0.8054
 0.8162422
 0.804357
-0.009502888
-0.02710978
-0.03685095
-0.0437758
-0.05055301
-0.247502
-0.3487745
-0.4497888
-0.5499727
-0.6436104
-0.6978265
-0.7217742
-0.735757
-0.7544339
-0.7664365
-0.7825943
-0.7998307
-0.8146748
-0.8065776
-0.7116601
 0.2160427
 0.223869
 0.2318392
 0.2396623
 0.244941
 0.2561039
 0.2822408
 0.3082109
 0.3506973
 0.3929671
 0.4353015
 0.4773957
 0.5195045
 0.5611932
 0.6021024
 0.6395789
 0.6694404
 0.7018141
 0.7196252
 0.736788
 0.7532942
 0.7643611
 0.7809895
 0.7983032
 0.813904
 0.8092199
 0.750587
-1.046891
-0.7469177
-0.7476801
-0.7484256
-0.7491549
-0.7498689
-0.7565432
-0.7653614
-0.7792384
-0.803931
-0.8146288
-0.8055926
-0.6381712
-0.6274533
-0.6173565
-0.5822156
