<Qucs Dataset>
default plugins: ignored
;: already installed, replacing
stashing as ;:0
*: already installed, replacing
stashing as *:0
': already installed, replacing
stashing as ':0
": already installed, replacing
stashing as ":0
store: already installed, replacing
stashing as store:0
alarm: already installed, replacing
stashing as alarm:0
iplot: already installed, replacing
stashing as iplot:0
plot: already installed, replacing
stashing as plot:0
iprint: already installed, replacing
stashing as iprint:0
print: already installed, replacing
stashing as print:0
probe: already installed, replacing
stashing as probe:0
L: already installed, replacing
stashing as L:0
.SP:SPTC1 Type= ... ="1e10" Points="10" Noise="no" NoiseIP="1" NoiseOP="2" s
                                        ^ ? what's this (incomplete)?
# Eqn:Eqn1 reflect="dB(S[1,1])" isolated="dB(S[3,1])" through="dB(S[2,
^ ? # Eqn: no match
Gnucap   System status
iterations: op=3, dc=0, tran=0, fourier=0, total=23
transient timesteps: accepted=0, rejected=0, total=0
transient timesteps: accepted=0, rejected=0, total=0
nodes: user=4, subckt=4, model=0, total=8
dctran density=62.5%, ac density=62.5%

<indep frequency 10>
 100.E+6
 1.2E+9
 2.3E+9
 3.4E+9
 4.5E+9
 5.6E+9
 6.7E+9
 7.8E+9
 8.9E+9
 10.E+9
</indep>
<dep S[1,1] frequency>
-0.2002393- 0.00193034* i
-0.216593- 0.006685937* i
-0.2118687+ 0.009276882* i
-0.20098- 0.003608944* i
-0.2175739- 0.005244953* i
-0.2101144+ 0.009387939* i
-0.2019123- 0.005137982* i
-0.2183055- 0.003696098* i
-0.2083807+ 0.009203443* i
-0.2030841- 0.006460359* i
</dep>
<dep S[1,2] frequency>
 0.7949838- 0.07848117* i
 0.3039113- 0.732877* i
-0.4994955- 0.6154768* i
-0.7786323+ 0.1512612* i
-0.2334783+ 0.7540747* i
 0.552509+ 0.5642907* i
 0.7582515- 0.2224167* i
 0.1620304- 0.7697765* i
-0.6009782- 0.5090596* i
-0.7319095+ 0.2912646* i
</dep>
<dep S[1,3] frequency>
 225.1857E-6+ 312.0073E-6* i
 0.002384664- 0.002689746* i
-0.003001966- 0.0011341* i
-0.00115891- 406.9643E-6* i
-0.002080261+ 0.003610969* i
 0.003180699+ 919.3468E-6* i
 0.001771691+ 400.4456E-6* i
 0.001565474- 0.004293702* i
-0.003235337- 653.9396E-6* i
-0.0023406- 263.4957E-6* i
</dep>
<dep S[1,4] frequency>
 0.001230173+ 0.01082063* i
 0.0942476+ 0.03881355* i
 0.06674649- 0.05348372* i
 0.004927368+ 0.02042012* i
 0.1002958+ 0.03068314* i
 0.05664257- 0.05419624* i
 0.009947282+ 0.02924057* i
 0.1048477+ 0.0217389* i
 0.04663826- 0.05314127* i
 0.01641045+ 0.03696705* i
</dep>
<dep S[2,1] frequency>
 0.7949838- 0.07848117* i
 0.3039113- 0.732877* i
-0.4994955- 0.6154768* i
-0.7786323+ 0.1512612* i
-0.2334783+ 0.7540747* i
 0.552509+ 0.5642907* i
 0.7582515- 0.2224167* i
 0.1620304- 0.7697765* i
-0.6009782- 0.5090596* i
-0.7319095+ 0.2912646* i
</dep>
<dep S[2,2] frequency>
-0.1959124+ 0.03609386* i
 0.1127393+ 0.1278607* i
 0.02229665- 0.1769264* i
-0.183707+ 0.06815787* i
 0.1326394+ 0.1010698* i
-0.01112976- 0.179656* i
-0.1669428+ 0.0975865* i
 0.1476054+ 0.0715993* i
-0.04435645- 0.1764936* i
-0.1453226+ 0.1233173* i
</dep>
<dep S[2,3] frequency>
 0.001482124+ 0.0134519* i
 0.1176908+ 0.04881949* i
 0.08306913- 0.0671193* i
 0.005884903+ 0.02546647* i
 0.1254434+ 0.03868951* i
 0.07039328- 0.06804333* i
 0.01203793+ 0.03653781* i
 0.1312939+ 0.02745889* i
 0.05783467- 0.066723* i
 0.02002786+ 0.04627656* i
</dep>
<dep S[2,4] frequency>
-290.8588E-6- 0.002267671* i
-0.01475254+ 0.01449225* i
 0.0168814+ 0.003109169* i
 720.0881E-6+ 0.004224953* i
 0.01185523- 0.01680925* i
-0.01531397+ 471.8377E-6* i
-0.002182698- 0.005729786* i
-0.008511239+ 0.0186569* i
 0.01314369- 0.003331863* i
 0.004201735+ 0.006617256* i
</dep>
<dep S[3,1] frequency>
 225.1857E-6+ 312.0073E-6* i
 0.002384664- 0.002689746* i
-0.003001966- 0.0011341* i
-0.00115891- 406.9643E-6* i
-0.002080261+ 0.003610969* i
 0.003180699+ 919.3468E-6* i
 0.001771691+ 400.4456E-6* i
 0.001565474- 0.004293702* i
-0.003235337- 653.9396E-6* i
-0.0023406- 263.4957E-6* i
</dep>
<dep S[3,2] frequency>
 0.001482124+ 0.0134519* i
 0.1176908+ 0.04881949* i
 0.08306913- 0.0671193* i
 0.005884903+ 0.02546647* i
 0.1254434+ 0.03868951* i
 0.07039328- 0.06804333* i
 0.01203793+ 0.03653781* i
 0.1312939+ 0.02745889* i
 0.05783467- 0.066723* i
 0.02002786+ 0.04627656* i
</dep>
<dep S[3,3] frequency>
-375.619E-6- 0.003015748* i
-0.02581381- 0.01033524* i
-0.01852023+ 0.01438595* i
-0.001537509- 0.00563581* i
-0.02731976- 0.008101276* i
-0.01579951+ 0.01457441* i
-0.002999952- 0.008018932* i
-0.02844125- 0.005705464* i
-0.01310482+ 0.01430391* i
-0.004836302- 0.01007522* i
</dep>
<dep S[3,4] frequency>
 0.9935969- 0.09869433* i
 0.3759312- 0.9121019* i
-0.6197617- 0.7683195* i
-0.9727788+ 0.1901234* i
-0.2886258+ 0.9378228* i
 0.6863263+ 0.7051855* i
 0.9467982- 0.2793915* i
 0.2002071- 0.9568483* i
-0.7473758- 0.6368503* i
-0.9132597+ 0.3656005* i
</dep>
<dep S[4,1] frequency>
 0.001230173+ 0.01082063* i
 0.0942476+ 0.03881355* i
 0.06674649- 0.05348372* i
 0.004927368+ 0.02042012* i
 0.1002958+ 0.03068314* i
 0.05664257- 0.05419624* i
 0.009947282+ 0.02924057* i
 0.1048477+ 0.0217389* i
 0.04663826- 0.05314127* i
 0.01641045+ 0.03696705* i
</dep>
<dep S[4,2] frequency>
-290.8588E-6- 0.002267671* i
-0.01475254+ 0.01449225* i
 0.0168814+ 0.003109169* i
 720.0881E-6+ 0.004224953* i
 0.01185523- 0.01680925* i
-0.01531397+ 471.8377E-6* i
-0.002182698- 0.005729786* i
-0.008511239+ 0.0186569* i
 0.01314369- 0.003331863* i
 0.004201735+ 0.006617256* i
</dep>
<dep S[4,3] frequency>
 0.9935969- 0.09869433* i
 0.3759312- 0.9121019* i
-0.6197617- 0.7683195* i
-0.9727788+ 0.1901234* i
-0.2886258+ 0.9378228* i
 0.6863263+ 0.7051855* i
 0.9467982- 0.2793915* i
 0.2002071- 0.9568483* i
-0.7473758- 0.6368503* i
-0.9132597+ 0.3656005* i
</dep>
<dep S[4,4] frequency>
-339.5248E-6- 0.003024045* i
-0.02811217- 0.01260896* i
-0.01902071+ 0.01660954* i
-0.00141453- 0.005698521* i
-0.03015934- 0.01001418* i
-0.01588669+ 0.01648856* i
-0.002763185- 0.00820055* i
-0.03171679- 0.007122323* i
-0.01290389+ 0.01585077* i
-0.004492814- 0.01045432* i
</dep>
#Freq                      vr(_net0)                 vr(_net1)                 vr(_net2)                 vr(_net3)                 vi(_net0)                 vi(_net1)                 vi(_net2)                 vi(_net3)                
 10.E+9                   -0.79076209581287004724   -1.4699750323615785596    -0.99591293463158443444   -1.0285970901476821914    -3.2150779364673316429    -4.6747571395415103978    -4.0153835785053022533    -3.9873050929201280467    
 119.99999999999999644E+9 -7.4604082702305074548    -11.305465463799388992    -9.3108293864036735243    -9.091604185286497497     -7.5350711738027484898    -7.9829354585197549454    -9.3448015211821662262    -9.0869536209319949904    
 230.00000000000002664E+9 -13.746030888181386409    -15.570797682840284537    -17.090783891910326097    -16.835527040076336824    -4.5337483669624143445    -2.8753444480365807578    -5.6429284460923305744    -5.7991094385131214394    
 340.00000000000003552E+9 -14.914905223781191878    -15.626103375357258684    -18.554840156829293107    -18.507837336465247091     1.6622678883413084527     0.90516164888103176622    2.071446965213836755      2.1776604977727482825    
 450.E+9                  -10.706091385967506646    -13.924900526349182072    -13.329844634115415313    -12.984730147050882465     6.3225770889834107535     5.3898525025422809875     7.8158605492407513537     7.7789412796736225885    
 560.00000000000005329E+9 -4.1627269509437336836    -6.5498998905925152058    -5.234064214416179972     -5.1757428552662538834     5.3141874432880475964     6.6763417397744735382     6.6164923308424494763     6.4667905174823570035    
 670.00000000000001776E+9 -1.778820553238325175     -2.597504387929043812     -2.2313974499953399543    -2.2107664905650254993    -1.07905151838226665      -1.5010300719443101513    -1.3502777932184319986    -1.3320039335669537905    
 780.00000000000007105E+9 -6.1445495057586825282    -9.1711202167714649391    -7.7095941312402915812    -7.5523294879827833625    -6.0138570766911758624    -6.8572417086351302728    -7.4605173037068635011    -7.2907690194733625332    
 890.00000000000003552E+9 -12.062085857450386416    -14.497070006702541533    -14.997127352040315884    -14.72482049750054589     -4.8575764387860385085    -3.7024686253975849226    -5.981728504651028011     -6.0735580900043064644    
 1.E+12                   -14.274602732803525206    -15.202740967568237451    -17.710743401437554211    -17.690747310381427226     0.23042650580447405772    0.13851635529951844461    0.28368339411360231849    0.2980281941775283272    
