<Qucs Dataset>
default plugins: ignored
;: already installed, replacing
stashing as ;:0
*: already installed, replacing
stashing as *:0
': already installed, replacing
stashing as ':0
": already installed, replacing
stashing as ":0
L: already installed, replacing
stashing as L:0
.SP:SPTC1 Type= ... ="1e10" Points="10" Noise="no" NoiseIP="1" NoiseOP="2" s
                                        ^ ? what's this (incomplete)?
# Eqn:Eqn1 reflect="dB(S[1,1])" isolated="dB(S[3,1])" through="dB(S[2,
^ ? # Eqn: no match
Gnucap   System status
iterations: op=3, dc=0, tran=0, fourier=0, total=23
transient timesteps: accepted=0, rejected=0, total=0
transient timesteps: accepted=0, rejected=0, total=0
nodes: user=4, subckt=4, model=0, total=8
dctran density=62.5%, ac density=62.5%

<indep frequency 10>
 100.E+6
 1.2E+9
 2.3E+9
 3.4E+9
 4.5E+9
 5.6E+9
 6.7E+9
 7.8E+9
 8.9E+9
 10.E+9
</indep>
<dep S[1,1] frequency>
-0.2002393- 0.00193034* i
-0.216593- 0.006685937* i
-0.2118687+ 0.009276882* i
-0.20098- 0.003608944* i
-0.2175739- 0.005244953* i
-0.2101144+ 0.009387939* i
-0.2019123- 0.005137982* i
-0.2183055- 0.003696098* i
-0.2083807+ 0.009203443* i
-0.2030841- 0.006460359* i
</dep>
<dep S[1,2] frequency>
 0.7949838- 0.07848117* i
 0.3039113- 0.732877* i
-0.4994955- 0.6154768* i
-0.7786323+ 0.1512612* i
-0.2334783+ 0.7540747* i
 0.552509+ 0.5642907* i
 0.7582515- 0.2224167* i
 0.1620304- 0.7697765* i
-0.6009782- 0.5090596* i
-0.7319095+ 0.2912646* i
</dep>
<dep S[1,3] frequency>
 225.1857E-6+ 312.0073E-6* i
 0.002384664- 0.002689746* i
-0.003001966- 0.0011341* i
-0.00115891- 406.9643E-6* i
-0.002080261+ 0.003610969* i
 0.003180699+ 919.3468E-6* i
 0.001771691+ 400.4456E-6* i
 0.001565474- 0.004293702* i
-0.003235337- 653.9396E-6* i
-0.0023406- 263.4957E-6* i
</dep>
<dep S[1,4] frequency>
 0.001230173+ 0.01082063* i
 0.0942476+ 0.03881355* i
 0.06674649- 0.05348372* i
 0.004927368+ 0.02042012* i
 0.1002958+ 0.03068314* i
 0.05664257- 0.05419624* i
 0.009947282+ 0.02924057* i
 0.1048477+ 0.0217389* i
 0.04663826- 0.05314127* i
 0.01641045+ 0.03696705* i
</dep>
<dep S[2,1] frequency>
 0.7949838- 0.07848117* i
 0.3039113- 0.732877* i
-0.4994955- 0.6154768* i
-0.7786323+ 0.1512612* i
-0.2334783+ 0.7540747* i
 0.552509+ 0.5642907* i
 0.7582515- 0.2224167* i
 0.1620304- 0.7697765* i
-0.6009782- 0.5090596* i
-0.7319095+ 0.2912646* i
</dep>
<dep S[2,2] frequency>
-0.1959124+ 0.03609386* i
 0.1127393+ 0.1278607* i
 0.02229665- 0.1769264* i
-0.183707+ 0.06815787* i
 0.1326394+ 0.1010698* i
-0.01112976- 0.179656* i
-0.1669428+ 0.0975865* i
 0.1476054+ 0.0715993* i
-0.04435645- 0.1764936* i
-0.1453226+ 0.1233173* i
</dep>
<dep S[2,3] frequency>
 0.001482124+ 0.0134519* i
 0.1176908+ 0.04881949* i
 0.08306913- 0.0671193* i
 0.005884903+ 0.02546647* i
 0.1254434+ 0.03868951* i
 0.07039328- 0.06804333* i
 0.01203793+ 0.03653781* i
 0.1312939+ 0.02745889* i
 0.05783467- 0.066723* i
 0.02002786+ 0.04627656* i
</dep>
<dep S[2,4] frequency>
-290.8588E-6- 0.002267671* i
-0.01475254+ 0.01449225* i
 0.0168814+ 0.003109169* i
 720.0881E-6+ 0.004224953* i
 0.01185523- 0.01680925* i
-0.01531397+ 471.8377E-6* i
-0.002182698- 0.005729786* i
-0.008511239+ 0.0186569* i
 0.01314369- 0.003331863* i
 0.004201735+ 0.006617256* i
</dep>
<dep S[3,1] frequency>
 225.1857E-6+ 312.0073E-6* i
 0.002384664- 0.002689746* i
-0.003001966- 0.0011341* i
-0.00115891- 406.9643E-6* i
-0.002080261+ 0.003610969* i
 0.003180699+ 919.3468E-6* i
 0.001771691+ 400.4456E-6* i
 0.001565474- 0.004293702* i
-0.003235337- 653.9396E-6* i
-0.0023406- 263.4957E-6* i
</dep>
<dep S[3,2] frequency>
 0.001482124+ 0.0134519* i
 0.1176908+ 0.04881949* i
 0.08306913- 0.0671193* i
 0.005884903+ 0.02546647* i
 0.1254434+ 0.03868951* i
 0.07039328- 0.06804333* i
 0.01203793+ 0.03653781* i
 0.1312939+ 0.02745889* i
 0.05783467- 0.066723* i
 0.02002786+ 0.04627656* i
</dep>
<dep S[3,3] frequency>
-375.619E-6- 0.003015748* i
-0.02581381- 0.01033524* i
-0.01852023+ 0.01438595* i
-0.001537509- 0.00563581* i
-0.02731976- 0.008101276* i
-0.01579951+ 0.01457441* i
-0.002999952- 0.008018932* i
-0.02844125- 0.005705464* i
-0.01310482+ 0.01430391* i
-0.004836302- 0.01007522* i
</dep>
<dep S[3,4] frequency>
 0.9935969- 0.09869433* i
 0.3759312- 0.9121019* i
-0.6197617- 0.7683195* i
-0.9727788+ 0.1901234* i
-0.2886258+ 0.9378228* i
 0.6863263+ 0.7051855* i
 0.9467982- 0.2793915* i
 0.2002071- 0.9568483* i
-0.7473758- 0.6368503* i
-0.9132597+ 0.3656005* i
</dep>
<dep S[4,1] frequency>
 0.001230173+ 0.01082063* i
 0.0942476+ 0.03881355* i
 0.06674649- 0.05348372* i
 0.004927368+ 0.02042012* i
 0.1002958+ 0.03068314* i
 0.05664257- 0.05419624* i
 0.009947282+ 0.02924057* i
 0.1048477+ 0.0217389* i
 0.04663826- 0.05314127* i
 0.01641045+ 0.03696705* i
</dep>
<dep S[4,2] frequency>
-290.8588E-6- 0.002267671* i
-0.01475254+ 0.01449225* i
 0.0168814+ 0.003109169* i
 720.0881E-6+ 0.004224953* i
 0.01185523- 0.01680925* i
-0.01531397+ 471.8377E-6* i
-0.002182698- 0.005729786* i
-0.008511239+ 0.0186569* i
 0.01314369- 0.003331863* i
 0.004201735+ 0.006617256* i
</dep>
<dep S[4,3] frequency>
 0.9935969- 0.09869433* i
 0.3759312- 0.9121019* i
-0.6197617- 0.7683195* i
-0.9727788+ 0.1901234* i
-0.2886258+ 0.9378228* i
 0.6863263+ 0.7051855* i
 0.9467982- 0.2793915* i
 0.2002071- 0.9568483* i
-0.7473758- 0.6368503* i
-0.9132597+ 0.3656005* i
</dep>
<dep S[4,4] frequency>
-339.5248E-6- 0.003024045* i
-0.02811217- 0.01260896* i
-0.01902071+ 0.01660954* i
-0.00141453- 0.005698521* i
-0.03015934- 0.01001418* i
-0.01588669+ 0.01648856* i
-0.002763185- 0.00820055* i
-0.03171679- 0.007122323* i
-0.01290389+ 0.01585077* i
-0.004492814- 0.01045432* i
</dep>
#Freq                      v(_net0)                  v(_net1)                  v(_net2)                  v(_net3)                 
 10.E+9                    3.3108957745198508426     4.9004266048437816749     4.1370457884698996764     4.1178409243057298994    
 119.99999999999999644E+9  10.603536634198842403     13.839826873485545633     13.191544994162232029     12.854181917605185248    
 230.00000000000002664E+9  14.474399449848382559     15.834056529354667119     17.99826479102081489      17.806309022281777032    
 340.00000000000003552E+9  15.007249327141403583     15.652297732536155194     18.670109420546488365     18.635510406656884185    
 450.E+9                   12.433638800078821162     14.931622975011156206     15.452263073570597917     15.136549951172568739    
 560.00000000000005329E+9  6.7504728612530309206     9.3527925029393585987     8.4364328341265775179     8.2829761378890527367    
 670.00000000000001776E+9  2.0805179018566932747     3.0000200536316046218     2.6081381671039869374     2.5810313742461628017    
 780.00000000000007105E+9  8.5977884114223144251     11.451253637969927012     10.728334451692127515     10.49728505806938994     
 890.00000000000003552E+9  13.003459696986563454     14.96239662291064576      16.146049198385044043     15.928227979165445304    
 1.E+12                    14.276462431356695681     15.203371984782294568     17.713015217620620589     17.693257506866633121    
