<Qucs Dataset>
default plugins: ignored
clear: already installed, replacing
stashing as clear:0
;: already installed, replacing
stashing as ;:0
*: already installed, replacing
stashing as *:0
': already installed, replacing
stashing as ':0
": already installed, replacing
stashing as ":0
# .SP:SPTC1 Type="lin" Start="0.2 GHz" Stop="4.2 GHz" Points="101" Noi
^ ? # .SP: no match
.SP:SPTC1 Type= ... p="4e9" Points="10" Noise="no" NoiseIP="1" NoiseOP="2" s
                                        ^ ? what's this (incomplete)?
# Eqn:Eqn1 reflect="dB(S[1,1])" isolated="dB(S[3,1])" through="dB(S[2,
^ ? # Eqn: no match
# R:R1 _net0 gnd R=100 
^ ? # R: no match
# .AC:SPTC1 Type="lin" Start="1e10" Stop="1e12" Points="10" 
^ ? # .AC: no match
Gnucap   System status
iterations: op=3, dc=0, tran=0, fourier=0, total=13
transient timesteps: accepted=0, rejected=0, total=0
transient timesteps: accepted=0, rejected=0, total=0
nodes: user=4, subckt=4, model=0, total=8
dctran density=62.5%, ac density=62.5%

<indep frequency 10>
 1.E+9
 1.333333E+9
 1.666667E+9
 2.E+9
 2.333333E+9
 2.666667E+9
 3.E+9
 3.333333E+9
 3.666667E+9
 4.E+9
</indep>
<dep S[1,1] frequency>
 0.01292715-j 777.3889E-6
 0.01405228-j 0.009548569
 0.009354785-j 0.01903581
-0.001139244-j 0.02576955
-0.01574521-j 0.02651182
-0.03106919-j 0.01876607
-0.04195189-j 0.001819794
-0.04238483+j 0.0216053
-0.02829758+j 0.04436615
-0.00124637+j 0.05679677
</dep>
<dep S[1,2] frequency>
 0.6671082-j 0.7012221
 0.459821-j 0.8359969
 0.2343429-j 0.9144374
 0.001738728-j 0.9393752
-0.2304327-j 0.912133
-0.4543542-j 0.8312792
-0.6583561-j 0.6943673
-0.8253519-j 0.5023035
-0.9352963-j 0.2645621
-0.9718859-j 0.001483802
</dep>
<dep S[1,3] frequency>
-0.03058424-j 0.02820055
-0.04708903-j 0.02522177
-0.06292797-j 0.01655276
-0.07747965-j 0.002523971
-0.08995686+j 0.01757067
-0.09820105+j 0.04495106
-0.09802978+j 0.07987611
-0.08395901+j 0.1195598
-0.05198785+j 0.1568649
-0.003348688+j 0.1819746
</dep>
<dep S[1,4] frequency>
 0.1669491+j 0.1568553
 0.2430064+j 0.1321766
 0.2959424+j 0.07500416
 0.3145247+j 685.9197E-6
 0.2953154-j 0.07305477
 0.2425561-j 0.1286652
 0.1682594-j 0.1514549
 0.09138119-j 0.133527
 0.03395954-j 0.07809387
 0.01367988-j 828.7423E-6
</dep>
<dep S[2,1] frequency>
 0.6671082-j 0.7012221
 0.459821-j 0.8359969
 0.2343429-j 0.9144374
 0.001738728-j 0.9393752
-0.2304327-j 0.912133
-0.4543542-j 0.8312792
-0.6583561-j 0.6943673
-0.8253519-j 0.5023035
-0.9352963-j 0.2645621
-0.9718859-j 0.001483802
</dep>
<dep S[2,2] frequency>
 0.01292715-j 777.3889E-6
 0.01405228-j 0.009548569
 0.009354785-j 0.01903581
-0.001139244-j 0.02576955
-0.01574521-j 0.02651182
-0.03106919-j 0.01876607
-0.04195189-j 0.001819794
-0.04238483+j 0.0216053
-0.02829758+j 0.04436615
-0.00124637+j 0.05679677
</dep>
<dep S[2,3] frequency>
 0.1669491+j 0.1568553
 0.2430064+j 0.1321766
 0.2959424+j 0.07500416
 0.3145247+j 685.9197E-6
 0.2953154-j 0.07305477
 0.2425561-j 0.1286652
 0.1682594-j 0.1514549
 0.09138119-j 0.133527
 0.03395954-j 0.07809387
 0.01367988-j 828.7423E-6
</dep>
<dep S[2,4] frequency>
-0.03058424-j 0.02820055
-0.04708903-j 0.02522177
-0.06292797-j 0.01655276
-0.07747965-j 0.002523971
-0.08995686+j 0.01757067
-0.09820105+j 0.04495106
-0.09802978+j 0.07987611
-0.08395901+j 0.1195598
-0.05198785+j 0.1568649
-0.003348688+j 0.1819746
</dep>
<dep S[3,1] frequency>
-0.03058424-j 0.02820055
-0.04708903-j 0.02522177
-0.06292797-j 0.01655276
-0.07747965-j 0.002523971
-0.08995686+j 0.01757067
-0.09820105+j 0.04495106
-0.09802978+j 0.07987611
-0.08395901+j 0.1195598
-0.05198785+j 0.1568649
-0.003348688+j 0.1819746
</dep>
<dep S[3,2] frequency>
 0.1669491+j 0.1568553
 0.2430064+j 0.1321766
 0.2959424+j 0.07500416
 0.3145247+j 685.9197E-6
 0.2953154-j 0.07305477
 0.2425561-j 0.1286652
 0.1682594-j 0.1514549
 0.09138119-j 0.133527
 0.03395954-j 0.07809387
 0.01367988-j 828.7423E-6
</dep>
<dep S[3,3] frequency>
 0.01292715-j 777.3889E-6
 0.01405228-j 0.009548569
 0.009354785-j 0.01903581
-0.001139244-j 0.02576955
-0.01574521-j 0.02651182
-0.03106919-j 0.01876607
-0.04195189-j 0.001819794
-0.04238483+j 0.0216053
-0.02829758+j 0.04436615
-0.00124637+j 0.05679677
</dep>
<dep S[3,4] frequency>
 0.6671082-j 0.7012221
 0.459821-j 0.8359969
 0.2343429-j 0.9144374
 0.001738728-j 0.9393752
-0.2304327-j 0.912133
-0.4543542-j 0.8312792
-0.6583561-j 0.6943673
-0.8253519-j 0.5023035
-0.9352963-j 0.2645621
-0.9718859-j 0.001483802
</dep>
<dep S[4,1] frequency>
 0.1669491+j 0.1568553
 0.2430064+j 0.1321766
 0.2959424+j 0.07500416
 0.3145247+j 685.9197E-6
 0.2953154-j 0.07305477
 0.2425561-j 0.1286652
 0.1682594-j 0.1514549
 0.09138119-j 0.133527
 0.03395954-j 0.07809387
 0.01367988-j 828.7423E-6
</dep>
<dep S[4,2] frequency>
-0.03058424-j 0.02820055
-0.04708903-j 0.02522177
-0.06292797-j 0.01655276
-0.07747965-j 0.002523971
-0.08995686+j 0.01757067
-0.09820105+j 0.04495106
-0.09802978+j 0.07987611
-0.08395901+j 0.1195598
-0.05198785+j 0.1568649
-0.003348688+j 0.1819746
</dep>
<dep S[4,3] frequency>
 0.6671082-j 0.7012221
 0.459821-j 0.8359969
 0.2343429-j 0.9144374
 0.001738728-j 0.9393752
-0.2304327-j 0.912133
-0.4543542-j 0.8312792
-0.6583561-j 0.6943673
-0.8253519-j 0.5023035
-0.9352963-j 0.2645621
-0.9718859-j 0.001483802
</dep>
<dep S[4,4] frequency>
 0.01292715-j 777.3889E-6
 0.01405228-j 0.009548569
 0.009354785-j 0.01903581
-0.001139244-j 0.02576955
-0.01574521-j 0.02651182
-0.03106919-j 0.01876607
-0.04195189-j 0.001819794
-0.04238483+j 0.0216053
-0.02829758+j 0.04436615
-0.00124637+j 0.05679677
</dep>
