<Qucs Dataset>
default plugins: ignored
;: already installed, replacing
stashing as ;:0
*: already installed, replacing
stashing as *:0
': already installed, replacing
stashing as ':0
": already installed, replacing
stashing as ":0
store: already installed, replacing
stashing as store:0
alarm: already installed, replacing
stashing as alarm:0
iplot: already installed, replacing
stashing as iplot:0
plot: already installed, replacing
stashing as plot:0
iprint: already installed, replacing
stashing as iprint:0
print: already installed, replacing
stashing as print:0
probe: already installed, replacing
stashing as probe:0
d: already installed, replacing
stashing as d:0
diode: already installed, replacing
stashing as diode:0
npn: already installed, replacing
stashing as npn:0
pnp: already installed, replacing
stashing as pnp:0
npn1: already installed, replacing
stashing as npn1:0
pnp1: already installed, replacing
stashing as pnp1:0
Q: already installed, replacing
stashing as Q:0
bjt: already installed, replacing
stashing as bjt:0
L: already installed, replacing
stashing as L:0
# .SP:SPTC1 Type="lin" Start="0.2 GHz" Stop="4.2 GHz" Points="101" Noi
^ ? # .SP: no match
.SP:SPTC1 Type= ... p="4e9" Points="10" Noise="no" NoiseIP="1" NoiseOP="2" s
                                        ^ ? what's this (incomplete)?
# Eqn:Eqn1 reflect="dB(S[1,1])" isolated="dB(S[3,1])" through="dB(S[2,
^ ? # Eqn: no match
# R:R1 _net0 gnd R=100 
^ ? # R: no match
# .AC:SPTC1 Type="lin" Start="1e10" Stop="1e12" Points="10" 
^ ? # .AC: no match
Gnucap   System status
iterations: op=3, dc=0, tran=0, fourier=0, total=13
transient timesteps: accepted=0, rejected=0, total=0
transient timesteps: accepted=0, rejected=0, total=0
nodes: user=4, subckt=4, model=0, total=8
dctran density=62.5%, ac density=62.5%

<indep frequency 10>
 1.E+9
 1.333333E+9
 1.666667E+9
 2.E+9
 2.333333E+9
 2.666667E+9
 3.E+9
 3.333333E+9
 3.666667E+9
 4.E+9
</indep>
<dep S[1,1] frequency>
 0.01292715- 777.3889E-6* i
 0.01405228- 0.009548569* i
 0.009354785- 0.01903581* i
-0.001139244- 0.02576955* i
-0.01574521- 0.02651182* i
-0.03106919- 0.01876607* i
-0.04195189- 0.001819794* i
-0.04238483+ 0.0216053* i
-0.02829758+ 0.04436615* i
-0.00124637+ 0.05679677* i
</dep>
<dep S[1,2] frequency>
 0.6671082- 0.7012221* i
 0.459821- 0.8359969* i
 0.2343429- 0.9144374* i
 0.001738728- 0.9393752* i
-0.2304327- 0.912133* i
-0.4543542- 0.8312792* i
-0.6583561- 0.6943673* i
-0.8253519- 0.5023035* i
-0.9352963- 0.2645621* i
-0.9718859- 0.001483802* i
</dep>
<dep S[1,3] frequency>
-0.03058424- 0.02820055* i
-0.04708903- 0.02522177* i
-0.06292797- 0.01655276* i
-0.07747965- 0.002523971* i
-0.08995686+ 0.01757067* i
-0.09820105+ 0.04495106* i
-0.09802978+ 0.07987611* i
-0.08395901+ 0.1195598* i
-0.05198785+ 0.1568649* i
-0.003348688+ 0.1819746* i
</dep>
<dep S[1,4] frequency>
 0.1669491+ 0.1568553* i
 0.2430064+ 0.1321766* i
 0.2959424+ 0.07500416* i
 0.3145247+ 685.9197E-6* i
 0.2953154- 0.07305477* i
 0.2425561- 0.1286652* i
 0.1682594- 0.1514549* i
 0.09138119- 0.133527* i
 0.03395954- 0.07809387* i
 0.01367988- 828.7423E-6* i
</dep>
<dep S[2,1] frequency>
 0.6671082- 0.7012221* i
 0.459821- 0.8359969* i
 0.2343429- 0.9144374* i
 0.001738728- 0.9393752* i
-0.2304327- 0.912133* i
-0.4543542- 0.8312792* i
-0.6583561- 0.6943673* i
-0.8253519- 0.5023035* i
-0.9352963- 0.2645621* i
-0.9718859- 0.001483802* i
</dep>
<dep S[2,2] frequency>
 0.01292715- 777.3889E-6* i
 0.01405228- 0.009548569* i
 0.009354785- 0.01903581* i
-0.001139244- 0.02576955* i
-0.01574521- 0.02651182* i
-0.03106919- 0.01876607* i
-0.04195189- 0.001819794* i
-0.04238483+ 0.0216053* i
-0.02829758+ 0.04436615* i
-0.00124637+ 0.05679677* i
</dep>
<dep S[2,3] frequency>
 0.1669491+ 0.1568553* i
 0.2430064+ 0.1321766* i
 0.2959424+ 0.07500416* i
 0.3145247+ 685.9197E-6* i
 0.2953154- 0.07305477* i
 0.2425561- 0.1286652* i
 0.1682594- 0.1514549* i
 0.09138119- 0.133527* i
 0.03395954- 0.07809387* i
 0.01367988- 828.7423E-6* i
</dep>
<dep S[2,4] frequency>
-0.03058424- 0.02820055* i
-0.04708903- 0.02522177* i
-0.06292797- 0.01655276* i
-0.07747965- 0.002523971* i
-0.08995686+ 0.01757067* i
-0.09820105+ 0.04495106* i
-0.09802978+ 0.07987611* i
-0.08395901+ 0.1195598* i
-0.05198785+ 0.1568649* i
-0.003348688+ 0.1819746* i
</dep>
<dep S[3,1] frequency>
-0.03058424- 0.02820055* i
-0.04708903- 0.02522177* i
-0.06292797- 0.01655276* i
-0.07747965- 0.002523971* i
-0.08995686+ 0.01757067* i
-0.09820105+ 0.04495106* i
-0.09802978+ 0.07987611* i
-0.08395901+ 0.1195598* i
-0.05198785+ 0.1568649* i
-0.003348688+ 0.1819746* i
</dep>
<dep S[3,2] frequency>
 0.1669491+ 0.1568553* i
 0.2430064+ 0.1321766* i
 0.2959424+ 0.07500416* i
 0.3145247+ 685.9197E-6* i
 0.2953154- 0.07305477* i
 0.2425561- 0.1286652* i
 0.1682594- 0.1514549* i
 0.09138119- 0.133527* i
 0.03395954- 0.07809387* i
 0.01367988- 828.7423E-6* i
</dep>
<dep S[3,3] frequency>
 0.01292715- 777.3889E-6* i
 0.01405228- 0.009548569* i
 0.009354785- 0.01903581* i
-0.001139244- 0.02576955* i
-0.01574521- 0.02651182* i
-0.03106919- 0.01876607* i
-0.04195189- 0.001819794* i
-0.04238483+ 0.0216053* i
-0.02829758+ 0.04436615* i
-0.00124637+ 0.05679677* i
</dep>
<dep S[3,4] frequency>
 0.6671082- 0.7012221* i
 0.459821- 0.8359969* i
 0.2343429- 0.9144374* i
 0.001738728- 0.9393752* i
-0.2304327- 0.912133* i
-0.4543542- 0.8312792* i
-0.6583561- 0.6943673* i
-0.8253519- 0.5023035* i
-0.9352963- 0.2645621* i
-0.9718859- 0.001483802* i
</dep>
<dep S[4,1] frequency>
 0.1669491+ 0.1568553* i
 0.2430064+ 0.1321766* i
 0.2959424+ 0.07500416* i
 0.3145247+ 685.9197E-6* i
 0.2953154- 0.07305477* i
 0.2425561- 0.1286652* i
 0.1682594- 0.1514549* i
 0.09138119- 0.133527* i
 0.03395954- 0.07809387* i
 0.01367988- 828.7423E-6* i
</dep>
<dep S[4,2] frequency>
-0.03058424- 0.02820055* i
-0.04708903- 0.02522177* i
-0.06292797- 0.01655276* i
-0.07747965- 0.002523971* i
-0.08995686+ 0.01757067* i
-0.09820105+ 0.04495106* i
-0.09802978+ 0.07987611* i
-0.08395901+ 0.1195598* i
-0.05198785+ 0.1568649* i
-0.003348688+ 0.1819746* i
</dep>
<dep S[4,3] frequency>
 0.6671082- 0.7012221* i
 0.459821- 0.8359969* i
 0.2343429- 0.9144374* i
 0.001738728- 0.9393752* i
-0.2304327- 0.912133* i
-0.4543542- 0.8312792* i
-0.6583561- 0.6943673* i
-0.8253519- 0.5023035* i
-0.9352963- 0.2645621* i
-0.9718859- 0.001483802* i
</dep>
<dep S[4,4] frequency>
 0.01292715- 777.3889E-6* i
 0.01405228- 0.009548569* i
 0.009354785- 0.01903581* i
-0.001139244- 0.02576955* i
-0.01574521- 0.02651182* i
-0.03106919- 0.01876607* i
-0.04195189- 0.001819794* i
-0.04238483+ 0.0216053* i
-0.02829758+ 0.04436615* i
-0.00124637+ 0.05679677* i
</dep>
