<Qucs Dataset 0.0.20>
<indep frequency 10>
  +1.00000000000000000000e+09
  +1.33333333333333325386e+09
  +1.66666666666666650772e+09
  +2.00000000000000000000e+09
  +2.33333333333333301544e+09
  +2.66666666666666650772e+09
  +3.00000000000000000000e+09
  +3.33333333333333301544e+09
  +3.66666666666666650772e+09
  +4.00000000000000000000e+09
</indep>
<dep S[1,1] frequency>
  +1.29271526939703368386e-02-j7.77388917752863672916e-04
  +1.40522828028334101358e-02-j9.54856861798615563774e-03
  +9.35478464355610217495e-03-j1.90358143489791874214e-02
  -1.13924411901358824117e-03-j2.57695536580355502587e-02
  -1.57452101970638747019e-02-j2.65118183135997324829e-02
  -3.10691871073014297400e-02-j1.87660679603171218210e-02
  -4.19518904189944141780e-02-j1.81979435635128139470e-03
  -4.23848290785356560106e-02+j2.16053018415384226469e-02
  -2.82975850663168999877e-02+j4.43661463989340615344e-02
  -1.24636966666685257421e-03+j5.67967659303551808403e-02
</dep>
<dep S[1,4] frequency>
  +1.66949084966087124560e-01+j1.56855289926786101162e-01
  +2.43006436304904455126e-01+j1.32176565543078439191e-01
  +2.95942388696652847191e-01+j7.50041572535793676924e-02
  +3.14524667876587282755e-01+j6.85919663341080093621e-04
  +2.95315406132838131903e-01-j7.30547731946688955196e-02
  +2.42556066082781518478e-01-j1.28665169823841712970e-01
  +1.68259367349591709706e-01-j1.51454944128759594335e-01
  +9.13811901713646179690e-02-j1.33526969747763624152e-01
  +3.39595412580053351848e-02-j7.80938729116324586998e-02
  +1.36798836352475233075e-02-j8.28742331304314211460e-04
</dep>
<dep S[1,3] frequency>
  -3.05842411376670009204e-02-j2.82005500105163009472e-02
  -4.70890344355104073504e-02-j2.52217692995989062332e-02
  -6.29279740400578019299e-02-j1.65527594295958868642e-02
  -7.74796533817633664709e-02-j2.52397122952924268802e-03
  -8.99568603741957018016e-02+j1.75706682124066593254e-02
  -9.82010481577198501846e-02+j4.49510620378540393105e-02
  -9.80297849767073348204e-02+j7.98761114517805292934e-02
  -8.39590093018203198483e-02+j1.19559828316041782958e-01
  -5.19878545739919650792e-02+j1.56864910018961883909e-01
  -3.34868796263393386781e-03+j1.81974629278217669981e-01
</dep>
<dep S[1,2] frequency>
  +6.67108200876825541137e-01-j7.01222053972381464959e-01
  +4.59820973940742505626e-01-j8.35996915195514000985e-01
  +2.34342861298289850680e-01-j9.14437356364113385077e-01
  +1.73872819448299409384e-03-j9.39375201452622210496e-01
  -2.30432698187131357326e-01-j9.12133039135016865373e-01
  -4.54354186357927736228e-01-j8.31279165541605080669e-01
  -6.58356087598381378712e-01-j6.94367328506679926114e-01
  -8.25351858321846654221e-01-j5.02303499549825227533e-01
  -9.35296336289254570673e-01-j2.64562092450209895844e-01
  -9.71885886293376133338e-01-j1.48380158634517367311e-03
</dep>
<dep S[4,1] frequency>
  +1.66949084966087124560e-01+j1.56855289926786101162e-01
  +2.43006436304904455126e-01+j1.32176565543078439191e-01
  +2.95942388696652847191e-01+j7.50041572535793676924e-02
  +3.14524667876587282755e-01+j6.85919663341080093621e-04
  +2.95315406132838131903e-01-j7.30547731946688955196e-02
  +2.42556066082781518478e-01-j1.28665169823841712970e-01
  +1.68259367349591709706e-01-j1.51454944128759594335e-01
  +9.13811901713646179690e-02-j1.33526969747763624152e-01
  +3.39595412580053351848e-02-j7.80938729116324586998e-02
  +1.36798836352475233075e-02-j8.28742331304314211460e-04
</dep>
<dep S[4,4] frequency>
  +1.29271526939703368386e-02-j7.77388917752863672916e-04
  +1.40522828028334101358e-02-j9.54856861798615563774e-03
  +9.35478464355610217495e-03-j1.90358143489791874214e-02
  -1.13924411901358824117e-03-j2.57695536580355502587e-02
  -1.57452101970638747019e-02-j2.65118183135997324829e-02
  -3.10691871073014297400e-02-j1.87660679603171218210e-02
  -4.19518904189944141780e-02-j1.81979435635128139470e-03
  -4.23848290785356560106e-02+j2.16053018415384226469e-02
  -2.82975850663168999877e-02+j4.43661463989340615344e-02
  -1.24636966666685257421e-03+j5.67967659303551808403e-02
</dep>
<dep S[4,3] frequency>
  +6.67108200876825541137e-01-j7.01222053972381464959e-01
  +4.59820973940742505626e-01-j8.35996915195514000985e-01
  +2.34342861298289850680e-01-j9.14437356364113385077e-01
  +1.73872819448299409384e-03-j9.39375201452622210496e-01
  -2.30432698187131357326e-01-j9.12133039135016865373e-01
  -4.54354186357927736228e-01-j8.31279165541605080669e-01
  -6.58356087598381378712e-01-j6.94367328506679926114e-01
  -8.25351858321846654221e-01-j5.02303499549825227533e-01
  -9.35296336289254570673e-01-j2.64562092450209895844e-01
  -9.71885886293376133338e-01-j1.48380158634517367311e-03
</dep>
<dep S[4,2] frequency>
  -3.05842411376670009204e-02-j2.82005500105163009472e-02
  -4.70890344355104073504e-02-j2.52217692995989062332e-02
  -6.29279740400578019299e-02-j1.65527594295958868642e-02
  -7.74796533817633664709e-02-j2.52397122952924268802e-03
  -8.99568603741957018016e-02+j1.75706682124066593254e-02
  -9.82010481577198501846e-02+j4.49510620378540393105e-02
  -9.80297849767073348204e-02+j7.98761114517805292934e-02
  -8.39590093018203198483e-02+j1.19559828316041782958e-01
  -5.19878545739919650792e-02+j1.56864910018961883909e-01
  -3.34868796263393386781e-03+j1.81974629278217669981e-01
</dep>
<dep S[3,1] frequency>
  -3.05842411376670009204e-02-j2.82005500105163009472e-02
  -4.70890344355104073504e-02-j2.52217692995989062332e-02
  -6.29279740400578019299e-02-j1.65527594295958868642e-02
  -7.74796533817633664709e-02-j2.52397122952924268802e-03
  -8.99568603741957018016e-02+j1.75706682124066593254e-02
  -9.82010481577198501846e-02+j4.49510620378540393105e-02
  -9.80297849767073348204e-02+j7.98761114517805292934e-02
  -8.39590093018203198483e-02+j1.19559828316041782958e-01
  -5.19878545739919650792e-02+j1.56864910018961883909e-01
  -3.34868796263393386781e-03+j1.81974629278217669981e-01
</dep>
<dep S[3,4] frequency>
  +6.67108200876825541137e-01-j7.01222053972381464959e-01
  +4.59820973940742505626e-01-j8.35996915195514000985e-01
  +2.34342861298289850680e-01-j9.14437356364113385077e-01
  +1.73872819448299409384e-03-j9.39375201452622210496e-01
  -2.30432698187131357326e-01-j9.12133039135016865373e-01
  -4.54354186357927736228e-01-j8.31279165541605080669e-01
  -6.58356087598381378712e-01-j6.94367328506679926114e-01
  -8.25351858321846654221e-01-j5.02303499549825227533e-01
  -9.35296336289254570673e-01-j2.64562092450209895844e-01
  -9.71885886293376133338e-01-j1.48380158634517367311e-03
</dep>
<dep S[3,3] frequency>
  +1.29271526939703368386e-02-j7.77388917752863672916e-04
  +1.40522828028334101358e-02-j9.54856861798615563774e-03
  +9.35478464355610217495e-03-j1.90358143489791874214e-02
  -1.13924411901358824117e-03-j2.57695536580355502587e-02
  -1.57452101970638747019e-02-j2.65118183135997324829e-02
  -3.10691871073014297400e-02-j1.87660679603171218210e-02
  -4.19518904189944141780e-02-j1.81979435635128139470e-03
  -4.23848290785356560106e-02+j2.16053018415384226469e-02
  -2.82975850663168999877e-02+j4.43661463989340615344e-02
  -1.24636966666685257421e-03+j5.67967659303551808403e-02
</dep>
<dep S[3,2] frequency>
  +1.66949084966087124560e-01+j1.56855289926786101162e-01
  +2.43006436304904455126e-01+j1.32176565543078439191e-01
  +2.95942388696652847191e-01+j7.50041572535793676924e-02
  +3.14524667876587282755e-01+j6.85919663341080093621e-04
  +2.95315406132838131903e-01-j7.30547731946688955196e-02
  +2.42556066082781518478e-01-j1.28665169823841712970e-01
  +1.68259367349591709706e-01-j1.51454944128759594335e-01
  +9.13811901713646179690e-02-j1.33526969747763624152e-01
  +3.39595412580053351848e-02-j7.80938729116324586998e-02
  +1.36798836352475233075e-02-j8.28742331304314211460e-04
</dep>
<dep S[2,1] frequency>
  +6.67108200876825541137e-01-j7.01222053972381464959e-01
  +4.59820973940742505626e-01-j8.35996915195514000985e-01
  +2.34342861298289850680e-01-j9.14437356364113385077e-01
  +1.73872819448299409384e-03-j9.39375201452622210496e-01
  -2.30432698187131357326e-01-j9.12133039135016865373e-01
  -4.54354186357927736228e-01-j8.31279165541605080669e-01
  -6.58356087598381378712e-01-j6.94367328506679926114e-01
  -8.25351858321846654221e-01-j5.02303499549825227533e-01
  -9.35296336289254570673e-01-j2.64562092450209895844e-01
  -9.71885886293376133338e-01-j1.48380158634517367311e-03
</dep>
<dep S[2,4] frequency>
  -3.05842411376670009204e-02-j2.82005500105163009472e-02
  -4.70890344355104073504e-02-j2.52217692995989062332e-02
  -6.29279740400578019299e-02-j1.65527594295958868642e-02
  -7.74796533817633664709e-02-j2.52397122952924268802e-03
  -8.99568603741957018016e-02+j1.75706682124066593254e-02
  -9.82010481577198501846e-02+j4.49510620378540393105e-02
  -9.80297849767073348204e-02+j7.98761114517805292934e-02
  -8.39590093018203198483e-02+j1.19559828316041782958e-01
  -5.19878545739919650792e-02+j1.56864910018961883909e-01
  -3.34868796263393386781e-03+j1.81974629278217669981e-01
</dep>
<dep S[2,3] frequency>
  +1.66949084966087124560e-01+j1.56855289926786101162e-01
  +2.43006436304904455126e-01+j1.32176565543078439191e-01
  +2.95942388696652847191e-01+j7.50041572535793676924e-02
  +3.14524667876587282755e-01+j6.85919663341080093621e-04
  +2.95315406132838131903e-01-j7.30547731946688955196e-02
  +2.42556066082781518478e-01-j1.28665169823841712970e-01
  +1.68259367349591709706e-01-j1.51454944128759594335e-01
  +9.13811901713646179690e-02-j1.33526969747763624152e-01
  +3.39595412580053351848e-02-j7.80938729116324586998e-02
  +1.36798836352475233075e-02-j8.28742331304314211460e-04
</dep>
<dep S[2,2] frequency>
  +1.29271526939703368386e-02-j7.77388917752863672916e-04
  +1.40522828028334101358e-02-j9.54856861798615563774e-03
  +9.35478464355610217495e-03-j1.90358143489791874214e-02
  -1.13924411901358824117e-03-j2.57695536580355502587e-02
  -1.57452101970638747019e-02-j2.65118183135997324829e-02
  -3.10691871073014297400e-02-j1.87660679603171218210e-02
  -4.19518904189944141780e-02-j1.81979435635128139470e-03
  -4.23848290785356560106e-02+j2.16053018415384226469e-02
  -2.82975850663168999877e-02+j4.43661463989340615344e-02
  -1.24636966666685257421e-03+j5.67967659303551808403e-02
</dep>
