<Qucs Dataset>
default plugins: ignored
C:C1 gnd _net2 C="1 m" V="" 
                       ^ ? C1: V has no value?
Gnucap   System status
iterations: op=0, dc=0, tran=1637, fourier=0, total=2183
transient timesteps: accepted=542, rejected=4, total=546
transient timesteps: accepted=0, rejected=0, total=0
nodes: user=5, subckt=0, model=3, total=8
dctran density=65.6%, ac density=65.6%

<indep time 542>
 0.
 45.48811E-9
 90.97622E-9
 165.5544E-9
 240.1327E-9
 2.2194E-6
 4.198668E-6
 6.177936E-6
 8.157203E-6
 10.13647E-6
 12.11574E-6
 14.09501E-6
 17.54761E-6
 21.00022E-6
 26.32698E-6
 31.65374E-6
 39.72059E-6
 47.78744E-6
 55.85429E-6
 63.92114E-6
 71.98799E-6
 80.05484E-6
 88.12169E-6
 93.62121E-6
 99.12072E-6
 108.1981E-6
 117.2755E-6
 131.2198E-6
 145.1642E-6
 159.1085E-6
 181.4612E-6
 203.814E-6
 226.1667E-6
 262.9245E-6
 299.6823E-6
 356.9084E-6
 414.1344E-6
 502.9809E-6
 591.8273E-6
 680.6737E-6
 769.5202E-6
 858.3666E-6
 925.5133E-6
 976.1657E-6
 0.001007509
 0.001038852
 0.001094547
 0.001150241
 0.001205936
 0.00126163
 0.001317325
 0.001373019
 0.001428714
 0.001513747
 0.001598781
 0.001683815
 0.001768848
 0.001853882
 0.001917417
 0.001961296
 0.002005175
 0.002049054
 0.002115289
 0.002181523
 0.002247757
 0.002313992
 0.002380226
 0.002446461
 0.002512695
 0.00257893
 0.002645164
 0.002753286
 0.002835603
 0.002899519
 0.00294083
 0.002982142
 0.003044539
 0.003106936
 0.003155305
 0.003182531
 0.003209756
 0.003256757
 0.003303757
 0.003350758
 0.003397758
 0.003444759
 0.003518523
 0.003592288
 0.003666052
 0.003739817
 0.003813581
 0.003868595
 0.003923608
 0.003978622
 0.004033635
 0.004071598
 0.00410956
 0.004169216
 0.004228871
 0.004274005
 0.004319138
 0.004364271
 0.004409404
 0.004454538
 0.004499671
 0.004570309
 0.004640947
 0.004711585
 0.004782223
 0.004834219
 0.004886214
 0.00493821
 0.004990205
 0.0050422
 0.005094196
 0.005146191
 0.005233093
 0.005296273
 0.005343508
 0.005390743
 0.005437977
 0.005485212
 0.005532447
 0.005579681
 0.005651086
 0.00572249
 0.005793895
 0.005849541
 0.005905187
 0.005960833
 0.00601648
 0.006072126
 0.006127772
 0.006219588
 0.006311405
 0.006369895
 0.006428385
 0.006486876
 0.006545366
 0.006590558
 0.00663575
 0.006680942
 0.006726134
 0.006771326
 0.006816518
 0.00686171
 0.006906902
 0.006952094
 0.007023894
 0.007095694
 0.007167495
 0.007239295
 0.007311095
 0.007382896
 0.007424625
 0.007466354
 0.007508083
 0.007549812
 0.007591541
 0.00763327
 0.007664335
 0.007695399
 0.007746674
 0.007797949
 0.007849224
 0.007900499
 0.007951774
 0.008031084
 0.008110394
 0.008189705
 0.008269015
 0.008348325
 0.008409488
 0.008452073
 0.008494658
 0.008537242
 0.00860112
 0.008664997
 0.008728874
 0.008792751
 0.008856629
 0.008920506
 0.008984383
 0.00904826
 0.009112138
 0.009216057
 0.009319977
 0.009397141
 0.00945328
 0.009488223
 0.009523167
 0.00955811
 0.009626938
 0.009695766
 0.009764594
 0.009833422
 0.00990225
 0.009971078
 0.01003991
 0.01010873
 0.01021233
 0.01031593
 0.01039467
 0.01045285
 0.01049148
 0.01053011
 0.01056874
 0.01063142
 0.01067809
 0.01072476
 0.01077143
 0.01081811
 0.01086478
 0.01094484
 0.0110249
 0.01110497
 0.01118503
 0.0112651
 0.01134516
 0.01142522
 0.01147398
 0.01152273
 0.01157148
 0.01162023
 0.01166899
 0.01171774
 0.01176649
 0.01181524
 0.01189008
 0.01196491
 0.01203975
 0.01211458
 0.01218942
 0.01226425
 0.01233908
 0.01241392
 0.0124564
 0.01249888
 0.01254135
 0.01258383
 0.01262631
 0.01266879
 0.01271127
 0.01275375
 0.01279623
 0.01286504
 0.01293386
 0.01300267
 0.01307149
 0.0131403
 0.01324437
 0.01334845
 0.01341058
 0.01345937
 0.01350816
 0.01355696
 0.01360575
 0.01363941
 0.01367308
 0.01370674
 0.0137404
 0.01377407
 0.01380773
 0.01386243
 0.01391714
 0.01397184
 0.01402654
 0.01408125
 0.01417068
 0.01426011
 0.01434954
 0.01439711
 0.01444468
 0.01449225
 0.01453982
 0.01458739
 0.01463496
 0.01468253
 0.0147301
 0.01477767
 0.01482524
 0.01487281
 0.01492038
 0.01496795
 0.01501552
 0.01508791
 0.0151603
 0.01523269
 0.01530507
 0.0153496
 0.01539413
 0.01543866
 0.01548319
 0.01552772
 0.01557225
 0.01564162
 0.01571098
 0.01578035
 0.01582622
 0.01587209
 0.01591796
 0.01596383
 0.0160097
 0.01605557
 0.01610144
 0.01617822
 0.01625501
 0.0163063
 0.01635759
 0.01640887
 0.01646016
 0.01651145
 0.01656273
 0.01664041
 0.01671808
 0.01679575
 0.01685242
 0.01690909
 0.01696576
 0.01702243
 0.01706526
 0.01710809
 0.01715092
 0.01719375
 0.01723658
 0.01727941
 0.01732225
 0.01736508
 0.01740791
 0.01745074
 0.01752084
 0.01759095
 0.01766106
 0.01773117
 0.01780127
 0.01787138
 0.01791349
 0.01795561
 0.01799772
 0.01803983
 0.01808195
 0.01812406
 0.01816617
 0.01820829
 0.0182504
 0.01829251
 0.01833463
 0.01840091
 0.01846719
 0.01853347
 0.01859975
 0.01866603
 0.01877295
 0.01885092
 0.01891286
 0.01894933
 0.0189858
 0.01902227
 0.01908429
 0.01914631
 0.01920833
 0.01927036
 0.01933238
 0.0193944
 0.01945642
 0.01951844
 0.01958046
 0.01967694
 0.01977342
 0.01986989
 0.01993281
 0.01997308
 0.02001335
 0.02005362
 0.02011949
 0.02018536
 0.02025123
 0.0203171
 0.02038297
 0.02044884
 0.02051471
 0.02058058
 0.02064645
 0.02075914
 0.02084471
 0.02093027
 0.02097826
 0.02102625
 0.02107423
 0.02112222
 0.02117021
 0.0212182
 0.02124737
 0.02127655
 0.02132152
 0.02136648
 0.02144221
 0.02151795
 0.02159368
 0.02166941
 0.02178511
 0.02186645
 0.02193049
 0.02197044
 0.02201039
 0.02205034
 0.02211658
 0.02216914
 0.0222217
 0.02227425
 0.02232681
 0.02237937
 0.02245875
 0.02253813
 0.02261751
 0.02269689
 0.02277627
 0.02285566
 0.02291374
 0.02295246
 0.02299118
 0.02305058
 0.02310998
 0.02316937
 0.02322877
 0.02328817
 0.02334757
 0.02340696
 0.02346636
 0.02352576
 0.02358515
 0.02367812
 0.02377109
 0.02386406
 0.02391741
 0.02397077
 0.02402413
 0.02407748
 0.02411979
 0.02416209
 0.02420439
 0.0242467
 0.024289
 0.0243313
 0.02437361
 0.02443683
 0.02450004
 0.02456326
 0.02462648
 0.02472244
 0.02481839
 0.02487795
 0.02493751
 0.02499707
 0.02505663
 0.02511619
 0.02517574
 0.0252353
 0.02527862
 0.02532193
 0.02536525
 0.02540856
 0.02545188
 0.0254952
 0.0255645
 0.0256338
 0.02570311
 0.02577241
 0.02582661
 0.02588081
 0.02593501
 0.02598921
 0.02604341
 0.02609761
 0.02615181
 0.02623733
 0.02629901
 0.02634771
 0.02639641
 0.0264451
 0.0264938
 0.0265425
 0.02659119
 0.02666372
 0.02673625
 0.02679252
 0.02684879
 0.02690506
 0.02696134
 0.02701761
 0.02707388
 0.02713015
 0.02721983
 0.02730952
 0.02736557
 0.02742162
 0.02747767
 0.02753372
 0.02758978
 0.02764583
 0.02770188
 0.02775793
 0.02781398
 0.02787003
 0.02792609
 0.02798214
 0.02803819
 0.02809424
 0.02818499
 0.02827574
 0.02836649
 0.02841599
 0.02846549
 0.02851499
 0.02856449
 0.02861399
 0.02864953
 0.02868507
 0.02872061
 0.02875615
 0.02881023
 0.02886431
 0.02891839
 0.02897247
 0.02902655
 0.02910767
 0.02918879
 0.02926991
 0.02935103
 0.02940511
 0.02944011
 0.0294751
 0.02952759
 0.02958008
 0.02963257
 0.02968506
 0.02973755
 0.02979004
 0.02984253
 0.02989502
 0.02994751
 0.03
</indep>
<dep _net0.Vt time>
 0.
 227.497E-12
 568.738E-12
 1.620397E-9
 3.283428E-9
 270.3995E-9
 966.4137E-9
 2.089625E-6
 3.638282E-6
 5.610582E-6
 8.004669E-6
 10.81864E-6
 16.72587E-6
 23.89402E-6
 37.39837E-6
 53.83385E-6
 84.19331E-6
 120.9982E-6
 164.0649E-6
 213.1969E-6
 268.1855E-6
 328.8098E-6
 394.8376E-6
 442.8324E-6
 493.1459E-6
 581.0246E-6
 674.6133E-6
 828.5188E-6
 993.4609E-6
 0.001167877
 0.001462822
 0.001771077
 0.002085615
 0.002596331
 0.00307459
 0.003684698
 0.004062755
 0.004070026
 0.003381324
 0.00218947
 843.7705E-6
-257.4737E-6
-728.5796E-6
-813.605E-6
-742.9906E-6
-581.1493E-6
-94.50215E-6
 594.729E-6
 0.001400893
 0.002224203
 0.002962811
 0.003525139
 0.003840967
 0.003766698
 0.003053885
 0.001893
 599.4405E-6
-474.4688E-6
-959.6664E-6
-0.001085232
-0.001026744
-789.9866E-6
-146.181E-6
 740.4029E-6
 0.00171388
 0.002603537
 0.003252952
 0.003546686
 0.003429981
 0.002918097
 0.002093711
 480.2221E-6
-638.3508E-6
-0.001225633
-0.001421985
-0.001456699
-0.001205602
-631.358E-6
-17.67103E-6
 369.9669E-6
 772.0502E-6
 0.001461399
 0.002096308
 0.002619869
 0.002984812
 0.003157599
 0.003007873
 0.002377443
 0.001391515
 250.3599E-6
-812.9678E-6
-0.001428912
-0.001808672
-0.001910732
-0.001726388
-0.001442492
-0.001050201
-277.8965E-6
 590.6681E-6
 0.001238826
 0.001816657
 0.002276229
 0.00257905
 0.002699145
 0.002625132
 0.002138705
 0.001282491
 215.4554E-6
-862.5485E-6
-0.001549178
-0.002060664
-0.002345799
-0.002377281
-0.002154606
-0.001704128
-0.001076277
 154.8617E-6
 0.001034308
 0.001582029
 0.001976014
 0.00217995
 0.002174122
 0.001957142
 0.001546074
 643.7591E-6
-446.3725E-6
-0.001515003
-0.002204236
-0.002673567
-0.002869424
-0.002771277
-0.002394126
-0.001786691
-515.2144E-6
 738.0984E-6
 0.001340538
 0.001675187
 0.001694397
 0.001392597
 959.9302E-6
 389.7598E-6
-273.6598E-6
-978.6016E-6
-0.001670007
-0.002293894
-0.002801678
-0.003154061
-0.00332418
-0.003196358
-0.002617563
-0.001708512
-655.9778E-6
 324.6059E-6
 0.001032274
 0.001259833
 0.001326155
 0.001225913
 965.1574E-6
 560.9065E-6
 39.98656E-6
-404.2171E-6
-877.4278E-6
-0.001670636
-0.002414593
-0.003034113
-0.003466807
-0.003669495
-0.003494611
-0.002783203
-0.001712483
-547.0154E-6
 425.6843E-6
 893.0782E-6
 0.001025655
 985.3869E-6
 774.7059E-6
 178.2168E-6
-671.0338E-6
-0.001639565
-0.002574904
-0.003329804
-0.003785636
-0.003871235
-0.003574202
-0.002942876
-0.001509823
-76.559E-6
 640.7415E-6
 852.4283E-6
 833.6268E-6
 698.8002E-6
 454.4601E-6
-288.9959E-6
-0.001267044
-0.002299424
-0.003195869
-0.00379111
-0.003975274
-0.003714102
-0.003055238
-0.001621968
-165.9752E-6
 595.1667E-6
 830.4696E-6
 810.0342E-6
 648.4787E-6
 355.6452E-6
-345.6344E-6
-999.9159E-6
-0.001702035
-0.00239147
-0.003008771
-0.00350063
-0.003930259
-0.003768866
-0.003052297
-0.001954019
-742.0561E-6
 287.4771E-6
 883.7819E-6
 968.9387E-6
 827.9234E-6
 475.0856E-6
-55.51244E-6
-713.2602E-6
-0.001435705
-0.002154363
-0.002801091
-0.0035089
-0.003750968
-0.00346957
-0.002720652
-0.001661632
-517.1986E-6
 469.4814E-6
 0.001089558
 0.001226577
 0.001191249
 987.2061E-6
 630.0171E-6
 146.0914E-6
-429.1899E-6
-0.001053977
-0.001682911
-0.002270339
-0.003019368
-0.003409187
-0.003362852
-0.002883756
-0.002054979
-506.1536E-6
 868.6737E-6
 0.001379932
 0.001542938
 0.001478846
 0.001195823
 722.4035E-6
 306.6306E-6
-158.9987E-6
-653.058E-6
-0.001152855
-0.001635445
-0.002078649
-0.002659604
-0.00301384
-0.00309693
-0.002896194
-0.002432172
-0.001268744
 99.92732E-6
 0.001265248
 0.001684988
 0.001907936
 0.001916536
 0.001712182
 0.001315115
 762.6292E-6
 105.7771E-6
-595.1542E-6
-0.001275984
-0.001874326
-0.002335118
-0.0026155
-0.002688617
-0.002545997
-0.001949608
-0.001000996
 113.9464E-6
 0.001175469
 0.00171518
 0.00211295
 0.002339605
 0.002379247
 0.002230497
 0.001906605
 0.001127726
 146.5684E-6
-847.2878E-6
-0.001422224
-0.001868021
-0.002146292
-0.002232457
-0.002117771
-0.001810051
-0.001333035
-276.3157E-6
 907.8682E-6
 0.00164649
 0.002249186
 0.002656347
 0.002828446
 0.002750116
 0.002431737
 0.001586277
 484.9079E-6
-607.5742E-6
-0.001252533
-0.001666244
-0.001794182
-0.001617654
-0.001291388
-823.3526E-6
-246.0988E-6
 399.9558E-6
 0.001069436
 0.001715276
 0.002292103
 0.002759504
 0.003084936
 0.003246063
 0.00313406
 0.002588422
 0.001717624
 692.2091E-6
-287.7984E-6
-0.0010311
-0.001303089
-0.001414271
-0.001356133
-0.00113194
-756.5117E-6
-255.1943E-6
 337.9004E-6
 982.2682E-6
 0.001633829
 0.002247996
 0.002782775
 0.003373401
 0.003583821
 0.003380514
 0.002800693
 0.001945914
 409.0721E-6
-536.9716E-6
-996.3293E-6
-0.001109778
-0.001096186
-956.0422E-6
-454.1856E-6
 313.9753E-6
 0.001234504
 0.002170613
 0.002983152
 0.003551467
 0.003791474
 0.003668265
 0.003201333
 0.001993748
 580.0285E-6
-532.9403E-6
-904.1085E-6
-951.2289E-6
-843.1858E-6
-586.9083E-6
 99.75615E-6
 0.00101775
 0.002011968
 0.002914431
 0.003572623
 0.003875234
 0.003770931
 0.003277026
 0.00247654
 841.8451E-6
-257.0374E-6
-864.8846E-6
-921.2835E-6
-758.7445E-6
-392.5691E-6
 143.5898E-6
 800.7538E-6
 0.001519031
 0.001959948
 0.002384273
 0.002970679
 0.003437292
 0.003848734
 0.003730385
 0.003105254
 0.002109005
 418.7031E-6
-535.6431E-6
-946.6349E-6
-0.001013628
-927.7217E-6
-695.0249E-6
-36.26874E-6
 668.239E-6
 0.001447599
 0.002216116
 0.002889254
 0.003392774
 0.003710261
 0.003441978
 0.002647293
 0.001513894
 311.9943E-6
-671.5578E-6
-0.001118465
-0.001250649
-0.001239539
-951.9211E-6
-377.2946E-6
 402.3492E-6
 0.001276796
 0.002122773
 0.002820911
 0.003272174
 0.003411489
 0.003216703
 0.002711631
 0.001487698
 78.00856E-6
-0.001061376
-0.00145073
-0.001581258
-0.001441133
-0.0010486
-586.1599E-6
-27.15255E-6
 587.8906E-6
 0.001214507
 0.001807423
 0.002323734
 0.002725916
 0.003050213
 0.003003565
 0.002588824
 0.001866199
 455.7533E-6
-919.4043E-6
-0.001553814
-0.001901216
-0.001917605
-0.001604687
-0.001009673
-218.7612E-6
 654.7742E-6
 0.001274172
 0.00182387
 0.002262018
 0.002554972
 0.002679765
 0.002625808
 0.002182626
 0.001373234
 342.826E-6
-722.1278E-6
-0.001457927
-0.002013755
-0.002328693
-0.002369454
-0.002134208
-0.001652802
-983.3328E-6
 239.8711E-6
 0.001095948
 0.001652634
 0.002042002
 0.002226056
 0.00218585
 0.001923256
 0.001460798
 502.5895E-6
-612.7426E-6
-0.001450499
-0.002147788
-0.002621342
-0.002815529
-0.002709235
-0.002318487
-0.001694468
-443.1781E-6
 789.352E-6
 0.001381452
 0.001731823
 0.001795149
 0.001561302
 0.001056608
 340.6296E-6
-501.1392E-6
-0.001367756
-0.002155215
-0.002769211
-0.003136711
-0.003214917
-0.002996516
-0.002510576
-0.001344374
-32.47608E-6
 0.001000757
 0.001326311
 0.001429291
 0.001298732
 946.0475E-6
 403.9384E-6
-76.04168E-6
-604.4879E-6
-0.001155602
-0.001702456
-0.002462671
-0.003066676
-0.003446755
-0.003560798
-0.003397109
-0.002691044
-0.001601376
-409.1953E-6
 578.4838E-6
 998.3808E-6
 0.001135126
 0.001155744
 968.712E-6
 539.6492E-6
-85.93638E-6
-841.3519E-6
-0.001645901
-0.002413574
-0.003062317
-0.00352287
-0.003746229
-0.003708928
</dep>
<dep _net1.Vt time>
 0.
 285.8102E-6
 571.6203E-6
 0.001040209
 0.001508797
 0.01394445
 0.02637794
 0.03880736
 0.05123077
 0.06364626
 0.07605191
 0.0884458
 0.1100316
 0.1315657
 0.1646639
 0.1975777
 0.246989
 0.295766
 0.3437833
 0.3909176
 0.4370478
 0.4820555
 0.525825
 0.5548971
 0.5833067
 0.6286597
 0.6719683
 0.7341936
 0.7907866
 0.8413131
 0.9086978
 0.9581878
 0.9888083
 0.9967043
 0.9516712
 0.7827491
 0.513715
-0.01872819
-0.5454851
-0.9066212
-0.9924878
-0.7770141
-0.4511147
-0.1491964
 0.04716231
 0.2416978
 0.5597251
 0.8099066
 0.9619171
 0.997331
 0.9118558
 0.715852
 0.4330779
-0.08626964
-0.5815711
-0.9147708
-0.9929956
-0.7944419
-0.4959118
-0.2407946
 0.03250987
 0.3033589
 0.6626705
 0.9088598
 0.9999005
 0.9202515
 0.6835093
 0.3300874
-0.07968259
-0.4758503
-0.7907871
-0.9997866
-0.8588086
-0.5902288
-0.363268
-0.1119688
 0.2762087
 0.6224728
 0.8281553
 0.9114823
 0.9682013
 0.9990987
 0.9434967
 0.8062091
 0.5991219
 0.3401644
-0.1161221
-0.5479076
-0.8640887
-0.9979536
-0.9212578
-0.7349835
-0.4617636
-0.1339191
 0.2097675
 0.4348419
 0.6352933
 0.8739221
 0.9912006
 0.9886473
 0.9071201
 0.7531314
 0.5389821
 0.2817785
 0.002066264
-0.4275361
-0.774293
-0.9710119
-0.9795737
-0.8632304
-0.6555704
-0.3785609
-0.0615054
 0.2620565
 0.5578967
 0.7947199
 0.9943625
 0.9580304
 0.8323127
 0.6338208
 0.37991
 0.0927813
-0.2024598
-0.4799986
-0.8130083
-0.9850987
-0.9622077
-0.8107087
-0.56111
-0.2436144
 0.1033597
 0.4378268
 0.7193148
 0.9817991
 0.9264913
 0.7294201
 0.4349369
 0.08236911
-0.2811989
-0.5387837
-0.7532189
-0.907331
-0.9887776
-0.991036
-0.9139251
-0.7636207
-0.5521602
-0.2964788
 0.1495678
 0.5656868
 0.8686151
 0.9977386
 0.9272205
 0.671171
 0.4560899
 0.2098345
-0.05076328
-0.3078914
-0.5439747
-0.7428768
-0.8586059
-0.9417277
-0.9997815
-0.9549589
-0.8118721
-0.5852447
-0.2983962
 0.1940692
 0.6393317
 0.9290915
 0.9928713
 0.815158
 0.5385406
 0.2966051
 0.03356115
-0.2318712
-0.593462
-0.860732
-0.9912031
-0.9641392
-0.7838415
-0.4789655
-0.09796589
 0.2986037
 0.6477153
 0.9773443
 0.9048881
 0.6022204
 0.2893527
 0.07392721
-0.1450476
-0.3570585
-0.7156647
-0.9425
-0.9957986
-0.8657471
-0.5762909
-0.1807259
 0.248115
 0.6312721
 0.9721254
 0.9154076
 0.6145418
 0.2919588
 0.05352462
-0.1880475
-0.4185951
-0.7350478
-0.8996561
-0.9874538
-0.990945
-0.9098315
-0.7510386
-0.339682
 0.1558384
 0.6127463
 0.9178327
 0.9955054
 0.8265194
 0.4527447
 0.1627913
-0.1423183
-0.4341778
-0.6856145
-0.8732192
-0.9795256
-0.9946363
-0.9171445
-0.6370442
-0.2186779
 0.2471509
 0.6593373
 0.9284191
 0.995994
 0.8473952
 0.5148752
 0.2705479
 0.007062099
-0.2569238
-0.502716
-0.7129089
-0.8726181
-0.970534
-0.9997227
-0.9581173
-0.7499434
-0.4037376
 0.01677854
 0.4342065
 0.7717161
 0.9993748
 0.8147205
 0.5327578
 0.2525205
-0.05126496
-0.3502698
-0.6166112
-0.7681499
-0.8854503
-0.9632841
-0.9981821
-0.9885889
-0.9349319
-0.7606764
-0.4974368
-0.1760071
 0.166012
 0.4886109
 0.8783548
 0.9979827
 0.810706
 0.6023704
 0.3406214
 0.04866881
-0.2475993
-0.5219124
-0.7499464
-0.9114811
-0.992193
-0.9849252
-0.8903221
-0.7167723
-0.4796649
-0.2000247
 0.09735215
 0.5246796
 0.8453237
 0.9940877
 0.9407233
 0.8104771
 0.6171972
 0.3759157
 0.105398
-0.1733169
-0.4385524
-0.7769553
-0.9701
-0.9818764
-0.8875098
-0.7199317
-0.4929658
-0.2253347
 0.06088444
 0.3420812
 0.5950594
 0.9000178
 0.9995042
 0.938086
 0.7800939
 0.5417927
 0.2477151
-0.0718642
-0.3840453
-0.7721396
-0.9799536
-0.9589666
-0.7999808
-0.5406347
-0.2134643
 0.1404859
 0.3986667
 0.6281496
 0.8124156
 0.9382004
 0.9964493
 0.9829695
 0.8987311
 0.7497981
 0.5468914
 0.3046169
-0.1305888
-0.5408623
-0.8478732
-0.9930063
-0.9485525
-0.7229991
-0.5171591
-0.2753204
-0.01431717
 0.2476827
 0.4924418
 0.7029227
 0.8644743
 0.9658512
 0.9999966
 0.9645339
 0.8619314
 0.5831607
 0.2047041
-0.2087449
-0.5865108
-0.8640181
-0.9896173
-0.8056063
-0.5205731
-0.3130178
-0.08909746
 0.1394811
 0.5052116
 0.7951875
 0.9659282
 0.9918317
 0.8690139
 0.6158908
 0.2704172
-0.1156043
-0.4842915
-0.8964697
-0.9891964
-0.7294288
-0.409722
-0.1683281
 0.08378434
 0.3305617
 0.6822037
 0.9186485
 0.99997
 0.912436
 0.6708278
 0.3159432
-0.0922916
-0.484942
-0.795705
-0.9983501
-0.8281152
-0.424243
-0.1361839
 0.1641625
 0.4496972
 0.6946575
 0.8769415
 0.9801026
 0.9998636
 0.986119
 0.9007326
 0.7439232
 0.3551553
-0.112523
-0.5552003
-0.8745202
-0.9757594
-0.7440551
-0.4229706
-0.1846544
 0.06523441
 0.3110349
 0.668749
 0.8736939
 0.9842294
 0.9884112
 0.8857876
 0.6874477
 0.2563069
-0.2372847
-0.6730604
-0.9448407
-0.9864048
-0.7876252
-0.5158436
-0.2942685
-0.05535966
 0.3124895
 0.6373184
 0.8744078
 0.9911177
 0.9713807
 0.817914
 0.5518454
 0.2098043
-0.1611204
-0.5098638
-0.899737
-0.9912331
-0.7540096
-0.4959248
-0.1826232
 0.1510119
 0.4678331
 0.6835676
 0.8512911
 0.9592237
 0.9997845
 0.9701248
 0.8723276
 0.7132619
 0.3865904
-277.959E-6
-0.387103
-0.7136515
-0.9850396
-0.9090839
-0.6938787
-0.3826319
-0.01842383
 0.3483343
 0.6668785
 0.8931182
 0.9957388
 0.9838772
 0.8995881
 0.7490764
 0.5434218
 0.2977636
 0.03018574
-0.3942612
-0.7451221
-0.9569112
-0.9900996
-0.8863577
-0.6808122
-0.3970712
-0.0677241
 0.2694015
 0.5755846
 0.8156584
 0.9968317
 0.9529582
 0.8173965
 0.6059055
 0.3381308
 0.03894649
-0.2638556
-0.5421477
-0.856627
-0.9962701
-0.9645216
-0.8134511
-0.5617477
-0.2405498
 0.1104067
 0.4477047
 0.7296167
 0.9820906
 0.9308907
 0.7477456
 0.4728099
 0.1398338
-0.2103079
-0.5346329
-0.7933282
-0.9546374
-0.9987587
-0.9202758
-0.7288232
-0.4479027
-0.1119993
 0.2376527
 0.5581313
 0.9177325
 0.9869485
 0.7438783
 0.5036648
 0.2151219
-0.09406323
-0.3942224
-0.6565538
-0.8072846
-0.9179304
-0.9829971
-0.9992538
-0.9292472
-0.7529756
-0.4905967
-0.1721152
 0.1660488
 0.6260819
 0.9269556
 0.992183
 0.8051824
 0.5614898
 0.3674966
 0.1558092
-0.1724902
-0.4821973
-0.7399291
-0.9179052
-0.9969419
-0.96852
