<Qucs Dataset>
default plugins: ignored
;: already installed, replacing
stashing as ;:0
*: already installed, replacing
stashing as *:0
': already installed, replacing
stashing as ':0
": already installed, replacing
stashing as ":0
store: already installed, replacing
stashing as store:0
alarm: already installed, replacing
stashing as alarm:0
iplot: already installed, replacing
stashing as iplot:0
plot: already installed, replacing
stashing as plot:0
iprint: already installed, replacing
stashing as iprint:0
print: already installed, replacing
stashing as print:0
probe: already installed, replacing
stashing as probe:0
L: already installed, replacing
stashing as L:0
C:C1 gnd _net2 C="1 m" V="" 
                       ^ ? C1: V has no value?
Gnucap   System status
iterations: op=0, dc=0, tran=2215, fourier=0, total=2769
transient timesteps: accepted=551, rejected=3, total=554
transient timesteps: accepted=0, rejected=0, total=0
nodes: user=5, subckt=0, model=3, total=8
dctran density=65.6%, ac density=65.6%

<indep time 551>
 0.
 86.80556E-9
 173.6111E-9
 260.4167E-9
 347.2222E-9
 536.9974E-9
 2.383005E-6
 4.229012E-6
 6.075019E-6
 7.921026E-6
 9.767033E-6
 11.61304E-6
 14.45151E-6
 17.28997E-6
 21.63277E-6
 25.97558E-6
 32.55316E-6
 39.13073E-6
 49.17797E-6
 59.22521E-6
 69.27245E-6
 79.31969E-6
 86.85639E-6
 92.5792E-6
 98.30201E-6
 107.2519E-6
 116.2019E-6
 129.8912E-6
 143.5805E-6
 157.2698E-6
 179.2453E-6
 201.2208E-6
 223.1963E-6
 259.2894E-6
 295.3825E-6
 351.3234E-6
 407.2643E-6
 495.8653E-6
 584.4663E-6
 673.0673E-6
 761.6684E-6
 850.2694E-6
 918.857E-6
 971.1612E-6
 0.001005034
 0.001038906
 0.001091467
 0.001144028
 0.001196589
 0.00124915
 0.001301711
 0.001354272
 0.001434964
 0.001515657
 0.001596349
 0.001677041
 0.001757733
 0.001838425
 0.001919118
 0.001966793
 0.002014469
 0.002062144
 0.00210982
 0.002157495
 0.002205171
 0.002252846
 0.002300522
 0.002348197
 0.002424795
 0.002501393
 0.002577991
 0.002654588
 0.002731186
 0.002807784
 0.002884382
 0.002929802
 0.002975221
 0.003020641
 0.003066061
 0.003111481
 0.003156901
 0.003186926
 0.003216952
 0.003266095
 0.003315239
 0.003364382
 0.003413525
 0.003462668
 0.003538058
 0.003613449
 0.003688839
 0.003764229
 0.003839619
 0.00388667
 0.003933721
 0.003980772
 0.004027823
 0.004064047
 0.00410027
 0.004159
 0.004217729
 0.004276459
 0.004335188
 0.004393918
 0.004452647
 0.004511377
 0.004570106
 0.004628836
 0.004719447
 0.004810059
 0.004860138
 0.004910217
 0.004960297
 0.005010376
 0.005060456
 0.005110535
 0.005187354
 0.005264174
 0.005319388
 0.005374601
 0.005429815
 0.005470094
 0.005510373
 0.005550652
 0.005617637
 0.005684621
 0.005751606
 0.005798508
 0.00584541
 0.005892312
 0.005939214
 0.005986116
 0.006033019
 0.006106763
 0.006180508
 0.006254252
 0.006327997
 0.006374412
 0.006420828
 0.006467244
 0.00651366
 0.006550704
 0.006587749
 0.006644028
 0.006700308
 0.006756587
 0.006812867
 0.006869146
 0.006925426
 0.006981705
 0.007037985
 0.007094264
 0.007186626
 0.007278988
 0.00737135
 0.00742325
 0.007475151
 0.007527051
 0.007578952
 0.007630852
 0.007665533
 0.007700214
 0.007753057
 0.0078059
 0.007858743
 0.007911586
 0.00796443
 0.008045146
 0.008125862
 0.008206579
 0.008287295
 0.008368011
 0.008425391
 0.008460934
 0.008496477
 0.008550101
 0.008603726
 0.008657351
 0.008710976
 0.0087646
 0.008818225
 0.00887185
 0.008952185
 0.00903252
 0.009112855
 0.009193191
 0.009273526
 0.009353861
 0.009417584
 0.00946545
 0.009499113
 0.009532776
 0.00959369
 0.009654605
 0.009715519
 0.009776434
 0.009837348
 0.009898262
 0.009959177
 0.01002009
 0.01011174
 0.01020339
 0.01029504
 0.01038669
 0.0104478
 0.01048922
 0.01053064
 0.01057207
 0.0106386
 0.01068665
 0.01072474
 0.01076283
 0.01080093
 0.01086168
 0.01092244
 0.0109832
 0.01104395
 0.01113826
 0.01123257
 0.01132688
 0.01139954
 0.01145329
 0.01148641
 0.01151953
 0.01157503
 0.01163053
 0.01168602
 0.01174152
 0.01179702
 0.01185251
 0.01190801
 0.01196351
 0.01204859
 0.01213366
 0.01221874
 0.01230382
 0.0123889
 0.0124421
 0.01249531
 0.01254851
 0.01260172
 0.01265493
 0.01270813
 0.01276134
 0.01281454
 0.01286775
 0.01292095
 0.01297416
 0.01305562
 0.01313709
 0.01321855
 0.01330001
 0.01338148
 0.01342676
 0.01347204
 0.01351732
 0.01356261
 0.01360789
 0.01364067
 0.01367346
 0.01370624
 0.01373902
 0.01377181
 0.01380459
 0.01385876
 0.01391292
 0.01396709
 0.01402125
 0.01407542
 0.01416389
 0.01425236
 0.01434083
 0.01439102
 0.01444121
 0.0144914
 0.01454159
 0.01459178
 0.01464197
 0.01469216
 0.01474235
 0.01479254
 0.01484272
 0.01489291
 0.0149431
 0.01499329
 0.01504348
 0.0151194
 0.01519533
 0.01527125
 0.01532878
 0.01538632
 0.01544385
 0.01548948
 0.01553511
 0.01558074
 0.01565177
 0.0157228
 0.01579383
 0.01583851
 0.01588318
 0.01592785
 0.01597253
 0.0160172
 0.01606188
 0.01613054
 0.0161992
 0.01626786
 0.01631587
 0.01636389
 0.0164119
 0.01645992
 0.01650793
 0.01655594
 0.01663277
 0.01670959
 0.01678641
 0.01684567
 0.01689087
 0.01693608
 0.01698128
 0.01702648
 0.01707169
 0.01711689
 0.01716209
 0.0172073
 0.0172525
 0.01729771
 0.01734291
 0.01738811
 0.01743332
 0.01750125
 0.01756917
 0.0176371
 0.01770503
 0.01777296
 0.01784089
 0.01789176
 0.01794264
 0.01799351
 0.01804439
 0.01809526
 0.01812937
 0.01816348
 0.01819759
 0.01823171
 0.01828401
 0.01833631
 0.01838862
 0.01844092
 0.01849322
 0.01857541
 0.01865761
 0.0187398
 0.01882199
 0.01890418
 0.0189508
 0.01899742
 0.01904404
 0.01909066
 0.01913728
 0.01918391
 0.01923053
 0.01927715
 0.01932377
 0.01939843
 0.01947309
 0.01954775
 0.0196224
 0.01969706
 0.01977172
 0.01984638
 0.01992104
 0.01996706
 0.02001309
 0.02005911
 0.02010513
 0.02015115
 0.02019718
 0.0202432
 0.02028922
 0.02036169
 0.02043416
 0.02050663
 0.0205791
 0.02065156
 0.02076286
 0.02084838
 0.02093391
 0.02098089
 0.02102786
 0.02107484
 0.02112181
 0.02116879
 0.02121576
 0.02126274
 0.02129534
 0.02132794
 0.02138214
 0.02143634
 0.02152198
 0.02160761
 0.02169325
 0.02177889
 0.02186452
 0.02192569
 0.02196668
 0.02200766
 0.02204865
 0.02211491
 0.02218117
 0.02224743
 0.0223137
 0.02237996
 0.02244622
 0.02251248
 0.02257874
 0.022645
 0.02275478
 0.02283806
 0.02290437
 0.02294492
 0.02298546
 0.02302601
 0.02308773
 0.02314944
 0.02321116
 0.02327288
 0.02333459
 0.02339631
 0.02345803
 0.02351974
 0.02358146
 0.02367315
 0.02376485
 0.02385654
 0.02391139
 0.02396625
 0.0240211
 0.02407595
 0.02411826
 0.02416058
 0.02420289
 0.02424521
 0.02428752
 0.02432984
 0.02437215
 0.02441447
 0.02448176
 0.02454906
 0.02461635
 0.02468365
 0.02475094
 0.02481824
 0.02486713
 0.02491601
 0.02496489
 0.02501378
 0.02505071
 0.02508765
 0.02514613
 0.02520461
 0.02526309
 0.02532157
 0.02538005
 0.02543853
 0.02549701
 0.02555549
 0.02561397
 0.02567245
 0.02573093
 0.02578941
 0.02583152
 0.02587362
 0.02591573
 0.02595784
 0.02599994
 0.02604205
 0.02610589
 0.02616972
 0.02623356
 0.0262974
 0.02634148
 0.02638556
 0.02642964
 0.02647371
 0.02651779
 0.02656187
 0.02662929
 0.0266967
 0.02676411
 0.02681101
 0.02685791
 0.0269048
 0.0269517
 0.0269986
 0.0270455
 0.02711936
 0.02719322
 0.02726708
 0.02734095
 0.02738383
 0.02742672
 0.02746961
 0.0275125
 0.02755539
 0.02759827
 0.02764116
 0.02770856
 0.0277563
 0.02780403
 0.02785177
 0.02789951
 0.02794725
 0.02799499
 0.02806925
 0.02814351
 0.02821777
 0.02829203
 0.02836629
 0.02841044
 0.0284546
 0.02849875
 0.0285429
 0.02858706
 0.02861846
 0.02864986
 0.02868125
 0.02871265
 0.02876415
 0.02881564
 0.02886713
 0.02891863
 0.02897012
 0.02904369
 0.02911725
 0.02919081
 0.02926437
 0.02933794
 0.0294115
 0.02944828
 0.02948506
 0.02953656
 0.02958805
 0.02963954
 0.02969104
 0.02974253
 0.02979402
 0.02984552
 0.02989701
 0.02994851
 0.03
</indep>
<dep _net0.Vt time>
 0.
 828.402E-12
 2.070972E-9
 4.141806E-9
 7.040769E-9
 16.26201E-9
 312.0291E-9
 980.765E-9
 2.021088E-6
 3.431577E-6
 5.210773E-6
 7.357178E-6
 11.37013E-6
 16.24186E-6
 25.34287E-6
 36.4177E-6
 56.89348E-6
 81.75609E-6
 127.9733E-6
 183.8516E-6
 249.0043E-6
 323.0156E-6
 384.0947E-6
 433.5212E-6
 485.475E-6
 571.5544E-6
 663.2241E-6
 813.3197E-6
 974.1927E-6
 0.001144371
 0.001432844
 0.001734849
 0.002043718
 0.002546756
 0.003021322
 0.003634199
 0.004032041
 0.004095884
 0.003461006
 0.002302608
 957.8087E-6
-177.6258E-6
-700.8415E-6
-817.5599E-6
-753.3573E-6
-582.2763E-6
-128.3248E-6
 510.0576E-6
 0.001262104
 0.002044794
 0.002771809
 0.003362855
 0.003855181
 0.003753661
 0.003076783
 0.001987893
 754.005E-6
-321.4405E-6
-974.9566E-6
-0.001094689
-997.6148E-6
-694.0859E-6
-212.8278E-6
 401.6128E-6
 0.00109283
 0.001797576
 0.002451396
 0.00299436
 0.003507377
 0.003490968
 0.002941109
 0.001975072
 804.7165E-6
-311.6833E-6
-0.001128144
-0.00139701
-0.001473594
-0.001353494
-0.001048199
-584.1618E-6
-668.1629E-9
 428.7608E-6
 873.4225E-6
 0.001587911
 0.002230095
 0.002736988
 0.003058405
 0.00316171
 0.002877727
 0.002117394
 0.001039849
-125.8561E-6
-0.001131225
-0.001584821
-0.001852147
-0.001912197
-0.001761917
-0.001511064
-0.001157828
-423.676E-6
 423.7449E-6
 0.001266259
 0.001986387
 0.002483154
 0.002685675
 0.002562697
 0.002126797
 0.001432696
 89.83681E-6
-0.001235045
-0.001818228
-0.002212246
-0.002381135
-0.00231097
-0.00201125
-0.001513971
-500.6629E-6
 609.8874E-6
 0.001327061
 0.001868025
 0.00216527
 0.002205296
 0.002090035
 0.00182566
 0.001108179
 147.5624E-6
-893.899E-6
-0.001581314
-0.002163535
-0.002592323
-0.002832639
-0.002865667
-0.00269044
-0.002047207
-0.001082685
-7.169703E-6
 945.7303E-6
 0.001391815
 0.001664743
 0.001739964
 0.001609609
 0.001363266
 0.00100394
 289.0438E-6
-555.7578E-6
-0.001428584
-0.00222408
-0.002846448
-0.003221292
-0.003304825
-0.003089277
-0.002603861
-0.001418708
-90.63265E-6
 934.7075E-6
 0.001246916
 0.001311543
 0.001120351
 692.0276E-6
 70.23564E-6
-424.3106E-6
-954.1435E-6
-0.00176948
-0.002522176
-0.003131508
-0.003532398
-0.003682523
-0.003405723
-0.002597465
-0.001465633
-299.5065E-6
 603.1174E-6
 956.8162E-6
 0.001026211
 974.4098E-6
 675.1685E-6
 140.7726E-6
-569.5719E-6
-0.001376865
-0.002191189
-0.00292181
-0.003487383
-0.003890752
-0.003696079
-0.002953535
-0.001849945
-662.1107E-6
 312.2766E-6
 771.7474E-6
 878.8363E-6
 822.9199E-6
 660.6808E-6
 127.3571E-6
-648.4022E-6
-0.001554368
-0.002459443
-0.003232625
-0.003761948
-0.00397068
-0.003828423
-0.003022901
-0.001748039
-413.304E-6
 552.812E-6
 835.438E-6
 827.8174E-6
 657.8186E-6
 337.3237E-6
-427.0993E-6
-0.001113063
-0.001689561
-0.002257493
-0.002784193
-0.003460172
-0.003858345
-0.003919839
-0.003634238
-0.002626784
-0.001238014
 64.9121E-6
 737.0383E-6
 948.6036E-6
 942.6301E-6
 832.1775E-6
 431.6739E-6
-194.2761E-6
-968.4728E-6
-0.001795884
-0.00257507
-0.003210386
-0.003623484
-0.003762741
-0.003416409
-0.002489393
-0.001232685
 10.76365E-6
 901.7866E-6
 0.001170145
 0.001172114
 909.7476E-6
 414.3329E-6
-257.0588E-6
-0.001027882
-0.001810582
-0.002516286
-0.003064635
-0.003392683
-0.003461858
-0.003056767
-0.002131608
-914.9405E-6
 289.9556E-6
 0.001182851
 0.001461985
 0.001550774
 0.001443788
 0.001151311
 698.5197E-6
 290.4685E-6
-164.1281E-6
-645.4351E-6
-0.001132488
-0.001604081
-0.002039659
-0.002626937
-0.002995763
-0.003100931
-0.002927499
-0.002492502
-0.001369079
-15.29178E-6
 0.001173218
 0.001644914
 0.001901894
 0.001921396
 0.001704019
 0.001273678
 675.2573E-6
-29.80956E-6
-769.5917E-6
-0.00146875
-0.002055966
-0.002470968
-0.002670478
-0.002632478
-0.002358378
-0.001563752
-463.9199E-6
 703.5283E-6
 0.001483506
 0.002057856
 0.002356023
 0.002371653
 0.002190621
 0.00182952
 995.0553E-6
-23.87734E-6
-0.001021039
-0.001550457
-0.001946369
-0.002176306
-0.002220777
-0.002074796
-0.001748275
-960.0304E-6
 53.19516E-6
 0.001111169
 0.001781221
 0.00232102
 0.002683799
 0.002838746
 0.002773793
 0.002496708
 0.001695048
 619.644E-6
-476.3739E-6
-0.001177357
-0.001554861
-0.001758022
-0.001769262
-0.001586366
-0.001222667
-705.9802E-6
-76.37858E-6
 617.0143E-6
 0.001319959
 0.001977445
 0.002538094
 0.002958281
 0.003205621
 0.003215712
 0.002802864
 0.002045091
 0.001082283
 91.08148E-6
-746.8249E-6
-0.001182618
-0.00139788
-0.001369364
-0.001098521
-611.3569E-6
-184.7991E-6
 298.9602E-6
 818.2178E-6
 0.001349641
 0.002129708
 0.002800681
 0.003292107
 0.003552744
 0.003556031
 0.003059338
 0.002079091
 875.4234E-6
-233.3559E-6
-953.8227E-6
-0.0011136
-0.00106677
-816.7938E-6
-384.4238E-6
 194.0534E-6
 869.9039E-6
 0.001586094
 0.002282143
 0.002899275
 0.003589425
 0.00380405
 0.003498082
 0.002738963
 0.00169201
 584.6634E-6
-342.685E-6
-888.6446E-6
-980.3214E-6
-869.8991E-6
-566.4952E-6
-95.25077E-6
 504.7528E-6
 0.001183735
 0.001885345
 0.002551341
 0.003388219
 0.003833968
 0.003797084
 0.003284434
 0.002399806
 779.3412E-6
-303.6078E-6
-885.1943E-6
-926.274E-6
-757.7471E-6
-394.7831E-6
 130.6549E-6
 772.5642E-6
 0.001474874
 0.002176289
 0.002631791
 0.003037851
 0.003555163
 0.003830469
 0.003705022
 0.002943716
 0.001756881
 475.145E-6
-544.0974E-6
-953.8332E-6
-0.001038609
-962.5258E-6
-731.3261E-6
-79.47557E-6
 816.1077E-6
 0.001799502
 0.002699783
 0.003360204
 0.003664957
 0.003558953
 0.00305722
 0.002242337
 621.2423E-6
-491.1537E-6
-0.001071994
-0.00124272
-0.001257143
-0.001115333
-628.6524E-6
 116.6123E-6
 0.001006511
 0.001905637
 0.00267722
 0.003203421
 0.003402825
 0.003242522
 0.002742993
 0.001553931
 160.7162E-6
-997.7265E-6
-0.001428569
-0.001589555
-0.001464629
-0.001071296
-612.5748E-6
-55.89974E-6
 558.3651E-6
 0.001185812
 0.001781108
 0.002301182
 0.002708245
 0.002972451
 0.003052543
 0.002709111
 0.001997397
 0.001037563
-6.493697E-6
-956.0255E-6
-0.00149624
-0.001850445
-0.00198759
-0.001896919
-0.001682226
-0.001355142
-658.9397E-6
 173.7081E-6
 0.001028124
 0.001786752
 0.002344839
 0.002624424
 0.002584734
 0.002227631
 0.001597359
 774.6373E-6
-134.1143E-6
-0.001010985
-0.001561005
-0.001997661
-0.002291904
-0.002424579
-0.002387761
-0.002185312
-0.001604261
-779.0892E-6
 154.8358E-6
 0.001044914
 0.001560401
 0.001943459
 0.002163566
 0.00220261
 0.002056271
 0.001734352
 964.7738E-6
-24.75696E-6
-0.001064099
-0.00172595
-0.002268686
-0.002647241
-0.00283067
-0.002804825
-0.002573571
-0.00185804
-852.5085E-6
 224.2685E-6
 0.001138568
 0.001518158
 0.001744232
 0.001799478
 0.001678899
 0.001390177
 953.125E-6
 398.2586E-6
-607.3518E-6
-0.001346654
-0.002030255
-0.002598556
-0.003002233
-0.003206643
-0.003194919
-0.002763517
-0.001922113
-855.2964E-6
 204.2198E-6
 0.001025363
 0.001327109
 0.00145341
 0.001393822
 0.001152107
 745.9466E-6
 372.1403E-6
-55.67462E-6
-521.1952E-6
-0.001006654
-0.001793069
-0.002503075
-0.003064139
-0.003419179
-0.003532486
-0.003261821
-0.002544642
-0.001534328
-445.7322E-6
 489.931E-6
 0.001073633
 0.001192392
 0.00118213
 953.792E-6
 498.2176E-6
-137.9954E-6
-889.4958E-6
-0.001678956
-0.002425091
-0.003051091
-0.003492589
-0.003704336
-0.003664901
</dep>
<dep _net1.Vt time>
 0.
 545.4153E-6
 0.00109083
 0.001636245
 0.002181659
 0.003374047
 0.0149723
 0.02656853
 0.03816119
 0.04974872
 0.06132956
 0.07290214
 0.09067675
 0.1084225
 0.1355046
 0.1624857
 0.2031143
 0.243396
 0.3041007
 0.3635939
 0.4216385
 0.4780034
 0.5190462
 0.5494386
 0.5791206
 0.6240254
 0.6669573
 0.7285003
 0.7846571
 0.8350124
 0.9027978
 0.9533987
 0.9858519
 0.9982969
 0.9596202
 0.8041013
 0.5502597
 0.02597593
-0.5061523
-0.8854279
-0.9973135
-0.8080209
-0.4880347
-0.1802097
 0.031623
 0.2420287
 0.5435884
 0.7863984
 0.9442163
 0.9999855
 0.9476788
 0.7929492
 0.397353
-0.09821479
-0.5690723
-0.8967549
-0.9988196
-0.8495876
-0.4866048
-0.2071346
 0.09078378
 0.3806166
 0.6365504
 0.8357906
 0.9605922
 0.9998399
 0.9500382
 0.8156226
 0.4551374
-0.008751409
-0.4706519
-0.8256241
-0.9930211
-0.9348116
-0.6642203
-0.4269068
-0.1550603
 0.1293292
 0.4032571
 0.6445651
 0.8337335
 0.9224942
 0.9785189
 0.9948904
 0.9171578
 0.7526736
 0.516996
 0.232417
-0.2368557
-0.6539685
-0.9270656
-0.996006
-0.845608
-0.6534043
-0.4045095
-0.1205184
 0.1739292
 0.391643
 0.5891568
 0.8409429
 0.9795135
 0.986213
 0.8601393
 0.6182658
 0.2931556
-0.07142185
-0.4263839
-0.7239422
-0.9816303
-0.9296409
-0.7699604
-0.5346732
-0.2468835
 0.06514908
 0.3707843
 0.6400102
 0.9235286
 0.996037
 0.9064587
 0.7088752
 0.4268288
 0.1867991
-0.06513129
-0.3129123
-0.673648
-0.9168069
-0.9999489
-0.9539114
-0.8256294
-0.626163
-0.3727099
-0.08712245
 0.2059766
 0.6216224
 0.9061804
 0.9996429
 0.8823006
 0.7097121
 0.4771872
 0.204363
-0.08572012
-0.3132222
-0.5238315
-0.7863985
-0.9516523
-0.9991434
-0.9229951
-0.7326303
-0.4516059
-0.1146973
 0.2364046
 0.5582525
 0.9217635
 0.983459
 0.7231379
 0.4637594
 0.1554994
-0.1691507
-0.4759718
-0.7326242
-0.8624425
-0.9514711
-0.9998153
-0.9389494
-0.7755219
-0.5273839
-0.2216397
 0.2798714
 0.7109274
 0.9630136
 0.9726695
 0.7374645
 0.4518017
 0.2430031
 0.02213549
-0.3096233
-0.6065635
-0.8352928
-0.9700894
-0.9957949
-0.9095185
-0.7209625
-0.2959306
 0.2029122
 0.6511447
 0.9369689
 0.9890947
 0.7945209
 0.495002
 0.2153847
 0.005573633
-0.2044858
-0.5552591
-0.8256823
-0.976623
-0.9862391
-0.8531389
-0.5965832
-0.2536974
 0.1259003
 0.6458187
 0.9574274
 0.9602166
 0.6532866
 0.3221605
 0.06768338
-0.191353
-0.4374996
-0.7648842
-0.9218105
-0.9874298
-0.9967513
-0.9492436
-0.7637341
-0.4682714
-0.1053927
 0.2726592
 0.7634996
 0.9940082
 0.8855884
 0.5901425
 0.2892664
 0.08526325
-0.1224188
-0.4541553
-0.7312284
-0.9202888
-0.9985807
-0.9566807
-0.7996319
-0.5463372
-0.2272838
 0.3005525
 0.7445305
 0.9807742
 0.9433684
 0.6427498
 0.3558102
 0.02947509
-0.3001235
-0.5964923
-0.8268171
-0.9655962
-0.9974639
-0.9188917
-0.7385794
-0.4764911
-0.1616453
 0.3424201
 0.7587166
 0.9805392
 0.9510304
 0.6777539
 0.4441165
 0.1747702
-0.1086285
-0.383293
-0.6271389
-0.773195
-0.8865589
-0.9624376
-0.9976227
-0.9906265
-0.9417449
-0.775465
-0.5202307
-0.2053203
 0.1331427
 0.4563327
 0.8571661
 0.99989
 0.8415275
 0.6324823
 0.3610588
 0.05402588
-0.2583353
-0.5452183
-0.7783292
-0.9346775
-0.9988435
-0.9644988
-0.8350306
-0.6232076
-0.349921
-0.0421235
 0.2698284
 0.6818165
 0.9415731
 0.9911015
 0.8799679
 0.6550863
 0.3455258
 0.06604568
-0.2188263
-0.4858336
-0.8155137
-0.9854353
-0.9623109
-0.8493139
-0.6698396
-0.4379356
-0.1717535
 0.107872
 0.3790542
 0.7312699
 0.9494846
 0.9937118
 0.9155649
 0.7547196
 0.5257043
 0.2492047
-0.04980424
-0.3443146
-0.7407612
-0.9679402
-0.9739402
-0.8247153
-0.633195
-0.3909375
-0.1173545
 0.165632
 0.4353465
 0.6701772
 0.8513072
 0.9642228
 0.9998762
 0.9554104
 0.8343886
 0.646508
 0.4068233
-0.007830208
-0.4210789
-0.7587804
-0.9603465
-0.9896136
-0.8413309
-0.6288584
-0.3526742
-0.04075943
 0.2752848
 0.5634391
 0.7262619
 0.855851
 0.9462764
 0.9934003
 0.9772565
 0.856516
 0.6441017
 0.3627486
 0.04257011
-0.4563064
-0.83617
-0.9979454
-0.8994387
-0.5663421
-0.3042317
-0.01620217
 0.2732077
 0.5393415
 0.7595258
 0.9150019
 0.9925239
 0.9854872
 0.8944914
 0.5957478
 0.1682957
-0.2955159
-0.6954827
-0.9451936
-0.9906998
-0.8221699
-0.4760139
-0.2054738
 0.08212831
 0.3629107
 0.6135579
 0.8132567
 0.9454247
 0.999087
 0.9697875
 0.7637003
 0.4019933
-0.04162805
-0.4767669
-0.8147546
-0.9967396
-0.8149423
-0.4034046
-0.1197965
 0.174172
 0.4530775
 0.6927997
 0.8726065
 0.9769479
 0.9968001
 0.9597008
 0.8824725
 0.6746883
 0.3894104
-0.1376409
-0.6257945
-0.9370974
-0.9835748
-0.752092
-0.4501153
-0.2078435
 0.04813633
 0.3009414
 0.6608954
 0.9079401
 0.9998699
 0.920979
 0.6847454
 0.331528
-0.07832855
-0.4748032
-0.7901612
-0.9995492
-0.8508089
-0.5653504
-0.339229
-0.09120939
 0.162698
 0.5237116
 0.8069558
 0.9703698
 0.9896872
 0.8620393
 0.6063816
 0.2606782
-0.123735
-0.489774
-0.8856802
-0.9956516
-0.7841849
-0.5284165
-0.2105008
 0.1321721
 0.4593002
 0.6765576
 0.8462721
 0.9565175
 0.9995466
 0.9723358
 0.8767971
 0.7196443
 0.5119208
 0.1143382
-0.3033837
-0.6676682
-0.9143511
-0.9999822
-0.9094785
-0.7412145
-0.5035712
-0.2187926
 0.08646544
 0.3132779
 0.5232941
 0.7944825
