<Qucs Dataset>
default plugins: ignored
C:C1 gnd _net2 C="1 m" V="" 
                       ^ ? C1: V has no value?
Gnucap   System status
iterations: op=0, dc=0, tran=1658, fourier=0, total=2211
transient timesteps: accepted=549, rejected=4, total=553
transient timesteps: accepted=0, rejected=0, total=0
nodes: user=5, subckt=0, model=3, total=8
dctran density=65.6%, ac density=65.6%

<indep time 549>
 0.
 45.48E-9
 90.96E-9
 165.54E-9
 240.12E-9
 2.2194E-6
 4.19868E-6
 6.17796E-6
 8.15724E-6
 10.13652E-6
 12.1158E-6
 14.09508E-6
 17.54769E-6
 21.0003E-6
 26.32707E-6
 31.65384E-6
 39.72069E-6
 47.78754E-6
 55.85439E-6
 63.92124E-6
 71.98809E-6
 80.05494E-6
 88.12179E-6
 93.62133E-6
 99.12087E-6
 108.1983E-6
 117.2757E-6
 131.22E-6
 145.1644E-6
 159.1088E-6
 181.4615E-6
 203.8142E-6
 226.1669E-6
 262.9248E-6
 299.6826E-6
 356.9087E-6
 414.1347E-6
 502.9812E-6
 591.8276E-6
 680.6741E-6
 769.5206E-6
 858.3671E-6
 925.5137E-6
 976.1661E-6
 0.001007509
 0.001038853
 0.001094547
 0.001150242
 0.001205936
 0.001261631
 0.001317325
 0.00137302
 0.001428714
 0.001513748
 0.001598781
 0.001683815
 0.001768849
 0.001853882
 0.001917417
 0.001961297
 0.002005176
 0.002049055
 0.002115289
 0.002181524
 0.002247758
 0.002313993
 0.002380227
 0.002446461
 0.002512696
 0.00257893
 0.002645165
 0.002753287
 0.002835603
 0.002899519
 0.002940831
 0.002982143
 0.00304454
 0.003106937
 0.003155305
 0.003182531
 0.003209757
 0.003256758
 0.003303758
 0.003350759
 0.003397759
 0.003444759
 0.003518524
 0.003592289
 0.003666053
 0.003739818
 0.003813582
 0.003868596
 0.003923609
 0.003978623
 0.004033636
 0.004071599
 0.004109561
 0.004169217
 0.004228872
 0.004274005
 0.004319139
 0.004364272
 0.004409405
 0.004454539
 0.004499672
 0.00457031
 0.004640948
 0.004711586
 0.004782224
 0.00483422
 0.004886215
 0.004938211
 0.004990206
 0.005042201
 0.005094197
 0.005146192
 0.005233094
 0.005296275
 0.005343509
 0.005390744
 0.005437979
 0.005485213
 0.005532448
 0.005579683
 0.005651087
 0.005722492
 0.005793896
 0.005849542
 0.005905188
 0.005960835
 0.006016481
 0.006072127
 0.006127773
 0.00621959
 0.006311406
 0.006369896
 0.006428387
 0.006486877
 0.006545367
 0.006590559
 0.006635751
 0.006680943
 0.006726135
 0.006771327
 0.006816519
 0.006861711
 0.006906903
 0.006952095
 0.007023896
 0.007095696
 0.007167496
 0.007239297
 0.007311097
 0.007382897
 0.007424626
 0.007466355
 0.007508084
 0.007549813
 0.007591542
 0.007633271
 0.007664336
 0.007695401
 0.007746676
 0.007797951
 0.007849226
 0.007900501
 0.007951776
 0.008031086
 0.008110396
 0.008189706
 0.008269016
 0.008348327
 0.00840949
 0.008452074
 0.008494659
 0.008537244
 0.008601121
 0.008664999
 0.008728876
 0.008792753
 0.00885663
 0.008920508
 0.008984385
 0.009048262
 0.009112139
 0.009216059
 0.009319979
 0.009397143
 0.009453282
 0.009488225
 0.009523169
 0.009558112
 0.00962694
 0.009695768
 0.009764596
 0.009833424
 0.009902252
 0.009971079
 0.01003991
 0.01010874
 0.01021234
 0.01031594
 0.01039467
 0.01045285
 0.01049148
 0.01053011
 0.01056874
 0.01063142
 0.01067809
 0.01072476
 0.01077144
 0.01081811
 0.01086478
 0.01094484
 0.01102491
 0.01110497
 0.01118503
 0.0112651
 0.01134516
 0.01142522
 0.01147398
 0.01152273
 0.01157148
 0.01162024
 0.01166899
 0.01171774
 0.01176649
 0.01181525
 0.01188977
 0.0119643
 0.01203883
 0.01211336
 0.01218788
 0.01226241
 0.01233694
 0.01241147
 0.01245458
 0.01249769
 0.0125408
 0.0125839
 0.01262701
 0.01267012
 0.01271323
 0.01275634
 0.01279945
 0.01286853
 0.01293761
 0.01300669
 0.01307576
 0.01314484
 0.01324953
 0.01333164
 0.01339384
 0.01343789
 0.01348193
 0.01352598
 0.01357003
 0.01361408
 0.01365813
 0.01370218
 0.01374622
 0.01379027
 0.01383432
 0.01387837
 0.01392242
 0.01399172
 0.01406102
 0.01413032
 0.01419962
 0.01426892
 0.01433822
 0.01438055
 0.01442287
 0.0144652
 0.01450753
 0.01454986
 0.01459219
 0.01463452
 0.014707
 0.01476343
 0.01481986
 0.01487629
 0.01493273
 0.01498916
 0.01504559
 0.01510202
 0.01515845
 0.0152468
 0.01531066
 0.01536097
 0.01541127
 0.01546158
 0.01551189
 0.01556219
 0.0156125
 0.01569112
 0.01576974
 0.01582489
 0.01588005
 0.01593521
 0.0159746
 0.016014
 0.0160534
 0.01611981
 0.01618622
 0.01625264
 0.01629786
 0.01634308
 0.0163883
 0.01643352
 0.01647874
 0.01652397
 0.01659642
 0.01666887
 0.01674132
 0.01681377
 0.01686429
 0.01691482
 0.01696534
 0.01701586
 0.01705383
 0.01709179
 0.01714866
 0.01720552
 0.01725073
 0.01729594
 0.01734115
 0.01738636
 0.01743157
 0.01749988
 0.01756818
 0.01763649
 0.0177048
 0.0177731
 0.01784141
 0.01789271
 0.01794402
 0.01799532
 0.01804662
 0.01809792
 0.01813324
 0.01816856
 0.01820387
 0.01823919
 0.0182952
 0.0183512
 0.0184072
 0.01846321
 0.01851921
 0.01860425
 0.0186893
 0.01877434
 0.01885938
 0.01891771
 0.01895528
 0.01899285
 0.01904988
 0.01910691
 0.01916394
 0.01922097
 0.019278
 0.01933504
 0.01939207
 0.0194491
 0.01950613
 0.01959286
 0.01967958
 0.01976631
 0.01985304
 0.01991646
 0.01996068
 0.02000491
 0.02004913
 0.02009336
 0.02013759
 0.02018181
 0.02022604
 0.02027026
 0.02034026
 0.02041026
 0.02048026
 0.02055026
 0.02062025
 0.02069025
 0.02076025
 0.02083025
 0.02090025
 0.02095052
 0.02098839
 0.02102625
 0.02108857
 0.02115089
 0.0212132
 0.02127552
 0.02133784
 0.02140016
 0.02146247
 0.02152479
 0.02158711
 0.02168493
 0.02178276
 0.02188058
 0.02193985
 0.02197917
 0.02201848
 0.02207988
 0.02214128
 0.02220267
 0.02226407
 0.02232547
 0.02238686
 0.02244826
 0.02250965
 0.02257105
 0.02266509
 0.02275913
 0.02285316
 0.02291425
 0.02295642
 0.0229986
 0.02304078
 0.02308296
 0.02312513
 0.02316731
 0.02320949
 0.02325166
 0.02329384
 0.0233609
 0.02342796
 0.02349503
 0.02356209
 0.02362915
 0.02369621
 0.02376327
 0.02383033
 0.02388307
 0.0239358
 0.02398853
 0.02404126
 0.02409399
 0.02413559
 0.02417718
 0.02421877
 0.02426036
 0.02430195
 0.02434354
 0.02438514
 0.02442673
 0.02449388
 0.02456102
 0.02462817
 0.02469532
 0.02476247
 0.02482961
 0.02487165
 0.02491369
 0.02495572
 0.02499776
 0.02503979
 0.02508183
 0.02512386
 0.02519557
 0.02526728
 0.02531658
 0.02536588
 0.02541518
 0.02546448
 0.02551378
 0.02556308
 0.02563957
 0.02571607
 0.02579257
 0.02583985
 0.02588712
 0.0259344
 0.02598167
 0.02602894
 0.02607622
 0.02614756
 0.0262189
 0.02629024
 0.02633548
 0.02638072
 0.02642597
 0.02647121
 0.02651645
 0.02656169
 0.02660693
 0.02668233
 0.02675773
 0.02680541
 0.02685309
 0.02690077
 0.02694845
 0.02699613
 0.02704382
 0.02711772
 0.02719162
 0.02726553
 0.02733943
 0.02738167
 0.0274239
 0.02746613
 0.02750836
 0.02755059
 0.02759282
 0.02763505
 0.02770461
 0.02775345
 0.02780229
 0.02785112
 0.02789996
 0.0279488
 0.02799764
 0.0280718
 0.02814596
 0.02822012
 0.02829428
 0.02836845
 0.02841138
 0.02845432
 0.02849725
 0.02854019
 0.02858312
 0.02861461
 0.0286461
 0.02869278
 0.02873947
 0.02878616
 0.02883284
 0.02887953
 0.02892621
 0.02899333
 0.02906044
 0.02912755
 0.02922449
 0.02932143
 0.02938312
 0.02942424
 0.02946537
 0.02950649
 0.02956818
 0.02962987
 0.02969156
 0.02975325
 0.02981493
 0.02987662
 0.02993831
 0.03
</indep>
<dep _net0.Vt time>
 0.
 227.416E-12
 568.535E-12
 1.620094E-9
 3.283054E-9
 270.3993E-9
 966.4192E-9
 2.089642E-6
 3.638315E-6
 5.610636E-6
 8.00475E-6
 10.81875E-6
 16.72602E-6
 23.8942E-6
 37.39862E-6
 53.83418E-6
 84.19373E-6
 120.9987E-6
 164.0654E-6
 213.1976E-6
 268.1862E-6
 328.8106E-6
 394.8384E-6
 442.8335E-6
 493.1472E-6
 581.0263E-6
 674.6154E-6
 828.5212E-6
 993.4637E-6
 0.001167881
 0.001462826
 0.001771081
 0.002085619
 0.002596335
 0.003074593
 0.0036847
 0.004062756
 0.004070025
 0.00338132
 0.002189464
 843.7649E-6
-257.4777E-6
-728.5812E-6
-813.6046E-6
-742.9887E-6
-581.1461E-6
-94.49693E-6
 594.7357E-6
 0.001400901
 0.00222421
 0.002962817
 0.003525143
 0.003840968
 0.003766696
 0.003053879
 0.001892993
 599.4334E-6
-474.4737E-6
-959.6687E-6
-0.001085232
-0.001026742
-789.9824E-6
-146.1741E-6
 740.4113E-6
 0.001713889
 0.002603544
 0.003252957
 0.003546687
 0.003429978
 0.002918091
 0.002093702
 480.2124E-6
-638.3583E-6
-0.001225637
-0.001421987
-0.001456698
-0.001205597
-631.3499E-6
-17.66136E-6
 369.9772E-6
 772.061E-6
 0.001461409
 0.002096317
 0.002619876
 0.002984817
 0.0031576
 0.003007869
 0.002377435
 0.001391504
 250.3482E-6
-812.9776E-6
-0.001428919
-0.001808675
-0.001910732
-0.001726383
-0.001442484
-0.001050191
-277.8843E-6
 590.6807E-6
 0.001238838
 0.001816668
 0.002276237
 0.002579054
 0.002699146
 0.002625129
 0.002138696
 0.001282477
 215.4401E-6
-862.5625E-6
-0.00154919
-0.002060672
-0.002345802
-0.002377279
-0.002154598
-0.001704116
-0.001076262
 154.8781E-6
 0.001034322
 0.00158204
 0.001976021
 0.002179953
 0.00217412
 0.001957134
 0.001546062
 643.742E-6
-446.391E-6
-0.001515019
-0.002204248
-0.002673574
-0.002869425
-0.002771272
-0.002394115
-0.001786676
-515.1967E-6
 738.1129E-6
 0.001340548
 0.001675191
 0.001694394
 0.001392587
 959.916E-6
 389.742E-6
-273.6799E-6
-978.6226E-6
-0.001670027
-0.002293912
-0.002801692
-0.00315407
-0.003324182
-0.00319635
-0.002617547
-0.00170849
-655.9551E-6
 324.6249E-6
 0.001032285
 0.001259838
 0.001326154
 0.001225906
 965.1441E-6
 560.8881E-6
 39.96416E-6
-404.2416E-6
-877.4534E-6
-0.001670661
-0.002414616
-0.003034131
-0.003466818
-0.003669498
-0.003494602
-0.002783184
-0.001712459
-546.9926E-6
 425.7002E-6
 893.0859E-6
 0.001025656
 985.3813E-6
 774.6938E-6
 178.1965E-6
-671.0592E-6
-0.001639592
-0.002574928
-0.003329821
-0.003785644
-0.003871232
-0.00357419
-0.002942856
-0.001509798
-76.5386E-6
 640.7518E-6
 852.4295E-6
 833.6221E-6
 698.7898E-6
 454.4445E-6
-289.0195E-6
-0.001267072
-0.00229945
-0.00319589
-0.003791121
-0.003975274
-0.00371409
-0.003055217
-0.001621941
-165.9535E-6
 595.178E-6
 830.4711E-6
 810.0289E-6
 648.4667E-6
 355.627E-6
-345.6601E-6
-999.9451E-6
-0.001702065
-0.002391499
-0.003008796
-0.003500649
-0.003930263
-0.003768856
-0.003052274
-0.00195399
-742.0274E-6
 287.4977E-6
 883.7891E-6
 968.9365E-6
 827.9118E-6
 475.0657E-6
-55.53889E-6
-713.2908E-6
-0.001435737
-0.002154394
-0.002801117
-0.003506997
-0.003751259
-0.003476197
-0.00273597
-0.001684885
-544.1428E-6
 445.8124E-6
 0.001077078
 0.001224751
 0.001195105
 991.4816E-6
 629.8969E-6
 137.8808E-6
-447.5281E-6
-0.001082481
-0.001719515
-0.002311011
-0.003048081
-0.003417561
-0.003345679
-0.002840575
-0.001990758
-427.6527E-6
 699.5383E-6
 0.001292649
 0.00151779
 0.001559986
 0.001417616
 0.001103077
 641.846E-6
 70.54655E-6
-565.8317E-6
-0.001217355
-0.001832944
-0.002364257
-0.002769368
-0.003015958
-0.003038178
-0.002615805
-0.001821618
-797.8464E-6
 270.4007E-6
 0.001189695
 0.001608812
 0.001880031
 0.001985752
 0.001919993
 0.001688814
 0.001309895
 811.2958E-6
-200.9744E-6
-0.00102453
-0.001758037
-0.002307019
-0.00259995
-0.002597164
-0.002295783
-0.001730082
-967.2184E-6
 380.0045E-6
 0.00129983
 0.001880176
 0.002269111
 0.002430532
 0.002350841
 0.002040294
 0.001531993
 484.3598E-6
-651.5111E-6
-0.001356608
-0.00187798
-0.002150904
-0.002173142
-0.002046931
-0.001778979
-0.001059009
-104.5655E-6
 925.2921E-6
 0.001586295
 0.002150098
 0.002573097
 0.00282295
 0.00288118
 0.002744656
 0.002162786
 0.001246374
 187.9942E-6
-790.9433E-6
-0.001320282
-0.001653779
-0.001756345
-0.00161595
-0.001356201
-979.2513E-6
-245.9039E-6
 611.9206E-6
 0.001315198
 0.001975052
 0.002539875
 0.002965661
 0.003219529
 0.00323873
 0.002829526
 0.002069966
 0.00110163
 103.9281E-6
-738.4567E-6
-0.001175777
-0.001388249
-0.001352605
-0.001071133
-571.4495E-6
-124.0138E-6
 382.1994E-6
 922.8151E-6
 0.001471765
 0.002289815
 0.002964493
 0.003414639
 0.003586598
 0.00346079
 0.002757488
 0.001623062
 378.3592E-6
-625.184E-6
-0.00102695
-0.00112509
-0.001088132
-781.7226E-6
-209.6408E-6
 556.3267E-6
 0.001419758
 0.002271834
 0.003005151
 0.003527365
 0.00377291
 0.00371133
 0.003067956
 0.00193999
 655.8194E-6
-411.1094E-6
-875.1272E-6
-987.523E-6
-913.0449E-6
-657.4741E-6
-240.4721E-6
 305.9219E-6
 939.7431E-6
 0.001612317
 0.002271992
 0.003159165
 0.003721367
 0.003850808
 0.003522097
 0.002797032
 0.001812805
 755.8711E-6
-173.5578E-6
-799.6288E-6
-994.6427E-6
-983.4886E-6
-836.4356E-6
-328.1877E-6
 441.8934E-6
 0.001356033
 0.002274616
 0.003057309
 0.003584295
 0.003774408
 0.003597416
 0.003078592
 0.001796284
 345.1853E-6
-749.8054E-6
-0.001069401
-0.001101081
-985.1185E-6
-533.1549E-6
 186.6553E-6
 0.001066137
 0.001973669
 0.002773505
 0.003345718
 0.003603812
 0.003507428
 0.003068271
 0.001903746
 485.4754E-6
-714.7234E-6
-0.001189597
-0.00132478
-0.001289863
-0.001088394
-735.527E-6
-256.9684E-6
 312.8125E-6
 932.9856E-6
 0.001559208
 0.002146716
 0.002892661
 0.003303606
 0.003303144
 0.002886908
 0.002123297
 0.001141493
 108.8429E-6
-798.4267E-6
-0.00132448
-0.001620564
-0.001656779
-0.00143148
-971.4615E-6
-474.8968E-6
 100.953E-6
 715.871E-6
 0.001326984
 0.001891673
 0.002370469
 0.002729728
 0.002943923
 0.00294749
 0.002533854
 0.001770529
 786.401E-6
-250.8952E-6
-0.001164384
-0.001606086
-0.001906938
-0.002047395
-0.002019019
-0.001825068
-0.001480269
-0.001009803
-27.94846E-6
 0.001014097
 0.001659089
 0.002166224
 0.00248535
 0.002584197
 0.002451445
 0.002097809
 0.001201363
 54.36285E-6
-0.001090367
-0.001691631
-0.002142145
-0.002404343
-0.002457112
-0.002297651
-0.001941719
-0.001117389
-95.46407E-6
 916.1941E-6
 0.001463054
 0.001875716
 0.002119723
 0.002174135
 0.00203322
 0.001706911
 0.00122002
 170.3996E-6
-988.8941E-6
-0.001672373
-0.002239102
-0.002640335
-0.002842034
-0.002827903
-0.002600847
-0.001892083
-888.6705E-6
 191.147E-6
 0.001113051
 0.001493729
 0.00172665
 0.001794625
 0.001691992
 0.001425024
 0.001011488
 479.4092E-6
-546.8079E-6
-0.001303392
-0.002005664
-0.002589469
-0.0030017
-0.003205258
-0.003182516
-0.00273365
-0.001880882
-810.4372E-6
 245.1105E-6
 0.001056444
 0.00134517
 0.001467538
 0.001414036
 0.001187866
 804.7095E-6
 438.2423E-6
 15.58528E-6
-676.8761E-6
-0.001398434
-0.002088277
-0.002688298
-0.003148055
-0.003429082
-0.003476682
-0.003106926
-0.002386618
-0.001018234
 303.888E-6
 905.6575E-6
 0.001138377
 0.001214376
 0.001128403
 713.269E-6
 11.21969E-6
-874.4919E-6
-0.001813365
-0.002666995
-0.003309594
-0.003646644
-0.003628913
</dep>
<dep _net1.Vt time>
 0.
 285.7592E-6
 571.5184E-6
 0.001040118
 0.001508718
 0.01394445
 0.02637802
 0.03880751
 0.051231
 0.06364657
 0.0760523
 0.08844626
 0.1100321
 0.1315662
 0.1646645
 0.1975783
 0.2469896
 0.2957666
 0.3437839
 0.3909182
 0.4370484
 0.482056
 0.5258256
 0.5548977
 0.5833074
 0.6286605
 0.6719692
 0.7341945
 0.7907875
 0.841314
 0.9086985
 0.9581882
 0.9888086
 0.9967042
 0.9516707
 0.782748
 0.5137135
-0.01873014
-0.5454869
-0.9066222
-0.9924875
-0.7770125
-0.4511123
-0.1491937
 0.04716512
 0.2417006
 0.5597275
 0.8099083
 0.9619179
 0.9973308
 0.9118545
 0.7158498
 0.433075
-0.08627276
-0.5815737
-0.9147721
-0.9929953
-0.79444
-0.495909
-0.2407915
 0.0325132
 0.3033621
 0.6626731
 0.9088613
 0.9999006
 0.9202501
 0.6835066
 0.3300838
-0.07968648
-0.4758537
-0.7907895
-0.9997866
-0.8588065
-0.5902254
-0.3632641
-0.1119646
 0.2762128
 0.6224762
 0.8281577
 0.9114841
 0.9682025
 0.9990985
 0.9434952
 0.8062064
 0.5991183
 0.3401601
-0.1161267
-0.5479115
-0.8640911
-0.9979539
-0.9212559
-0.7349801
-0.4617592
-0.1339141
 0.2097725
 0.4348466
 0.6352973
 0.8739247
 0.9912013
 0.9886465
 0.9071177
 0.7531277
 0.5389772
 0.2817727
 0.002060067
-0.4275417
-0.7742969
-0.9710134
-0.9795725
-0.8632273
-0.6555656
-0.3785549
-0.06149886
 0.2620629
 0.5579023
 0.794724
 0.9943632
 0.9580284
 0.8323088
 0.6338152
 0.3799033
 0.09277402
-0.2024671
-0.4800052
-0.8130127
-0.9851
-0.9622057
-0.8107043
-0.5611039
-0.2436072
 0.1033671
 0.4378335
 0.71932
 0.9818005
 0.9264885
 0.729415
 0.4349301
 0.08236145
-0.2812063
-0.5387903
-0.7532242
-0.9073344
-0.9887789
-0.9910348
-0.9139216
-0.763615
-0.5521526
-0.2964699
 0.1495771
 0.5656946
 0.8686199
 0.9977393
 0.9272168
 0.6711636
 0.456081
 0.2098247
-0.05077337
-0.307901
-0.5439832
-0.7428836
-0.8586111
-0.9417312
-0.9997817
-0.9549558
-0.8118661
-0.5852362
-0.2983862
 0.1940794
 0.6393397
 0.9290954
 0.9928701
 0.8151521
 0.538532
 0.2965952
 0.03355068
-0.2318815
-0.5934705
-0.8607374
-0.9912045
-0.9641363
-0.7838349
-0.478956
-0.09795516
 0.298614
 0.6477235
 0.9773467
 0.9048833
 0.6022116
 0.2893421
 0.0739162
-0.1450585
-0.3570688
-0.7156724
-0.9425037
-0.9957976
-0.8657415
-0.5762817
-0.1807148
 0.2481261
 0.631281
 0.9721281
 0.915403
 0.6145328
 0.2919478
 0.053513
-0.1880591
-0.418606
-0.7350559
-0.8996614
-0.9874558
-0.9909433
-0.9098263
-0.7510302
-0.3396701
 0.1558509
 0.6127564
 0.9178377
 0.9955042
 0.8265122
 0.4527332
 0.1627786
-0.142331
-0.4341894
-0.6856239
-0.8732255
-0.9795282
-0.9946349
-0.9171393
-0.6385185
-0.2224246
 0.2415574
 0.6535321
 0.9248011
 0.9969603
 0.8544737
 0.5280187
 0.2815442
 0.01453978
-0.2535249
-0.5031028
-0.7159948
-0.876677
-0.9734326
-0.9992063
-0.9521186
-0.7352664
-0.3820619
 0.04199438
 0.458263
 0.7895486
 0.9999955
 0.8712859
 0.6186565
 0.3804369
 0.1132622
-0.1625329
-0.4259575
-0.6569626
-0.8379662
-0.9551921
-0.9997184
-0.968156
-0.8629073
-0.6919826
-0.4683912
-0.05202119
 0.3740569
 0.7303292
 0.9503093
 0.9929447
 0.850279
 0.6820436
 0.4658469
 0.2168921
-0.04731462
-0.3081941
-0.5474015
-0.7481158
-0.9637224
-0.9964411
-0.9051936
-0.7013318
-0.410218
-0.06806942
 0.2825476
 0.5980132
 0.8390805
 0.9997971
 0.9282359
 0.76662
 0.5290484
 0.2390595
-0.07461522
-0.3808971
-0.6494402
-0.9323407
-0.9923188
-0.8913058
-0.6843131
-0.3959531
-0.1588894
 0.08786075
 0.3292546
 0.6836815
 0.9207805
 0.9998626
 0.9551298
 0.8338037
 0.6456137
 0.405651
 0.1331586
-0.150012
-0.5694268
-0.8728616
-0.9985133
-0.9207894
-0.7530339
-0.5100322
-0.216066
 0.09949033
 0.331788
 0.5452954
 0.8040231
 0.9611999
 0.9999893
 0.9586283
 0.8404321
 0.6548744
 0.4168276
 768.9369E-6
-0.4154292
-0.7562733
-0.9599381
-0.9894812
-0.8395438
-0.6241966
-0.3445528
-0.02941783
 0.2887474
 0.5771697
 0.742749
 0.8719027
 0.9582971
 0.9976951
 0.9599485
 0.8045612
 0.5505757
 0.2291177
-0.1204183
-0.6092
-0.9281426
-0.9883279
-0.772977
-0.4943053
-0.2773113
-0.04493828
 0.3082838
 0.6223413
 0.8573361
 0.9834143
 0.9845588
 0.8606242
 0.6273553
 0.3143867
-0.03852178
-0.5509047
-0.9037131
-0.9947528
-0.7976533
-0.5011472
-0.2445381
 0.03083248
 0.3038375
 0.5535315
 0.7607574
 0.9096164
 0.9886877
 0.9919049
 0.8434426
 0.5344432
 0.12372
-0.3105514
-0.6857139
-0.9303604
-0.9979262
-0.8755509
-0.586527
-0.3058944
-0.07290696
 0.1641876
 0.5282073
 0.8122747
 0.9733917
 0.9871708
 0.8515262
 0.5869899
 0.2336036
-0.1551422
-0.5204049
-0.9175893
-0.9788924
-0.6818744
-0.3690103
-0.1305293
 0.1158773
 0.4810942
 0.7756009
 0.9561116
 0.9960952
 0.8896749
 0.6524922
 0.3194078
-0.06062255
-0.4317427
-0.861023
-0.9983566
-0.7971778
-0.5131095
-0.270389
-0.008790313
 0.2534221
 0.4979409
 0.7076943
 0.8680375
 0.9677756
 0.9999452
 0.9623
 0.7668865
 0.437319
 0.03124979
-0.380286
-0.7252972
-0.9434296
-0.9965248
-0.8752945
-0.6703784
-0.3925408
-0.072004
 0.2563651
 0.5568477
 0.7525419
 0.8971352
 0.980809
 0.9978815
 0.9471934
 0.8321867
 0.6606707
 0.4442924
 0.03847218
-0.3740951
-0.7210547
-0.9415579
-0.9969334
-0.8774696
-0.7218301
-0.516129
-0.2746324
-0.01408907
 0.2474314
 0.4917916
 0.7020442
 0.9420929
 0.9941112
 0.9137678
 0.7464483
 0.5080788
 0.2213484
-0.08645079
-0.3860213
-0.7688048
-0.9773649
-0.9644385
-0.8448456
-0.651259
-0.4006335
-0.1149194
 0.1808596
 0.4607984
 0.7999106
 0.9809703
 0.9682022
 0.8591901
 0.6812198
 0.448575
 0.1799277
-0.1031604
-0.377969
-0.6224419
-0.9109663
-0.9988197
-0.9399979
-0.7974393
-0.5838434
-0.3182377
-0.02428281
 0.2718353
 0.6740338
 0.9334854
 0.9952433
 0.8462284
 0.6768832
 0.4601585
 0.2112242
-0.05249511
-0.3125399
-0.550708
-0.7503283
-0.9596063
-0.9997652
-0.9465201
-0.8048457
-0.5879779
-0.3161777
-0.01483845
 0.4359843
 0.7938429
 0.9824316
 0.961538
 0.7356172
 0.5284764
 0.2831072
 0.01725892
-0.2498378
-0.498862
-0.6594737
