<Qucs Dataset>
default plugins: ignored
C:C1 gnd _net2 C="1 m" V="" 
                       ^ ? C1: V has no value?
Gnucap   System status
iterations: op=0, dc=0, tran=1637, fourier=0, total=2183
transient timesteps: accepted=542, rejected=4, total=546
transient timesteps: accepted=0, rejected=0, total=0
nodes: user=5, subckt=0, model=3, total=8
dctran density=65.6%, ac density=65.6%

<indep time 542>
 0.
 45.48E-9
 90.96E-9
 165.54E-9
 240.12E-9
 2.2194E-6
 4.19868E-6
 6.17796E-6
 8.15724E-6
 10.13652E-6
 12.1158E-6
 14.09508E-6
 17.54769E-6
 21.0003E-6
 26.32707E-6
 31.65384E-6
 39.72069E-6
 47.78754E-6
 55.85439E-6
 63.92124E-6
 71.98809E-6
 80.05494E-6
 88.12179E-6
 93.6213E-6
 99.12081E-6
 108.1982E-6
 117.2756E-6
 131.2199E-6
 145.1642E-6
 159.1085E-6
 181.4613E-6
 203.814E-6
 226.1667E-6
 262.9246E-6
 299.6824E-6
 356.9084E-6
 414.1345E-6
 502.9809E-6
 591.8274E-6
 680.6738E-6
 769.5203E-6
 858.3667E-6
 925.5133E-6
 976.1657E-6
 0.001007509
 0.001038852
 0.001094547
 0.001150241
 0.001205936
 0.00126163
 0.001317325
 0.001373019
 0.001428714
 0.001513747
 0.001598781
 0.001683815
 0.001768848
 0.001853882
 0.001917417
 0.001961296
 0.002005175
 0.002049054
 0.002115289
 0.002181523
 0.002247758
 0.002313992
 0.002380227
 0.002446461
 0.002512696
 0.00257893
 0.002645165
 0.002753286
 0.002835603
 0.002899519
 0.002940831
 0.002982142
 0.003044539
 0.003106936
 0.003155305
 0.003182531
 0.003209757
 0.003256757
 0.003303758
 0.003350758
 0.003397759
 0.003444759
 0.003518524
 0.003592288
 0.003666053
 0.003739817
 0.003813582
 0.003868595
 0.003923609
 0.003978622
 0.004033636
 0.004071598
 0.004109561
 0.004169216
 0.004228872
 0.004274005
 0.004319138
 0.004364272
 0.004409405
 0.004454538
 0.004499671
 0.00457031
 0.004640948
 0.004711586
 0.004782224
 0.004834219
 0.004886214
 0.00493821
 0.004990205
 0.005042201
 0.005094196
 0.005146192
 0.005233093
 0.005296274
 0.005343509
 0.005390743
 0.005437978
 0.005485213
 0.005532447
 0.005579682
 0.005651086
 0.005722491
 0.005793895
 0.005849541
 0.005905188
 0.005960834
 0.00601648
 0.006072126
 0.006127773
 0.006219589
 0.006311405
 0.006369895
 0.006428386
 0.006486876
 0.006545367
 0.006590559
 0.006635751
 0.006680942
 0.006726134
 0.006771326
 0.006816518
 0.00686171
 0.006906902
 0.006952094
 0.007023895
 0.007095695
 0.007167495
 0.007239296
 0.007311096
 0.007382896
 0.007424625
 0.007466354
 0.007508083
 0.007549812
 0.007591541
 0.00763327
 0.007664335
 0.0076954
 0.007746675
 0.00779795
 0.007849225
 0.0079005
 0.007951775
 0.008031085
 0.008110395
 0.008189705
 0.008269015
 0.008348325
 0.008409488
 0.008452073
 0.008494658
 0.008537243
 0.00860112
 0.008664997
 0.008728875
 0.008792752
 0.008856629
 0.008920507
 0.008984384
 0.009048261
 0.009112138
 0.009216058
 0.009319978
 0.009397142
 0.009453281
 0.009488224
 0.009523167
 0.009558111
 0.009626939
 0.009695767
 0.009764594
 0.009833422
 0.00990225
 0.009971078
 0.01003991
 0.01010873
 0.01021233
 0.01031593
 0.01039467
 0.01045285
 0.01049148
 0.01053011
 0.01056874
 0.01063142
 0.01067809
 0.01072476
 0.01077143
 0.01081811
 0.01086478
 0.01094484
 0.0110249
 0.01110497
 0.01118503
 0.0112651
 0.01134516
 0.01142522
 0.01147398
 0.01152273
 0.01157148
 0.01162023
 0.01166899
 0.01171774
 0.01176649
 0.01181524
 0.01189008
 0.01196491
 0.01203975
 0.01211458
 0.01218942
 0.01226425
 0.01233909
 0.01241392
 0.0124564
 0.01249888
 0.01254136
 0.01258383
 0.01262631
 0.01266879
 0.01271127
 0.01275375
 0.01279623
 0.01286504
 0.01293386
 0.01300267
 0.01307149
 0.0131403
 0.01324437
 0.01334845
 0.01341058
 0.01345937
 0.01350816
 0.01355696
 0.01360575
 0.01363941
 0.01367308
 0.01370674
 0.0137404
 0.01377407
 0.01380773
 0.01386243
 0.01391714
 0.01397184
 0.01402655
 0.01408125
 0.01417068
 0.01426011
 0.01434954
 0.01439711
 0.01444468
 0.01449225
 0.01453982
 0.01458739
 0.01463496
 0.01468253
 0.0147301
 0.01477767
 0.01482524
 0.01487281
 0.01492038
 0.01496795
 0.01501552
 0.01508791
 0.0151603
 0.01523269
 0.01530507
 0.0153496
 0.01539413
 0.01543866
 0.01548319
 0.01552772
 0.01557225
 0.01564162
 0.01571098
 0.01578035
 0.01582622
 0.01587209
 0.01591796
 0.01596383
 0.0160097
 0.01605557
 0.01610144
 0.01617822
 0.01625501
 0.0163063
 0.01635759
 0.01640887
 0.01646016
 0.01651145
 0.01656274
 0.01664041
 0.01671808
 0.01679575
 0.01685242
 0.01690909
 0.01696576
 0.01702243
 0.01706526
 0.01710809
 0.01715092
 0.01719375
 0.01723659
 0.01727942
 0.01732225
 0.01736508
 0.01740791
 0.01745074
 0.01752084
 0.01759095
 0.01766106
 0.01773117
 0.01780127
 0.01787138
 0.0179135
 0.01795561
 0.01799772
 0.01803984
 0.01808195
 0.01812406
 0.01816617
 0.01820829
 0.0182504
 0.01829251
 0.01833463
 0.01840091
 0.01846719
 0.01853347
 0.01859975
 0.01866603
 0.01877295
 0.01885092
 0.01891286
 0.01894933
 0.0189858
 0.01902227
 0.01908429
 0.01914631
 0.01920834
 0.01927036
 0.01933238
 0.0193944
 0.01945642
 0.01951844
 0.01958046
 0.01967694
 0.01977342
 0.01986989
 0.01993281
 0.01997308
 0.02001335
 0.02005362
 0.02011949
 0.02018536
 0.02025123
 0.0203171
 0.02038297
 0.02044884
 0.02051471
 0.02058058
 0.02064645
 0.02075914
 0.02084471
 0.02093027
 0.02097826
 0.02102625
 0.02107423
 0.02112222
 0.02117021
 0.0212182
 0.02124737
 0.02127655
 0.02132152
 0.02136648
 0.02144221
 0.02151795
 0.02159368
 0.02166941
 0.02178511
 0.02186645
 0.02193049
 0.02197044
 0.02201039
 0.02205034
 0.02211659
 0.02216914
 0.0222217
 0.02227425
 0.02232681
 0.02237937
 0.02245875
 0.02253813
 0.02261751
 0.02269689
 0.02277627
 0.02285566
 0.02291374
 0.02295246
 0.02299119
 0.02305058
 0.02310998
 0.02316938
 0.02322877
 0.02328817
 0.02334757
 0.02340696
 0.02346636
 0.02352576
 0.02358515
 0.02367812
 0.02377109
 0.02386406
 0.02391741
 0.02397077
 0.02402413
 0.02407748
 0.02411979
 0.02416209
 0.02420439
 0.0242467
 0.024289
 0.02433131
 0.02437361
 0.02443683
 0.02450004
 0.02456326
 0.02462648
 0.02472244
 0.02481839
 0.02487795
 0.02493751
 0.02499707
 0.02505663
 0.02511619
 0.02517574
 0.0252353
 0.02527862
 0.02532193
 0.02536525
 0.02540856
 0.02545188
 0.0254952
 0.0255645
 0.0256338
 0.02570311
 0.02577241
 0.02582661
 0.02588081
 0.02593501
 0.02598921
 0.02604341
 0.02609761
 0.02615181
 0.02623733
 0.02629901
 0.02634771
 0.02639641
 0.0264451
 0.0264938
 0.0265425
 0.02659119
 0.02666372
 0.02673625
 0.02679252
 0.02684879
 0.02690506
 0.02696134
 0.02701761
 0.02707388
 0.02713015
 0.02721983
 0.02730952
 0.02736557
 0.02742162
 0.02747767
 0.02753372
 0.02758978
 0.02764583
 0.02770188
 0.02775793
 0.02781398
 0.02787003
 0.02792609
 0.02798214
 0.02803819
 0.02809424
 0.02818499
 0.02827574
 0.02836649
 0.02841599
 0.02846549
 0.02851499
 0.02856449
 0.02861399
 0.02864953
 0.02868507
 0.02872061
 0.02875615
 0.02881023
 0.02886431
 0.02891839
 0.02897247
 0.02902655
 0.02910767
 0.02918879
 0.02926991
 0.02935103
 0.02940511
 0.02944011
 0.0294751
 0.02952759
 0.02958008
 0.02963257
 0.02968506
 0.02973755
 0.02979004
 0.02984253
 0.02989502
 0.02994751
 0.03
</indep>
<dep _net0.Vt time>
 0.
 227.416E-12
 568.535E-12
 1.620094E-9
 3.283054E-9
 270.3993E-9
 966.4192E-9
 2.089642E-6
 3.638315E-6
 5.610636E-6
 8.00475E-6
 10.81875E-6
 16.72602E-6
 23.8942E-6
 37.39862E-6
 53.83418E-6
 84.19373E-6
 120.9987E-6
 164.0654E-6
 213.1976E-6
 268.1862E-6
 328.8106E-6
 394.8384E-6
 442.8332E-6
 493.1467E-6
 581.0254E-6
 674.6141E-6
 828.5194E-6
 993.4615E-6
 0.001167878
 0.001462823
 0.001771078
 0.002085616
 0.002596332
 0.003074591
 0.003684698
 0.004062755
 0.004070026
 0.003381323
 0.002189469
 843.7696E-6
-257.4743E-6
-728.5799E-6
-813.605E-6
-742.9903E-6
-581.1489E-6
-94.5016E-6
 594.7298E-6
 0.001400894
 0.002224204
 0.002962812
 0.00352514
 0.003840967
 0.003766698
 0.003053884
 0.001892999
 599.4394E-6
-474.4696E-6
-959.6668E-6
-0.001085232
-0.001026744
-789.9857E-6
-146.1793E-6
 740.4051E-6
 0.001713883
 0.002603539
 0.003252953
 0.003546687
 0.00342998
 0.002918095
 0.002093708
 480.2186E-6
-638.3536E-6
-0.001225634
-0.001421986
-0.001456699
-0.0012056
-631.3549E-6
-17.66731E-6
 369.971E-6
 772.0546E-6
 0.001461403
 0.002096312
 0.002619872
 0.002984814
 0.0031576
 0.003007871
 0.002377439
 0.00139151
 250.3546E-6
-812.9724E-6
-0.001428915
-0.001808673
-0.001910732
-0.001726386
-0.001442488
-0.001050196
-277.8913E-6
 590.6735E-6
 0.001238831
 0.001816661
 0.002276232
 0.002579051
 0.002699145
 0.002625131
 0.002138702
 0.001282486
 215.4503E-6
-862.5531E-6
-0.001549182
-0.002060667
-0.0023458
-0.00237728
-0.002154603
-0.001704123
-0.001076271
 154.8679E-6
 0.001034313
 0.001582033
 0.001976017
 0.002179951
 0.002174121
 0.001957139
 0.001546069
 643.7519E-6
-446.3802E-6
-0.00151501
-0.002204241
-0.00267357
-0.002869424
-0.002771275
-0.002394121
-0.001786685
-515.2069E-6
 738.1045E-6
 0.001340542
 0.001675189
 0.001694396
 0.001392592
 959.9242E-6
 389.7524E-6
-273.6679E-6
-978.6099E-6
-0.001670015
-0.002293901
-0.002801683
-0.003154064
-0.003324181
-0.003196355
-0.002617557
-0.001708505
-655.9708E-6
 324.6115E-6
 0.001032277
 0.001259834
 0.001326154
 0.001225911
 965.1535E-6
 560.9011E-6
 39.97993E-6
-404.2244E-6
-877.4355E-6
-0.001670644
-0.0024146
-0.003034119
-0.003466811
-0.003669496
-0.003494608
-0.002783197
-0.001712475
-547.0083E-6
 425.6892E-6
 893.0806E-6
 0.001025655
 985.3852E-6
 774.7021E-6
 178.2103E-6
-671.042E-6
-0.001639574
-0.002574912
-0.00332981
-0.003785639
-0.003871234
-0.003574198
-0.002942869
-0.001509815
-76.55239E-6
 640.7448E-6
 852.4287E-6
 833.6254E-6
 698.797E-6
 454.4553E-6
-289.0033E-6
-0.001267053
-0.002299432
-0.003195876
-0.003791114
-0.003975274
-0.003714098
-0.003055231
-0.001621958
-165.9676E-6
 595.1707E-6
 830.4703E-6
 810.0325E-6
 648.4748E-6
 355.6395E-6
-345.6426E-6
-999.9249E-6
-0.001702044
-0.002391479
-0.003008778
-0.003500635
-0.00393026
-0.003768863
-0.00305229
-0.00195401
-742.0477E-6
 287.4832E-6
 883.784E-6
 968.9381E-6
 827.92E-6
 475.0797E-6
-55.5203E-6
-713.2694E-6
-0.001435715
-0.002154373
-0.002801099
-0.003508904
-0.003750968
-0.003469567
-0.002720645
-0.001661624
-517.1912E-6
 469.4867E-6
 0.00108956
 0.001226578
 0.001191248
 987.2023E-6
 630.0114E-6
 146.0841E-6
-429.1984E-6
-0.001053986
-0.00168292
-0.002270348
-0.003019374
-0.003409189
-0.003362849
-0.00288375
-0.00205497
-506.1437E-6
 868.6806E-6
 0.001379936
 0.001542939
 0.001478844
 0.001195818
 722.3955E-6
 306.6216E-6
-159.0084E-6
-653.0678E-6
-0.001152865
-0.001635454
-0.002078656
-0.002659609
-0.003013843
-0.00309693
-0.00289619
-0.002432165
-0.001268734
 99.93687E-6
 0.001265254
 0.001684992
 0.001907938
 0.001916534
 0.001712178
 0.001315108
 762.6213E-6
 105.7685E-6
-595.1628E-6
-0.001275992
-0.001874333
-0.002335122
-0.002615502
-0.002688617
-0.002545994
-0.001949603
-0.001000989
 113.954E-6
 0.001175476
 0.001715185
 0.002112953
 0.002339606
 0.002379246
 0.002230494
 0.001906601
 0.001127719
 146.5606E-6
-847.295E-6
-0.00142223
-0.001868025
-0.002146294
-0.002232457
-0.002117768
-0.001810046
-0.001333029
-276.3077E-6
 907.8761E-6
 0.001646497
 0.002249191
 0.00265635
 0.002828446
 0.002750114
 0.002431732
 0.00158627
 484.9E-6
-607.5809E-6
-0.001252538
-0.001666246
-0.001794182
-0.001617651
-0.001291383
-823.346E-6
-246.0911E-6
 399.964E-6
 0.001069445
 0.001715284
 0.00229211
 0.002759509
 0.003084939
 0.003246064
 0.003134058
 0.002588416
 0.001717616
 692.2014E-6
-287.8051E-6
-0.001031104
-0.001303091
-0.001414271
-0.001356131
-0.001131936
-756.5061E-6
-255.1874E-6
 337.9081E-6
 982.276E-6
 0.001633837
 0.002248003
 0.002782781
 0.003373404
 0.003583821
 0.003380512
 0.002800688
 0.001945908
 409.0661E-6
-536.9757E-6
-996.331E-6
-0.001109779
-0.001096185
-956.0394E-6
-454.1807E-6
 313.9818E-6
 0.001234511
 0.002170619
 0.002983158
 0.003551471
 0.003791475
 0.003668263
 0.003201329
 0.001993741
 580.0224E-6
-532.9439E-6
-904.1095E-6
-951.2279E-6
-843.1829E-6
-586.9035E-6
 99.76316E-6
 0.001017759
 0.002011977
 0.002914437
 0.003572628
 0.003875235
 0.003770929
 0.003277021
 0.002476534
 841.8383E-6
-257.042E-6
-864.8857E-6
-921.2824E-6
-758.7411E-6
-392.5636E-6
 143.597E-6
 800.7622E-6
 0.001519039
 0.001959957
 0.002384281
 0.002970686
 0.003437297
 0.003848735
 0.003730383
 0.003105249
 0.002108999
 418.6969E-6
-535.6468E-6
-946.6359E-6
-0.001013627
-927.7192E-6
-695.0205E-6
-36.26223E-6
 668.2466E-6
 0.001447607
 0.002216123
 0.00288926
 0.003392778
 0.003710262
 0.003441975
 0.002647288
 0.001513889
 311.9892E-6
-671.5609E-6
-0.001118467
-0.001250649
-0.001239538
-951.9178E-6
-377.2898E-6
 402.3547E-6
 0.001276802
 0.002122778
 0.002820915
 0.003272176
 0.00341149
 0.003216702
 0.002711628
 0.001487695
 78.00511E-6
-0.001061378
-0.001450731
-0.001581258
-0.001441131
-0.001048597
-586.1561E-6
-27.14832E-6
 587.895E-6
 0.001214511
 0.001807427
 0.002323738
 0.002725918
 0.003050214
 0.003003565
 0.002588822
 0.001866196
 455.7492E-6
-919.4076E-6
-0.001553816
-0.001901216
-0.001917604
-0.001604685
-0.001009669
-218.7559E-6
 654.7797E-6
 0.001274177
 0.001823874
 0.002262022
 0.002554974
 0.002679766
 0.002625807
 0.002182622
 0.001373229
 342.8202E-6
-722.1331E-6
-0.001457932
-0.002013758
-0.002328694
-0.002369453
-0.002134206
-0.001652798
-983.3271E-6
 239.8771E-6
 0.001095953
 0.001652638
 0.002042005
 0.002226056
 0.002185848
 0.001923253
 0.001460793
 502.583E-6
-612.7491E-6
-0.001450504
-0.002147792
-0.002621345
-0.002815529
-0.002709233
-0.002318484
-0.001694464
-443.1738E-6
 789.3555E-6
 0.001381454
 0.001731824
 0.001795148
 0.0015613
 0.001056605
 340.6261E-6
-501.1428E-6
-0.001367759
-0.002155217
-0.002769213
-0.003136712
-0.003214917
-0.002996515
-0.002510575
-0.001344372
-32.47528E-6
 0.001000757
 0.001326311
 0.00142929
 0.001298732
 946.0465E-6
 403.9372E-6
-76.04295E-6
-604.4892E-6
-0.001155603
-0.001702457
-0.002462672
-0.003066677
-0.003446755
-0.003560799
-0.003397109
-0.002691044
-0.001601376
-409.1952E-6
 578.4838E-6
 998.3805E-6
 0.001135125
 0.001155744
 968.7111E-6
 539.6481E-6
-85.93752E-6
-841.353E-6
-0.001645902
-0.002413575
-0.003062318
-0.003522871
-0.003746229
-0.003708928
</dep>
<dep _net1.Vt time>
 0.
 285.7592E-6
 571.5184E-6
 0.001040118
 0.001508718
 0.01394445
 0.02637802
 0.03880751
 0.051231
 0.06364657
 0.0760523
 0.08844626
 0.1100321
 0.1315662
 0.1646645
 0.1975783
 0.2469896
 0.2957666
 0.3437839
 0.3909182
 0.4370484
 0.482056
 0.5258256
 0.5548976
 0.5833071
 0.6286601
 0.6719686
 0.7341939
 0.7907868
 0.8413133
 0.9086979
 0.9581878
 0.9888084
 0.9967043
 0.9516711
 0.7827488
 0.5137146
-0.01872864
-0.5454855
-0.9066214
-0.9924878
-0.7770139
-0.4511143
-0.1491959
 0.04716268
 0.241698
 0.5597253
 0.8099068
 0.9619172
 0.997331
 0.9118556
 0.7158517
 0.4330774
-0.08627013
-0.5815715
-0.914771
-0.9929956
-0.7944416
-0.4959113
-0.240794
 0.03251056
 0.3033596
 0.6626711
 0.9088602
 0.9999005
 0.9202511
 0.6835085
 0.3300863
-0.07968385
-0.4758514
-0.7907879
-0.9997866
-0.8588078
-0.5902275
-0.3632666
-0.1119672
 0.2762103
 0.6224741
 0.8281562
 0.911483
 0.9682018
 0.9990986
 0.943496
 0.806208
 0.5991204
 0.3401625
-0.116124
-0.5479093
-0.8640898
-0.9979538
-0.9212569
-0.7349819
-0.4617616
-0.1339167
 0.2097699
 0.434844
 0.635295
 0.8739232
 0.9912009
 0.988647
 0.9071192
 0.75313
 0.5389804
 0.2817765
 0.002064214
-0.427538
-0.7742943
-0.9710124
-0.9795733
-0.8632294
-0.6555687
-0.3785588
-0.061503
 0.2620589
 0.5578989
 0.7947215
 0.9943627
 0.9580296
 0.8323112
 0.6338186
 0.3799073
 0.09277833
-0.2024628
-0.4800014
-0.8130101
-0.9850992
-0.9622069
-0.8107069
-0.5611075
-0.2436114
 0.1033628
 0.4378296
 0.719317
 0.9817997
 0.9264901
 0.7294179
 0.434934
 0.08236577
-0.2812021
-0.5387865
-0.7532211
-0.9073324
-0.9887781
-0.9910355
-0.9139238
-0.7636186
-0.5521575
-0.2964756
 0.149571
 0.5656893
 0.8686166
 0.9977388
 0.9272194
 0.6711689
 0.4560874
 0.2098317
-0.05076621
-0.3078942
-0.5439772
-0.7428788
-0.8586075
-0.9417288
-0.9997816
-0.9549579
-0.8118702
-0.585242
-0.2983931
 0.1940724
 0.6393342
 0.9290927
 0.9928709
 0.8151562
 0.538538
 0.296602
 0.03355784
-0.2318745
-0.5934648
-0.8607338
-0.9912036
-0.9641382
-0.7838393
-0.4789623
-0.09796228
 0.2986072
 0.6477181
 0.9773451
 0.9048865
 0.6022176
 0.2893493
 0.07392372
-0.1450511
-0.3570618
-0.7156672
-0.9425012
-0.9957983
-0.8657453
-0.5762879
-0.1807222
 0.2481188
 0.6312751
 0.9721264
 0.915406
 0.6145388
 0.291955
 0.05352072
-0.1880513
-0.4185986
-0.7350504
-0.8996578
-0.9874544
-0.9909445
-0.9098299
-0.7510362
-0.3396786
 0.155842
 0.6127492
 0.9178341
 0.995505
 0.8265173
 0.4527413
 0.1627875
-0.1423221
-0.4341812
-0.6856173
-0.8732211
-0.9795263
-0.9946359
-0.9171429
-0.6370413
-0.2186743
 0.2471544
 0.65934
 0.9284204
 0.9959937
 0.8473935
 0.5148726
 0.2705449
 0.007058848
-0.256927
-0.5027189
-0.7129114
-0.8726199
-0.9705349
-0.9997226
-0.9581162
-0.7499408
-0.403734
 0.0167826
 0.4342103
 0.7717187
 0.999375
 0.814718
 0.5327542
 0.2525164
-0.05126922
-0.3502738
-0.6166146
-0.7681525
-0.8854522
-0.9632852
-0.9981824
-0.9885883
-0.9349306
-0.7606739
-0.4974335
-0.1760033
 0.1660158
 0.4886144
 0.8783567
 0.9979824
 0.8107036
 0.6023671
 0.3406176
 0.04866489
-0.2476031
-0.5219156
-0.7499488
-0.9114826
-0.9921935
-0.9849246
-0.8903205
-0.71677
-0.4796621
-0.2000216
 0.09735523
 0.5246822
 0.8453254
 0.994088
 0.9407222
 0.8104752
 0.6171947
 0.3759128
 0.1053949
-0.17332
-0.4385552
-0.7769573
-0.9701007
-0.9818758
-0.8875083
-0.7199294
-0.4929629
-0.2253315
 0.06088777
 0.3420843
 0.5950621
 0.9000192
 0.9995041
 0.9380849
 0.7800918
 0.5417899
 0.2477118
-0.07186769
-0.3840485
-0.7721418
-0.9799543
-0.9589657
-0.7999788
-0.5406319
-0.2134611
 0.1404892
 0.3986697
 0.6281522
 0.8124176
 0.9382015
 0.9964496
 0.9829689
 0.8987297
 0.749796
 0.5468887
 0.3046139
-0.130592
-0.540865
-0.8478749
-0.9930067
-0.9485514
-0.7229967
-0.5171562
-0.2753172
-0.01431386
 0.2476859
 0.4924445
 0.7029249
 0.8644759
 0.965852
 0.9999966
 0.9645331
 0.8619299
 0.5831584
 0.2047012
-0.2087478
-0.5865132
-0.8640196
-0.9896169
-0.8056046
-0.5205707
-0.3130153
-0.08909481
 0.1394837
 0.5052138
 0.7951892
 0.9659289
 0.9918313
 0.8690125
 0.6158885
 0.2704144
-0.1156072
-0.484294
-0.896471
-0.9891959
-0.7294268
-0.4097192
-0.168325
 0.0837875
 0.3305647
 0.6822061
 0.9186498
 0.9999699
 0.9124347
 0.6708254
 0.3159403
-0.09229473
-0.4849448
-0.7957069
-0.9983499
-0.8281134
-0.4242403
-0.1361809
 0.1641656
 0.4497001
 0.6946598
 0.8769432
 0.9801033
 0.9998637
 0.9861184
 0.9007311
 0.7439209
 0.3551521
-0.1125262
-0.5552029
-0.8745217
-0.9757588
-0.7440531
-0.4229679
-0.1846514
 0.06523749
 0.3110379
 0.6687513
 0.8736954
 0.9842299
 0.9884107
 0.8857862
 0.6874455
 0.2563041
-0.2372874
-0.6730623
-0.9448415
-0.9864044
-0.7876237
-0.5158416
-0.2942662
-0.05535726
 0.3124917
 0.6373201
 0.8744088
 0.991118
 0.9713802
 0.8179129
 0.5518437
 0.2098025
-0.1611223
-0.5098653
-0.8997377
-0.9912329
-0.7540086
-0.4959233
-0.1826215
 0.1510136
 0.4678347
 0.6835688
 0.851292
 0.9592242
 0.9997845
 0.9701244
 0.8723268
 0.7132608
 0.3865889
-279.6008E-6
-0.3871045
-0.7136527
-0.9850399
-0.9090832
-0.6938774
-0.3826301
-0.01842182
 0.3483362
 0.6668801
 0.8931191
 0.995739
 0.9838768
 0.8995871
 0.7490747
 0.5434197
 0.2977612
 0.03018316
-0.3942635
-0.7451237
-0.9569119
-0.9900993
-0.8863566
-0.6808104
-0.3970689
-0.06772163
 0.2694039
 0.5755868
 0.8156599
 0.9968319
 0.9529574
 0.817395
 0.6059034
 0.3381282
 0.03894375
-0.2638583
-0.54215
-0.8566284
-0.9962704
-0.964521
-0.8134497
-0.5617457
-0.2405476
 0.1104089
 0.4477066
 0.7296181
 0.9820909
 0.93089
 0.7477444
 0.4728084
 0.1398321
-0.2103094
-0.5346342
-0.7933291
-0.9546378
-0.9987586
-0.9202754
-0.7288224
-0.4479018
-0.1119984
 0.2376535
 0.558132
 0.9177327
 0.9869484
 0.743878
 0.5036645
 0.2151215
-0.09406363
-0.3942228
-0.6565541
-0.8072848
-0.9179305
-0.9829971
-0.9992538
-0.9292471
-0.7529755
-0.4905966
-0.1721151
 0.1660487
 0.626082
 0.9269556
 0.992183
 0.8051822
 0.5614896
 0.3674963
 0.1558089
-0.1724906
-0.4821975
-0.7399292
-0.9179053
-0.9969419
-0.9685199
-0.8357029
-0.6128068
-0.3238574
