<Qucs Dataset>
default plugins: ignored
C:C1 gnd _net2 C="1 m" V="" 
                       ^ ? C1: V has no value?
Gnucap   System status
iterations: op=0, dc=0, tran=1658, fourier=0, total=2211
transient timesteps: accepted=550, rejected=3, total=553
transient timesteps: accepted=0, rejected=0, total=0
nodes: user=5, subckt=0, model=3, total=8
dctran density=65.6%, ac density=65.6%

<indep time 550>
 0.
 86.80556E-9
 173.6111E-9
 260.4167E-9
 347.2222E-9
 2.276088E-6
 4.204954E-6
 6.13382E-6
 8.062686E-6
 9.991552E-6
 11.92042E-6
 14.83499E-6
 17.74957E-6
 22.20657E-6
 26.66357E-6
 33.42041E-6
 40.17725E-6
 46.93409E-6
 53.69093E-6
 60.44777E-6
 67.20461E-6
 73.96145E-6
 80.71828E-6
 87.47512E-6
 92.70367E-6
 97.93222E-6
 106.6909E-6
 115.4495E-6
 128.972E-6
 142.4944E-6
 156.0168E-6
 177.7215E-6
 199.4262E-6
 221.1309E-6
 256.7516E-6
 292.3723E-6
 347.3864E-6
 402.4005E-6
 490.7516E-6
 579.1026E-6
 667.4536E-6
 755.8047E-6
 844.1557E-6
 913.9066E-6
 967.4721E-6
 0.001003095
 0.001038718
 0.00107434
 0.001109963
 0.001164064
 0.001218165
 0.001272267
 0.001326368
 0.001380469
 0.001464152
 0.001547835
 0.001631518
 0.0017152
 0.001798883
 0.001882566
 0.001939715
 0.001976832
 0.002013949
 0.002073241
 0.002132534
 0.002191826
 0.002251119
 0.002310411
 0.002369704
 0.002428996
 0.002488289
 0.002547581
 0.002638483
 0.002729385
 0.002820287
 0.002887232
 0.002929398
 0.002971565
 0.003013731
 0.003055897
 0.003098063
 0.003140229
 0.003173888
 0.003207546
 0.003241205
 0.003294298
 0.003347391
 0.003400484
 0.003453577
 0.00350667
 0.003586952
 0.003667235
 0.003747518
 0.003827801
 0.003880996
 0.003934192
 0.003987387
 0.004040583
 0.004080337
 0.004120091
 0.004182005
 0.004243918
 0.00429041
 0.004336901
 0.004383392
 0.004429883
 0.004476374
 0.004522865
 0.004596927
 0.004670988
 0.004745049
 0.004819111
 0.004867629
 0.004916147
 0.004964665
 0.005013183
 0.005061701
 0.005110219
 0.005187278
 0.005264336
 0.005319426
 0.005374517
 0.005429607
 0.005470422
 0.005511237
 0.005552051
 0.005619587
 0.005687123
 0.005754659
 0.005800752
 0.005846846
 0.00589294
 0.005939034
 0.005985128
 0.006031221
 0.00610452
 0.006177819
 0.006251118
 0.006324417
 0.006371769
 0.00641912
 0.006466471
 0.006513822
 0.00655122
 0.006588619
 0.006645168
 0.006701717
 0.006758267
 0.006814816
 0.006871365
 0.006927914
 0.006984463
 0.007041013
 0.007097562
 0.007190284
 0.007283007
 0.007375729
 0.007426456
 0.007477183
 0.00752791
 0.007578637
 0.007629365
 0.007664319
 0.007699273
 0.007752118
 0.007804963
 0.007857809
 0.007910654
 0.007963499
 0.008044219
 0.008124939
 0.008205659
 0.008286378
 0.008367098
 0.008424786
 0.008460986
 0.008497186
 0.008533386
 0.008597466
 0.008661545
 0.008725624
 0.008789704
 0.008853783
 0.008917863
 0.008981942
 0.009046022
 0.009110101
 0.009213516
 0.009316932
 0.009394688
 0.009451766
 0.009488394
 0.009525022
 0.00956165
 0.009630698
 0.009699747
 0.009768795
 0.009837844
 0.009906892
 0.009975941
 0.01004499
 0.01011404
 0.0102187
 0.01032336
 0.01040114
 0.01045828
 0.01049571
 0.01053315
 0.01057059
 0.01060802
 0.01064546
 0.01068289
 0.01072033
 0.01075777
 0.0107952
 0.01085253
 0.01090986
 0.01099585
 0.01108184
 0.01116783
 0.01125382
 0.01133982
 0.01140792
 0.01145914
 0.01149291
 0.01152668
 0.01158533
 0.01164397
 0.01170262
 0.01176126
 0.01181991
 0.01187855
 0.0119372
 0.01199584
 0.01205449
 0.01214894
 0.01224339
 0.01233784
 0.01240551
 0.01245086
 0.0124962
 0.01254155
 0.0125869
 0.01263224
 0.01267759
 0.01272294
 0.01276828
 0.01281363
 0.01288524
 0.01295685
 0.01302846
 0.01310007
 0.01317168
 0.01327887
 0.01335453
 0.01340983
 0.01346513
 0.01352043
 0.01357573
 0.01363103
 0.01366586
 0.01370069
 0.01373551
 0.01377034
 0.01380517
 0.01386101
 0.01391686
 0.0139727
 0.01402855
 0.01408439
 0.01417431
 0.01426423
 0.01435415
 0.01440071
 0.01444728
 0.01449384
 0.01454041
 0.01458697
 0.01463354
 0.0146801
 0.01472667
 0.01477323
 0.0148198
 0.01486636
 0.01491293
 0.01495949
 0.01500606
 0.01507746
 0.01514886
 0.01522026
 0.01529166
 0.01534052
 0.01538939
 0.01543825
 0.01548712
 0.01553598
 0.01558485
 0.01563371
 0.01571724
 0.01578336
 0.01582864
 0.01587391
 0.01591919
 0.01595529
 0.0159914
 0.01604721
 0.01610302
 0.01615883
 0.01621464
 0.01627045
 0.01632626
 0.01638207
 0.01643789
 0.0164937
 0.01654951
 0.01660532
 0.01669118
 0.01677705
 0.01684218
 0.01688619
 0.0169302
 0.0169742
 0.01701821
 0.01706221
 0.01710622
 0.01715023
 0.01719423
 0.01723824
 0.01728224
 0.01732625
 0.01737026
 0.01741426
 0.01745827
 0.01752994
 0.0176016
 0.01767327
 0.01774494
 0.0178166
 0.01788827
 0.01792947
 0.01797066
 0.01801186
 0.01805306
 0.01809425
 0.01813545
 0.01817665
 0.01821784
 0.01825904
 0.01832149
 0.01838394
 0.01844639
 0.01850885
 0.0185713
 0.01863375
 0.01873899
 0.01884424
 0.01891268
 0.01895516
 0.01899764
 0.01904012
 0.0190826
 0.01912508
 0.01916756
 0.01921004
 0.01925252
 0.01931969
 0.01938686
 0.01945403
 0.0195212
 0.01958838
 0.01965555
 0.01977049
 0.01985365
 0.01993682
 0.01998256
 0.0200283
 0.02007405
 0.02011979
 0.02016553
 0.02021127
 0.02025701
 0.02032711
 0.0203972
 0.02046729
 0.02053739
 0.02060748
 0.02067757
 0.02078597
 0.02086609
 0.02094622
 0.02099082
 0.02103542
 0.02108002
 0.02112462
 0.02116922
 0.02121382
 0.02125842
 0.02130302
 0.02137204
 0.02144106
 0.02151009
 0.02157911
 0.02164813
 0.021761
 0.02184682
 0.02193264
 0.02197982
 0.022027
 0.02207418
 0.02212135
 0.02216853
 0.02221571
 0.02226289
 0.02231006
 0.02238401
 0.02245795
 0.02253189
 0.02260583
 0.02267977
 0.02275371
 0.02282766
 0.0229016
 0.0229471
 0.0229926
 0.02303811
 0.02308361
 0.02312911
 0.02317461
 0.02322012
 0.02326562
 0.02331112
 0.02338153
 0.02345194
 0.02352235
 0.02359276
 0.02366317
 0.02377242
 0.02384837
 0.02390429
 0.02396022
 0.02401614
 0.02407206
 0.02412799
 0.02416848
 0.02420898
 0.02424948
 0.02428997
 0.02433047
 0.02437097
 0.02443351
 0.02449606
 0.0245586
 0.02462115
 0.02471551
 0.02480988
 0.02487094
 0.024932
 0.02499306
 0.02505412
 0.02510214
 0.02515016
 0.02519817
 0.02524619
 0.02529421
 0.02534223
 0.02539025
 0.02543827
 0.02548628
 0.0255343
 0.02560873
 0.02568316
 0.02575759
 0.02583202
 0.02588412
 0.02593622
 0.02598832
 0.02604041
 0.02609251
 0.02614461
 0.02623029
 0.02629312
 0.02633888
 0.02638465
 0.02643041
 0.02647617
 0.02652194
 0.0265677
 0.02663635
 0.02670499
 0.02677364
 0.02682328
 0.02687291
 0.02692255
 0.02697219
 0.02702182
 0.02707146
 0.02715061
 0.02722976
 0.02730891
 0.02736167
 0.02741444
 0.02746721
 0.02751997
 0.02756131
 0.02760264
 0.02764397
 0.02770942
 0.02775433
 0.02779925
 0.02784416
 0.02788907
 0.02793399
 0.02800063
 0.02806728
 0.02813392
 0.02820057
 0.02826721
 0.02833386
 0.02838593
 0.02843799
 0.02849006
 0.02854213
 0.02859419
 0.02862767
 0.02866114
 0.02869461
 0.02872808
 0.02876155
 0.0288154
 0.02886924
 0.02892309
 0.02897693
 0.02903078
 0.02911155
 0.02919232
 0.02927308
 0.02935385
 0.0294077
 0.02944254
 0.02947738
 0.02952964
 0.02958191
 0.02963417
 0.02968643
 0.02973869
 0.02979095
 0.02984321
 0.02989548
 0.02994774
 0.03
</indep>
<dep _net0.Vt time>
 0.
 828.402E-12
 2.070972E-9
 4.141806E-9
 7.040769E-9
 284.6889E-9
 969.6245E-9
 2.060273E-6
 3.555012E-6
 5.452177E-6
 7.750052E-6
 11.9782E-6
 17.11096E-6
 26.69339E-6
 38.35159E-6
 59.9223E-6
 86.10964E-6
 116.8123E-6
 151.9226E-6
 191.3263E-6
 234.9035E-6
 282.5277E-6
 334.0671E-6
 389.384E-6
 434.6948E-6
 482.1136E-6
 566.0594E-6
 655.3814E-6
 802.9533E-6
 961.1359E-6
 0.001128514
 0.001412387
 0.001709908
 0.002014659
 0.002512037
 0.002983616
 0.00359735
 0.004007858
 0.004111653
 0.003516775
 0.002385221
 0.001044054
-114.3079E-6
-677.6129E-6
-818.9624E-6
-761.0384E-6
-584.6332E-6
-299.1351E-6
 80.64062E-6
 789.0414E-6
 0.001585381
 0.002376587
 0.003070196
 0.003584923
 0.003890997
 0.003548473
 0.002641946
 0.001408492
 173.5088E-6
-737.2558E-6
-0.001048507
-0.001087787
-995.256E-6
-593.8707E-6
 66.54449E-6
 892.1404E-6
 0.001766413
 0.002566173
 0.003178439
 0.003515933
 0.003529045
 0.003212638
 0.002205995
 845.0398E-6
-450.4994E-6
-0.001133683
-0.001379565
-0.001459419
-0.001369172
-0.001116593
-720.7612E-6
-210.7351E-6
 254.773E-6
 748.1474E-6
 0.00124669
 0.001984111
 0.002593949
 0.003006071
 0.003172159
 0.003071038
 0.002443802
 0.00138371
 144.8761E-6
-974.0248E-6
-0.001520726
-0.001834921
-0.001885009
-0.001668565
-0.001346557
-911.0817E-6
-81.69155E-6
 823.1144E-6
 0.001471164
 0.002025262
 0.002436516
 0.00266813
 0.00269852
 0.00252315
 0.00186316
 855.7257E-6
-292.8699E-6
-0.001346304
-0.001884092
-0.002238034
-0.002377903
-0.002293174
-0.001993998
-0.001510275
-494.6941E-6
 618.9206E-6
 0.00133416
 0.001873881
 0.002171014
 0.002211185
 0.002091959
 0.001819909
 0.001088688
 114.7219E-6
-934.7785E-6
-0.001606425
-0.002173943
-0.002591944
-0.002827468
-0.002862726
-0.002696589
-0.00206849
-0.001117388
-48.32263E-6
 909.1747E-6
 0.001374345
 0.001661364
 0.001743392
 0.001611586
 0.001361621
 996.7501E-6
 275.1058E-6
-575.7047E-6
-0.001452128
-0.002247404
-0.002864895
-0.003230153
-0.003300214
-0.003068962
-0.002567888
-0.001365607
-37.15768E-6
 968.093E-6
 0.001256391
 0.001306756
 0.001112771
 692.5929E-6
 87.14507E-6
-409.4866E-6
-942.8176E-6
-0.001758698
-0.002513465
-0.003126179
-0.003531409
-0.003686374
-0.003416697
-0.00261384
-0.00148442
-317.2091E-6
 589.6221E-6
 948.7283E-6
 0.001020206
 966.0027E-6
 788.6505E-6
 208.5747E-6
-632.4975E-6
-0.001601571
-0.002545153
-0.003313782
-0.003785919
-0.003887375
-0.003603169
-0.002979921
-0.001560399
-125.2747E-6
 612.5951E-6
 837.9909E-6
 820.5598E-6
 675.7674E-6
 411.2855E-6
-351.0228E-6
-0.00134032
-0.002373146
-0.003257973
-0.003830656
-0.003984826
-0.003691576
-0.003004807
-0.001540474
-92.42164E-6
 620.1774E-6
 819.982E-6
 782.8081E-6
 613.6698E-6
 322.2206E-6
-75.16031E-6
-556.2668E-6
-0.001094285
-0.001659271
-0.00221979
-0.002744657
-0.003409536
-0.003837773
-0.003921651
-0.003334591
-0.002238465
-940.2759E-6
 195.434E-6
 770.4766E-6
 938.0714E-6
 911.8434E-6
 777.7279E-6
 313.5104E-6
-387.9441E-6
-0.001230294
-0.002098281
-0.002873196
-0.003448799
-0.00374558
-0.003721426
-0.003377269
-0.002293932
-877.431E-6
 397.9549E-6
 989.6141E-6
 0.001166522
 0.001147655
 936.0165E-6
 550.1251E-6
 22.52895E-6
-602.8111E-6
-0.001274061
-0.001935687
-0.002532935
-0.003220472
-0.003487301
-0.003274284
-0.002617882
-0.001642852
-38.11421E-6
 908.638E-6
 0.001352971
 0.001524064
 0.001404638
 0.001012071
 396.341E-6
-75.23922E-6
-582.2414E-6
-0.001099751
-0.001602351
-0.002065333
-0.002665012
-0.003030147
-0.00311304
-0.002900405
-0.002414983
-0.001230102
 145.8867E-6
 0.001298044
 0.001694085
 0.00189955
 0.001899096
 0.001694828
 0.00130614
 768.0662E-6
 128.3167E-6
-556.7765E-6
-0.001227041
-0.001823578
-0.002293761
-0.002595712
-0.002701855
-0.002601264
-0.002070397
-0.001175528
-86.87759E-6
 986.9404E-6
 0.001611121
 0.002073769
 0.002333953
 0.002369635
 0.002179746
 0.001784289
 0.00122247
 56.73874E-6
-886.6314E-6
-0.0014477
-0.001880611
-0.002148998
-0.002229379
-0.002184917
-0.00187754
-0.001313004
-556.9926E-6
 301.5046E-6
 0.001161015
 0.001919933
 0.002488884
 0.002801598
 0.002822977
 0.002553366
 0.002028505
 899.5407E-6
-334.0266E-6
-0.001124724
-0.001506485
-0.001725352
-0.001763517
-0.001616879
-0.001295361
-822.16E-6
-231.9917E-6
 431.5449E-6
 0.001119276
 0.001780186
 0.002365292
 0.002831361
 0.003144197
 0.003281232
 0.003111711
 0.002499755
 0.001572032
 518.1436E-6
-447.2005E-6
-0.001127009
-0.001333387
-0.001381398
-0.00126711
-997.4015E-6
-589.4999E-6
-69.84032E-6
 527.6944E-6
 0.001164029
 0.001797497
 0.002654413
 0.00328337
 0.00359095
 0.003532593
 0.003119349
 0.002416185
 926.5725E-6
-419.7153E-6
-945.2089E-6
-0.001066218
-0.001014802
-794.2798E-6
-419.9212E-6
 82.12487E-6
 676.6769E-6
 0.001322007
 0.001972792
 0.002894535
 0.003557488
 0.00384636
 0.003711539
 0.003177759
 0.002339732
 686.3564E-6
-330.3349E-6
-857.6726E-6
-881.7938E-6
-707.2619E-6
-348.4681E-6
 165.0989E-6
 791.264E-6
 0.001478618
 0.00217073
 0.003103352
 0.003738165
 0.003953323
 0.003707092
 0.003045773
 0.002094832
 516.8601E-6
-411.9028E-6
-856.4671E-6
-848.2685E-6
-652.4749E-6
-284.8903E-6
 225.2907E-6
 837.7533E-6
 0.001504204
 0.002172132
 0.002788906
 0.003524792
 0.003887876
 0.00380846
 0.003298802
 0.002450803
 795.6489E-6
-310.64E-6
-916.7029E-6
-970.0607E-6
-811.854E-6
-457.078E-6
 62.15069E-6
 699.3859E-6
 0.001397896
 0.002095606
 0.002730507
 0.003459407
 0.003742524
 0.003514784
 0.00281948
 0.001799036
 664.7782E-6
-347.8904E-6
-0.001029411
-0.001221951
-0.001218031
-0.001019348
-643.399E-6
-122.0655E-6
 500.9688E-6
 0.001173763
 0.001840334
 0.002445197
 0.00313788
 0.003428688
 0.003256077
 0.002647795
 0.001715501
 81.54762E-6
-894.1093E-6
-0.001369601
-0.001569431
-0.0014724
-0.001093511
-482.159E-6
 65.12304E-6
 657.7464E-6
 0.001256419
 0.001821459
 0.002315345
 0.002705139
 0.00304155
 0.003016118
 0.002628306
 0.001932864
 557.0019E-6
-819.968E-6
-0.001503287
-0.001893726
-0.001939003
-0.001636916
-0.001183065
-585.769E-6
 98.95516E-6
 807.2037E-6
 0.001472956
 0.002034039
 0.002437738
 0.002645564
 0.002636723
 0.002410001
 0.001684015
 636.4513E-6
-515.1713E-6
-0.001530965
-0.002050343
-0.002344017
-0.002383525
-0.002167351
-0.001721099
-0.001094773
 120.4263E-6
 0.001002634
 0.00154555
 0.00194811
 0.0021757
 0.002208054
 0.002040927
 0.001686442
 873.7048E-6
-149.856E-6
-0.001202083
-0.001878781
-0.002407787
-0.002740212
-0.002846094
-0.0027173
-0.00236831
-0.001462682
-325.4219E-6
 759.9844E-6
 0.001325145
 0.001679538
 0.001782535
 0.00162086
 0.001317461
 879.5621E-6
 335.5365E-6
-646.5504E-6
-0.001344252
-0.001994843
-0.00254815
-0.002961677
-0.003203971
-0.003213385
-0.002814837
-0.002080892
-0.001142046
-164.1651E-6
 680.1883E-6
 0.001151762
 0.001396921
 0.001388134
 0.001124809
 633.3619E-6
 217.5902E-6
-254.2519E-6
-761.7752E-6
-0.001283013
-0.001795388
-0.00254132
-0.003125009
-0.003481692
-0.003572333
-0.003388044
-0.002661145
-0.001565413
-381.2538E-6
 588.7847E-6
 994.5471E-6
 0.001122298
 0.001134664
 937.5126E-6
 501.7044E-6
-126.9607E-6
-882.0705E-6
-0.00168369
-0.002446898
-0.003090856
-0.003547444
-0.003768537
-0.003731146
</dep>
<dep _net1.Vt time>
 0.
 545.4153E-6
 0.00109083
 0.001636245
 0.002181659
 0.01430059
 0.02641743
 0.03853038
 0.05063768
 0.06273753
 0.07482817
 0.09307609
 0.1112928
 0.1390757
 0.1667496
 0.2084468
 0.2497684
 0.2906399
 0.3309876
 0.3707389
 0.409822
 0.4481666
 0.4857035
 0.5223652
 0.5500918
 0.5772249
 0.6212669
 0.6634278
 0.7245316
 0.7804082
 0.8306545
 0.8986389
 0.9499361
 0.9835938
 0.9991001
 0.9647687
 0.8185598
 0.5755164
 0.05807697
-0.4768049
-0.868487
-0.9993348
-0.8300504
-0.5149428
-0.2029589
 0.0194442
 0.2408773
 0.4502933
 0.6372449
 0.857734
 0.9800619
 0.990229
 0.8870718
 0.6823959
 0.2233409
-0.2960495
-0.7354623
-0.9761904
-0.9532013
-0.6727054
-0.3697871
-0.1450548
 0.08753103
 0.4441172
 0.7397739
 0.9339392
 0.9999751
 0.928822
 0.7302415
 0.4314774
 0.07351786
-0.2945278
-0.7644034
-0.991623
-0.9040567
-0.6507254
-0.4291959
-0.1777163
 0.08616473
 0.344033
 0.577894
 0.7714283
 0.8878114
 0.9646342
 0.9984734
 0.9615145
 0.8185432
 0.585323
 0.2875677
-0.0418936
-0.5195614
-0.8678057
-0.9998782
-0.8828795
-0.6799701
-0.4018028
-0.07916446
 0.2522356
 0.483608
 0.684964
 0.9101181
 0.9992698
 0.9679399
 0.8546016
 0.6688576
 0.4264449
 0.1479019
-0.1431721
-0.5720536
-0.8792802
-0.9995161
-0.9071913
-0.7390853
-0.5028246
-0.2201959
 0.08273807
 0.3780424
 0.6384856
 0.9233436
 0.9959459
 0.9063558
 0.70925
 0.4280098
 0.184776
-0.07054315
-0.3212484
-0.682653
-0.9229697
-0.9995715
-0.9495849
-0.8205049
-0.6230828
-0.3737624
-0.09331029
 0.1949139
 0.610523
 0.8989085
 0.9999751
 0.8926621
 0.7213166
 0.4865927
 0.2091144
-0.08673768
-0.3163009
-0.5284795
-0.7908017
-0.9543352
-0.9986512
-0.9182136
-0.7230707
-0.4376003
-0.097464
 0.2548477
 0.5753234
 0.9304325
 0.978572
 0.7038596
 0.4458189
 0.1428709
-0.1744685
-0.4742338
-0.7262293
-0.8585546
-0.9496343
-0.9999112
-0.9409585
-0.779216
-0.5323524
-0.2273351
 0.2742763
 0.7068353
 0.96144
 0.9739906
 0.7413273
 0.455188
 0.2426843
 0.01767957
-0.2082358
-0.5748279
-0.8494894
-0.9882943
-0.969044
-0.7948172
-0.4934775
-0.1132172
 0.2851495
 0.6379131
 0.9738408
 0.9128665
 0.6144564
 0.2984446
 0.07285827
-0.1565699
-0.377742
-0.7319644
-0.9505632
-0.9930349
-0.8515099
-0.5522111
-0.1505947
 0.278925
 0.6567635
 0.9807244
 0.8956274
 0.581992
 0.2591653
 0.02693574
-0.2067772
-0.4291023
-0.6277953
-0.7919136
-0.9124185
-0.9826735
-0.9988095
-0.9599377
-0.7995702
-0.5365795
-0.02607426
 0.4918594
 0.8696659
 0.9997111
 0.844946
 0.5468201
 0.2539387
 0.04453944
-0.1668578
-0.510806
-0.7861794
-0.9560095
-0.9974969
-0.905072
-0.6911426
-0.3844285
-0.02610554
 0.3357221
 0.8050849
 0.9991375
 0.8515208
 0.5594227
 0.3038851
 0.02384454
-0.2581187
-0.5192691
-0.7385497
-0.8982792
-0.9855783
-0.9934079
-0.9211366
-0.6601757
-0.2678056
 0.1778717
 0.5881434
 0.8813439
 0.983596
 0.7919677
 0.536734
 0.2173492
-0.1280135
-0.4580759
-0.7333885
-0.8634761
-0.9523802
-0.9958605
-0.9918432
-0.94052
-0.7664388
-0.4989603
-0.1706793
 0.1784005
 0.5057406
 0.8890271
 0.9960067
 0.7934304
 0.5841625
 0.3252453
 0.03868473
-0.2511637
-0.5196652
-0.7439992
-0.9050989
-0.9892723
-0.9893651
-0.9053695
-0.7444246
-0.5202092
-0.2517801
 0.03804831
 0.4676896
 0.8047728
 0.9825874
 0.9659431
 0.8425696
 0.6403926
 0.3783211
 0.08086619
-0.224152
-0.5082057
-0.7447282
-0.9788841
-0.9781135
-0.8804053
-0.7119276
-0.4862231
-0.2772303
-0.05403174
 0.2922835
 0.6030233
 0.8403656
 0.9754221
 0.9917544
 0.8873744
 0.674987
 0.380443
 0.03959308
-0.306076
-0.6144907
-0.9324859
-0.9855956
-0.8368969
-0.6556861
-0.4246658
-0.1613856
 0.1141544
 0.3810226
 0.6189462
 0.8098513
 0.9392356
 0.9972704
 0.979547
 0.8874119
 0.7278641
 0.5130238
 0.2592113
-0.1869845
-0.5959023
-0.8860184
-0.9994938
-0.9137057
-0.6457571
-0.4288056
-0.1832839
 0.07444945
 0.3272224
 0.5581935
 0.7519738
 0.8956522
 0.9796558
 0.9983878
 0.900801
 0.6662837
 0.3304847
-0.05555129
-0.4331429
-0.7448925
-0.9976091
-0.8297698
-0.521555
-0.2780483
-0.01485043
 0.2493991
 0.4959864
 0.7074482
 0.8688089
 0.9686411
 0.9998747
 0.9056567
 0.652496
 0.2848222
-0.1328378
-0.5271848
-0.8290109
-0.9917269
-0.7953133
-0.3866277
-0.1093493
 0.1768994
 0.4486364
 0.6835699
 0.8624276
 0.970537
 0.9990294
 0.8849228
 0.601932
 0.2040649
-0.2327473
-0.6251405
-0.8982281
-0.9745648
-0.7455436
-0.331534
-0.05766759
 0.2206978
 0.4818453
 0.7054011
 0.8739242
 0.9742673
 0.9986019
 0.9450295
 0.7201349
 0.3619028
-0.06333781
-0.476851
-0.8020724
-0.9976133
-0.8205966
-0.410692
-0.1264484
 0.1688248
 0.4493721
 0.6907222
 0.8718232
 0.9768783
 0.9967238
 0.9296288
 0.6659862
 0.2611621
-0.1990255
-0.6170219
-0.9042166
-0.9997275
-0.8833075
-0.5796362
-0.3262947
-0.04646329
 0.2371402
 0.5014917
 0.72513
 0.8898992
 0.9824226
 0.9951889
 0.9271615
 0.6775086
 0.2974071
-0.1399576
-0.5503746
-0.8548217
-0.9900919
-0.8149991
-0.565754
-0.2473721
 0.1012394
 0.4374792
 0.7202577
 0.8716807
 0.9669717
 0.9999944
 0.9686224
 0.8748757
 0.7247913
 0.4057059
 0.02476802
-0.3599459
-0.6897838
-0.9766147
-0.9300561
-0.7249163
-0.4143789
-0.0435936
 0.3335298
 0.5986005
 0.8095941
 0.9474498
 0.9997137
 0.9616645
 0.8367393
 0.636224
 0.3782328
 0.08607233
-0.2138638
-0.6312588
-0.9130993
-0.9988637
-0.8701352
-0.6654706
-0.3901288
-0.07335289
 0.2512136
 0.5490996
 0.7886678
 0.992341
 0.963525
 0.8480703
 0.6629779
 0.4234463
 0.1491441
-0.1374047
-0.4126708
-0.755685
-0.9602829
-0.9889889
-0.8958711
-0.71632
-0.4676586
-0.1738776
 0.136679
 0.4340489
 0.8112547
 0.9919223
 0.9322822
 0.7637675
 0.5120658
 0.2045914
-0.1251664
-0.3757475
-0.6011273
-0.7861896
-0.9676698
-0.9996292
-0.9525089
-0.8300364
-0.6419005
-0.4029845
 0.003971063
 0.4102404
 0.7456196
 0.9521547
 0.9941561
 0.8643659
 0.656932
 0.3798153
 0.06241026
-0.2616148
