<Qucs Dataset>
default plugins: ignored
Gnucap   System status
iterations: op=0, dc=3, tran=47, fourier=0, total=62
transient timesteps: accepted=12, rejected=0, total=12
transient timesteps: accepted=0, rejected=0, total=0
nodes: user=3, subckt=1, model=0, total=4
dctran density=87.5%, ac density=87.5%

<indep _net0.V 1>
 0.
</indep>
<indep _net1.V 1>
 0.
</indep>
<indep _net2.V 1>
 0.
</indep>
<indep Pr1.I 1>
 0.
</indep>
<indep Pr2.V 1>
 0.
</indep>
<indep time 12>
 0.
 0.01
 0.02
 0.03633333
 0.1239394
 0.2115455
 0.3429545
 0.4743636
 0.6057727
 0.7371818
 0.8685909
 1.
</indep>
<dep _net0.Vt time>
 0.
-65.51003E-9
-59.60782E-9
 103.1368E-9
 316.8962E-9
-1.021748E-6
 986.4322E-9
 36.31536E-9
-239.2362E-9
-1.009247E-6
-732.802E-9
 0.
</dep>
<dep _net1.Vt time>
 0.
-944.7012E-9
-1.81452E-6
-3.065668E-6
-9.517795E-6
-14.617E-6
-10.69452E-6
-2.209354E-6
 8.396287E-6
 12.94734E-6
 9.558657E-6
 0.
</dep>
<dep _net2.Vt time>
 0.
-0.08792006
-0.1754931
-0.3168836
-0.9834787
-1.359539
-1.168106
-0.2245692
 0.8635607
 1.395671
 1.029156
 0.
</dep>
<dep Pr1.It time>
 0.
 0.08791912
 0.1754913
 0.3168805
 0.9834691
 1.359525
 1.168095
 0.2245669
-0.8635523
-1.395659
-1.029146
 0.
</dep>
<dep Pr2.Vt time>
 0.
-0.08792
-0.175493
-0.3168837
-0.983479
-1.359538
-1.168107
-0.2245692
 0.863561
 1.395673
 1.029156
 0.
</dep>
