<Qucs Dataset>
default plugins: ignored
Gnucap   System status
iterations: op=0, dc=3, tran=47, fourier=0, total=62
transient timesteps: accepted=12, rejected=0, total=12
transient timesteps: accepted=0, rejected=0, total=0
nodes: user=3, subckt=1, model=0, total=4
dctran density=87.5%, ac density=87.5%

<indep _net0.V 1>
 0.
</indep>
<indep _net1.V 1>
 0.
</indep>
<indep _net2.V 1>
 0.
</indep>
<indep Pr1.I 1>
 0.
</indep>
<indep Pr2.V 1>
 0.
</indep>
<indep time 12>
 0.
 0.01
 0.02
 0.03633333
 0.1239394
 0.2115455
 0.3429545
 0.4743636
 0.6057727
 0.7371818
 0.8685909
 1.
</indep>
<dep _net0.Vt time>
 0.
-65.51003E-9
-59.60782E-9
 141.1092E-9
-205.874E-9
-869.3815E-9
-32.34077E-9
 87.59374E-9
 253.9189E-9
 263.3113E-9
-673.9602E-9
 0.
</dep>
<dep _net1.Vt time>
 0.
-944.7012E-9
-1.81452E-6
-3.027696E-6
-10.04057E-6
-14.46463E-6
-11.71329E-6
-2.158076E-6
 8.889442E-6
 14.2199E-6
 9.617499E-6
 0.
</dep>
<dep _net2.Vt time>
 0.
-0.08792006
-0.1754931
-0.3168835
-0.9834792
-1.359539
-1.168107
-0.2245691
 0.8635612
 1.395673
 1.029156
 0.
</dep>
<dep Pr1.It time>
 0.
 0.08791912
 0.1754913
 0.3168805
 0.9834691
 1.359525
 1.168095
 0.224567
-0.8635523
-1.395659
-1.029146
-288.154E-18
</dep>
<dep Pr2.Vt time>
 0.
-0.08792
-0.175493
-0.3168837
-0.983479
-1.359538
-1.168107
-0.2245692
 0.863561
 1.395673
 1.029156
 288.157E-18
</dep>
