<Qucs Dataset>
default plugins: ignored
;: already installed, replacing
stashing as ;:0
*: already installed, replacing
stashing as *:0
': already installed, replacing
stashing as ':0
": already installed, replacing
stashing as ":0
L: already installed, replacing
stashing as L:0
Gnucap   System status
iterations: op=3, dc=0, tran=47, fourier=0, total=62
transient timesteps: accepted=12, rejected=0, total=12
transient timesteps: accepted=0, rejected=0, total=0
nodes: user=3, subckt=1, model=0, total=4
dctran density=87.5%, ac density=87.5%

<indep _net0.V 1>
 0.
</indep>
<indep _net1.V 1>
 0.
</indep>
<indep _net2.V 1>
 0.
</indep>
<indep time 12>
 0.
 0.01
 0.02
 0.03633333
 0.1239394
 0.2115455
 0.3429545
 0.4743636
 0.6057727
 0.7371818
 0.8685909
 1.
</indep>
<dep _net0.Vt time>
 0.
 0.09003639
 0.08192444
 0.3225594
-0.4020004
 0.372879
 1.353287
-0.02831841
 0.7937164
 0.02537537
 2.124588
 0.
</dep>
<dep _net1.Vt time>
 0.
 0.09003551
 0.08192268
 0.3225562
-0.4020103
 0.3728654
 1.353275
-0.02832065
 0.7937251
 0.02538932
 2.124598
 0.
</dep>
<dep _net2.Vt time>
 0.
 0.002116397
-0.09356857
 0.005675698
-1.385479
-0.9866594
 0.1851801
-0.2528876
 1.657277
 1.421048
 3.153744
 0.
</dep>
<dep Pr1.It time>
 0.
 0.08791912
 0.1754913
 0.3168805
 0.9834691
 1.359525
 1.168095
 0.224567
-0.8635523
-1.395659
-1.029146
 0.
</dep>
<dep Pr2.Vt time>
 0.
-0.08792
-0.175493
-0.3168837
-0.983479
-1.359538
-1.168107
-0.2245692
 0.863561
 1.395673
 1.029156
 0.
</dep>
