<Qucs Dataset>
default plugins: ignored
;: already installed, replacing
stashing as ;:0
*: already installed, replacing
stashing as *:0
': already installed, replacing
stashing as ':0
": already installed, replacing
stashing as ":0
store: already installed, replacing
stashing as store:0
alarm: already installed, replacing
stashing as alarm:0
iplot: already installed, replacing
stashing as iplot:0
plot: already installed, replacing
stashing as plot:0
iprint: already installed, replacing
stashing as iprint:0
print: already installed, replacing
stashing as print:0
probe: already installed, replacing
stashing as probe:0
d: already installed, replacing
stashing as d:0
diode: already installed, replacing
stashing as diode:0
npn: already installed, replacing
stashing as npn:0
pnp: already installed, replacing
stashing as pnp:0
npn1: already installed, replacing
stashing as npn1:0
pnp1: already installed, replacing
stashing as pnp1:0
Q: already installed, replacing
stashing as Q:0
bjt: already installed, replacing
stashing as bjt:0
L: already installed, replacing
stashing as L:0
R: already installed, replacing
stashing as R:1
C:C1 _net1 gnd C="1u" V="" 
                      ^ ? C1: V has no value?
Gnucap   System status
iterations: op=0, dc=0, tran=1060, fourier=0, total=1436
transient timesteps: accepted=345, rejected=31, total=376
transient timesteps: accepted=0, rejected=0, total=0
nodes: user=2, subckt=0, model=0, total=2
dctran density=100.0%, ac density=100.0%

<indep time 345>
 0.
 83.3333E-12
 244.613E-12
 405.893E-12
 661.4E-12
 1.E-9
 1.536128E-9
 1.913349E-9
 2.290571E-9
 3.057532E-9
 784.2463E-9
 5.573143E-6
 15.24829E-6
 29.84588E-6
 44.44347E-6
 66.42042E-6
 88.39736E-6
 110.3743E-6
 144.9534E-6
 179.5325E-6
 232.0484E-6
 284.5643E-6
 372.0907E-6
 459.6172E-6
 654.3189E-6
 988.0932E-6
 0.001000003
 0.001000004
 0.001000006
 0.001000006
 0.001000006
 0.001000006
 0.001001652
 0.001020359
 0.001039067
 0.001057774
 0.001076482
 0.00109519
 0.001113897
 0.001132605
 0.001151312
 0.00117002
 0.001188727
 0.001207435
 0.001226143
 0.00124485
 0.001263558
 0.001282265
 0.001300973
 0.001319681
 0.001338388
 0.001357096
 0.001375803
 0.001394511
 0.001413219
 0.001431926
 0.001450634
 0.001469341
 0.001488049
 0.001506756
 0.001525464
 0.001544172
 0.001562879
 0.001581587
 0.001600294
 0.001619002
 0.00163771
 0.001665961
 0.001694211
 0.001722462
 0.001766965
 0.001811468
 0.001883933
 0.001956398
 0.002000002
 0.002000003
 0.002000417
 0.002000555
 0.002000601
 0.002000647
 0.002005483
 0.002014683
 0.002029335
 0.002043987
 0.002065965
 0.002087943
 0.00210992
 0.002144375
 0.002178829
 0.002230971
 0.002283112
 0.002369818
 0.002456525
 0.002649947
 0.002969515
 0.003000005
 0.003000006
 0.003000008
 0.003000008
 0.003000008
 0.003000008
 0.003001529
 0.003021756
 0.003041983
 0.003062209
 0.003082436
 0.003102663
 0.00312289
 0.003143117
 0.003163343
 0.00318357
 0.003203797
 0.003224024
 0.003244251
 0.003264477
 0.003284704
 0.003304931
 0.003325158
 0.003345385
 0.003365611
 0.003385838
 0.003406065
 0.003426292
 0.003446519
 0.003466745
 0.003486972
 0.003507199
 0.003527426
 0.003547653
 0.003567879
 0.003588106
 0.003608333
 0.00362856
 0.003648787
 0.003669013
 0.003703609
 0.003738204
 0.0037728
 0.003830998
 0.003889196
 0.003996403
 0.004000004
 0.004000005
 0.004000182
 0.004000242
 0.004000261
 0.004000281
 0.004003926
 0.004012129
 0.004025615
 0.004039101
 0.00406009
 0.004081079
 0.004102068
 0.004134835
 0.004167601
 0.004216613
 0.004265624
 0.004345268
 0.004424913
 0.004593855
 0.004864162
 0.005000007
 0.005000008
 0.005000011
 0.005000011
 0.005000011
 0.005000011
 0.005001848
 0.005021682
 0.005041516
 0.00506135
 0.005081184
 0.005101018
 0.005120851
 0.005140685
 0.005160519
 0.005180353
 0.005200187
 0.005220021
 0.005239855
 0.005259689
 0.005279523
 0.005299357
 0.005319191
 0.005339025
 0.005358859
 0.005378693
 0.005398527
 0.005418361
 0.005438194
 0.005458028
 0.005477862
 0.005497696
 0.00551753
 0.005537364
 0.005557198
 0.005577032
 0.005596866
 0.0056167
 0.005636534
 0.005656368
 0.005688073
 0.005719778
 0.005751484
 0.005803295
 0.005855106
 0.005945213
 0.006000006
 0.006000007
 0.006000488
 0.006000648
 0.006000701
 0.006000755
 0.006005836
 0.006015212
 0.006030081
 0.00604495
 0.006059818
 0.006084444
 0.006109071
 0.006133697
 0.006173149
 0.006212601
 0.006274689
 0.006336778
 0.006447785
 0.006558791
 0.006845559
 0.007000009
 0.00700001
 0.007000013
 0.007000013
 0.007000013
 0.007000013
 0.007001833
 0.007021689
 0.007041544
 0.0070614
 0.007081255
 0.00710111
 0.007120966
 0.007140821
 0.007160677
 0.007180532
 0.007200387
 0.007220243
 0.007240098
 0.007259954
 0.007279809
 0.007299664
 0.00731952
 0.007339375
 0.007359231
 0.007379086
 0.007398941
 0.007418797
 0.007438652
 0.007458508
 0.007478363
 0.007498219
 0.007518074
 0.007537929
 0.007557785
 0.00757764
 0.007597496
 0.007617351
 0.007637206
 0.007657062
 0.007688723
 0.007720384
 0.007752046
 0.007804324
 0.007856602
 0.00794591
 0.008000008
 0.008000009
 0.008000486
 0.008000645
 0.008000698
 0.008000751
 0.008005813
 0.008015175
 0.008029987
 0.008044799
 0.008059611
 0.008084173
 0.008108735
 0.008133297
 0.008173014
 0.008212731
 0.008274361
 0.008335991
 0.008446925
 0.008557859
 0.008846287
 0.009000011
 0.009000012
 0.009000015
 0.009000015
 0.009000015
 0.009000015
 0.009000016
 0.009004847
 0.009023985
 0.009043122
 0.00906226
 0.009081397
 0.009100535
 0.009119672
 0.00913881
 0.009157947
 0.009177085
 0.009196223
 0.00921536
 0.009234498
 0.009253635
 0.009272773
 0.00929191
 0.009311048
 0.009330185
 0.009349323
 0.009368461
 0.009387598
 0.009406736
 0.009425873
 0.009445011
 0.009464148
 0.009483286
 0.009502423
 0.009521561
 0.009540699
 0.009559836
 0.009578974
 0.009598111
 0.009617249
 0.009636386
 0.009655524
 0.00968684
 0.009718156
 0.009749472
 0.009799578
 0.009849683
 0.009924842
 0.01
</indep>
<dep _net0.Vt time>
 0.
 0.08333332
 0.2446133
 0.4058933
 0.6613995
 0.9999998
 0.9999998
 0.9999998
 0.9999998
 0.9999998
 0.9999998
 0.9999998
 0.9999999
 0.9999999
 0.9999999
 0.9999999
 1.
 1.
 1.
 1.
 1.
 1.
 1.
 1.
 1.
 1.
 1.
 199.9977E-9
 199.9902E-9
 199.9898E-9
 199.9897E-9
 199.9897E-9
 193.514E-9
 132.5208E-9
 90.75189E-9
 62.14801E-9
 42.55973E-9
 29.14543E-9
 19.95915E-9
 13.66827E-9
 9.360202E-9
 6.409982E-9
 4.389635E-9
 3.006076E-9
 2.058598E-9
 1.409753E-9
 965.417E-12
 661.129E-12
 452.749E-12
 310.048E-12
 212.325E-12
 145.403E-12
 99.574E-12
 68.189E-12
 46.697E-12
 31.979E-12
 21.899E-12
 14.997E-12
 10.27E-12
 7.033E-12
 4.816E-12
 3.298E-12
 2.259E-12
 1.547E-12
 1.059E-12
 725.E-15
 497.E-15
 278.E-15
 156.E-15
 87.E-15
 33.E-15
 13.E-15
 2.E-15
 0.
 0.
 0.9999998
 0.9999998
 0.9999998
 0.9999998
 0.9999998
 0.9999998
 0.9999999
 0.9999999
 0.9999999
 0.9999999
 1.
 1.
 1.
 1.
 1.
 1.
 1.
 1.
 1.
 1.
 1.
 199.9977E-9
 199.9901E-9
 199.9897E-9
 199.9896E-9
 199.9896E-9
 193.9968E-9
 128.7213E-9
 85.40948E-9
 56.67113E-9
 37.60259E-9
 24.95017E-9
 16.55501E-9
 10.98462E-9
 7.288547E-9
 4.836117E-9
 3.208873E-9
 2.12916E-9
 1.412746E-9
 937.389E-12
 621.979E-12
 412.697E-12
 273.834E-12
 181.695E-12
 120.559E-12
 79.993E-12
 53.077E-12
 35.218E-12
 23.368E-12
 15.505E-12
 10.288E-12
 6.826E-12
 4.529E-12
 3.005E-12
 1.994E-12
 1.323E-12
 878.E-15
 582.E-15
 386.E-15
 256.E-15
 125.E-15
 61.E-15
 29.E-15
 8.E-15
 2.E-15
 0.
 0.
 0.9999998
 0.9999998
 0.9999998
 0.9999998
 0.9999998
 0.9999998
 0.9999998
 0.9999999
 0.9999999
 0.9999999
 1.
 1.
 1.
 1.
 1.
 1.
 1.
 1.
 1.
 1.
 1.
 199.9981E-9
 199.9868E-9
 199.9863E-9
 199.9862E-9
 199.9862E-9
 192.7717E-9
 128.9597E-9
 86.27099E-9
 57.71325E-9
 38.6088E-9
 25.82837E-9
 17.27857E-9
 11.55896E-9
 7.732668E-9
 5.172972E-9
 3.460596E-9
 2.315057E-9
 1.548718E-9
 1.036056E-9
 693.097E-12
 463.665E-12
 310.181E-12
 207.504E-12
 138.815E-12
 92.864E-12
 62.124E-12
 41.559E-12
 27.802E-12
 18.599E-12
 12.442E-12
 8.323E-12
 5.568E-12
 3.725E-12
 2.492E-12
 1.667E-12
 1.115E-12
 746.E-15
 499.E-15
 334.E-15
 173.E-15
 90.E-15
 46.E-15
 15.E-15
 5.E-15
 0.
 0.
 0.9999998
 0.9999998
 0.9999998
 0.9999998
 0.9999998
 0.9999998
 0.9999999
 0.9999999
 0.9999999
 0.9999999
 1.
 1.
 1.
 1.
 1.
 1.
 1.
 1.
 1.
 1.
 1.
 199.9979E-9
 199.9868E-9
 199.9863E-9
 199.9863E-9
 199.9862E-9
 192.8354E-9
 128.9446E-9
 86.22236E-9
 57.65494E-9
 38.55255E-9
 25.77922E-9
 17.23798E-9
 11.52665E-9
 7.707608E-9
 5.153903E-9
 3.446298E-9
 2.304462E-9
 1.540941E-9
 1.030393E-9
 689.E-12
 460.719E-12
 308.072E-12
 206.001E-12
 137.748E-12
 92.109E-12
 61.591E-12
 41.185E-12
 27.539E-12
 18.415E-12
 12.314E-12
 8.234E-12
 5.506E-12
 3.682E-12
 2.462E-12
 1.646E-12
 1.101E-12
 736.E-15
 492.E-15
 329.E-15
 171.E-15
 89.E-15
 46.E-15
 14.E-15
 5.E-15
 0.
 0.
 0.9999998
 0.9999998
 0.9999998
 0.9999998
 0.9999998
 0.9999998
 0.9999999
 0.9999999
 0.9999999
 0.9999999
 1.
 1.
 1.
 1.
 1.
 1.
 1.
 1.
 1.
 1.
 1.
 200.958E-9
 199.9875E-9
 199.9871E-9
 199.987E-9
 199.9869E-9
 199.9815E-9
 181.5503E-9
 123.224E-9
 83.63602E-9
 56.76643E-9
 38.52918E-9
 26.15098E-9
 17.7495E-9
 12.04715E-9
 8.176783E-9
 5.549843E-9
 3.766855E-9
 2.556684E-9
 1.735303E-9
 1.177805E-9
 799.414E-12
 542.588E-12
 368.272E-12
 249.958E-12
 169.654E-12
 115.15E-12
 78.156E-12
 53.047E-12
 36.005E-12
 24.438E-12
 16.587E-12
 11.258E-12
 7.641E-12
 5.186E-12
 3.52E-12
 2.389E-12
 1.622E-12
 1.101E-12
 747.E-15
 507.E-15
 344.E-15
 180.E-15
 94.E-15
 49.E-15
 16.E-15
 6.E-15
 1.E-15
 0.
</dep>
<dep _net1.Vt time>
 0.
 138.8886E-9
 667.7996E-9
 1.716933E-6
 4.443917E-6
 10.06937E-6
 20.79176E-6
 28.336E-6
 35.88019E-6
 51.21875E-6
 0.01555309
 0.1055323
 0.2633458
 0.4510177
 0.5908778
 0.7383033
 0.8326046
 0.8929248
 0.9479492
 0.9746973
 0.9921223
 0.9975474
 0.9998369
 0.9999891
 1.000003
 0.9999981
 0.9999985
 0.9999885
 0.9999511
 0.9999492
 0.9999488
 0.9999486
 0.9675704
 0.6626042
 0.4537595
 0.3107401
 0.2127987
 0.1457272
 0.09979576
 0.06834137
 0.04680102
 0.03204992
 0.02194818
 0.01503038
 0.01029299
 0.007048769
 0.004827084
 0.003305647
 0.002263748
 0.001550243
 0.001061625
 727.0142E-6
 497.8684E-6
 340.9465E-6
 233.4844E-6
 159.8931E-6
 109.4968E-6
 74.98482E-6
 51.35059E-6
 35.16557E-6
 24.08187E-6
 16.49162E-6
 11.29372E-6
 7.734135E-6
 5.296487E-6
 3.627155E-6
 2.483976E-6
 1.389719E-6
 777.5453E-9
 435.0694E-9
 167.1993E-9
 64.32231E-9
 10.41752E-9
 1.811274E-9
 818.311E-12
 10.00072E-6
 0.008251813
 0.01098395
 0.01189298
 0.01280119
 0.1038852
 0.2548739
 0.4453208
 0.5870914
 0.7358868
 0.8310624
 0.8919406
 0.9473219
 0.9743198
 0.9919218
 0.9974589
 0.9998191
 0.9999871
 1.000004
 0.9999979
 0.9999989
 0.9999889
 0.9999505
 0.9999487
 0.9999483
 0.9999481
 0.969984
 0.6436064
 0.4270475
 0.2833557
 0.188013
 0.1247509
 0.08277505
 0.05492312
 0.03644274
 0.02418059
 0.01604437
 0.0106458
 0.007063733
 0.004686948
 0.003109896
 0.002063487
 0.00136917
 908.4756E-6
 602.7941E-6
 399.9676E-6
 265.3875E-6
 176.0906E-6
 116.84E-6
 77.52594E-6
 51.44015E-6
 34.13164E-6
 22.64705E-6
 15.02676E-6
 9.970526E-6
 6.6156E-6
 4.38953E-6
 2.912482E-6
 1.932427E-6
 1.282138E-6
 622.9247E-9
 302.5911E-9
 146.9303E-9
 38.66888E-9
 10.06214E-9
-568.857E-12
-544.018E-12
 9.999354E-6
 0.003552605
 0.004730681
 0.005123064
 0.005515291
 0.07546415
 0.2156376
 0.4020579
 0.5441714
 0.7023249
 0.8056057
 0.8730524
 0.9357129
 0.9674446
 0.9888603
 0.9961883
 0.9995681
 0.9999511
 1.000013
 0.9999942
 1.000001
 0.9999909
 0.9999344
 0.9999318
 0.9999313
 0.9999311
 0.9638587
 0.6447986
 0.431355
 0.2885663
 0.193044
 0.1291419
 0.08639288
 0.05779479
 0.03866335
 0.02586486
 0.01730298
 0.01157529
 0.007743592
 0.00518028
 0.003465484
 0.002318327
 0.001550906
 0.001037519
 694.0755E-6
 464.3198E-6
 310.6188E-6
 207.7964E-6
 139.0107E-6
 92.99463E-6
 62.211E-6
 41.61747E-6
 27.84089E-6
 18.62468E-6
 12.45926E-6
 8.334736E-6
 5.575527E-6
 3.729682E-6
 2.494856E-6
 1.668786E-6
 865.0235E-9
 448.2396E-9
 232.1199E-9
 73.24024E-9
 22.80767E-9
 574.934E-12
-289.176E-12
 9.999609E-6
 0.009579263
 0.0127486
 0.01380279
 0.01485586
 0.1101368
 0.2626992
 0.4535718
 0.5950313
 0.6998697
 0.8184812
 0.8902175
 0.9336035
 0.9711717
 0.9874832
 0.9970724
 0.9993153
 1.000036
 0.9999981
 1.000001
 0.9999998
 0.9999898
 0.9999344
 0.9999319
 0.9999315
 0.9999313
 0.964177
 0.6447234
 0.4311119
 0.2882748
 0.1927628
 0.1288961
 0.08618992
 0.05763325
 0.03853805
 0.02576952
 0.0172315
 0.01152231
 0.007704709
 0.005151964
 0.003445002
 0.002303595
 0.001540362
 0.001030005
 688.7412E-6
 460.5457E-6
 307.9566E-6
 205.9237E-6
 137.6966E-6
 92.07464E-6
 61.5683E-6
 41.1694E-6
 27.52912E-6
 18.40817E-6
 12.3092E-6
 8.230955E-6
 5.503926E-6
 3.680423E-6
 2.461088E-6
 1.645746E-6
 854.3278E-9
 443.543E-9
 230.3255E-9
 72.33098E-9
 22.81748E-9
 1.494625E-9
 598.462E-12
 10.0005E-6
 0.009506537
 0.01265194
 0.01369819
 0.01474333
 0.1096739
 0.2621133
 0.4525056
 0.5937721
 0.6985885
 0.8174569
 0.8894468
 0.9330459
 0.9711117
 0.9875357
 0.9970411
 0.9992976
 1.000036
 0.9999981
 1.000001
 0.9999998
 0.9999898
 0.9999378
 0.9999355
 0.9999351
 0.9999349
 0.9999077
 0.9077517
 0.6161199
 0.4181802
 0.2838322
 0.1926459
 0.1307549
 0.08874752
 0.06023576
 0.04088392
 0.02774922
 0.01883428
 0.01278342
 0.008676516
 0.005889027
 0.00399707
 0.002712939
 0.001841358
 0.001249788
 848.2713E-6
 575.7489E-6
 390.7793E-6
 265.2345E-6
 180.0233E-6
 122.1878E-6
 82.93292E-6
 56.28942E-6
 38.20563E-6
 25.93158E-6
 17.6008E-6
 11.94643E-6
 8.108632E-6
 5.503796E-6
 3.735811E-6
 2.535823E-6
 1.721353E-6
 900.6538E-9
 471.3923E-9
 246.8697E-9
 82.49366E-9
 27.85582E-9
 4.510183E-9
 1.19922E-9
</dep>
<dep Pr1.Vt time>
 0.
 138.8886E-9
 667.7996E-9
 1.716933E-6
 4.443917E-6
 10.06937E-6
 20.79176E-6
 28.336E-6
 35.88019E-6
 51.21875E-6
 0.01555309
 0.1055323
 0.2633458
 0.4510177
 0.5908778
 0.7383033
 0.8326046
 0.8929248
 0.9479492
 0.9746973
 0.9921223
 0.9975474
 0.9998369
 0.9999891
 1.000003
 0.9999981
 0.9999985
 0.9999885
 0.9999511
 0.9999492
 0.9999488
 0.9999486
 0.9675704
 0.6626042
 0.4537595
 0.3107401
 0.2127987
 0.1457272
 0.09979576
 0.06834137
 0.04680102
 0.03204992
 0.02194818
 0.01503038
 0.01029299
 0.007048769
 0.004827084
 0.003305647
 0.002263748
 0.001550243
 0.001061625
 727.0142E-6
 497.8684E-6
 340.9465E-6
 233.4844E-6
 159.8931E-6
 109.4968E-6
 74.98482E-6
 51.35059E-6
 35.16557E-6
 24.08187E-6
 16.49162E-6
 11.29372E-6
 7.734135E-6
 5.296487E-6
 3.627155E-6
 2.483976E-6
 1.389719E-6
 777.5453E-9
 435.0694E-9
 167.1993E-9
 64.32231E-9
 10.41752E-9
 1.811274E-9
 818.311E-12
 10.00072E-6
 0.008251813
 0.01098395
 0.01189298
 0.01280119
 0.1038852
 0.2548739
 0.4453208
 0.5870914
 0.7358868
 0.8310624
 0.8919406
 0.9473219
 0.9743198
 0.9919218
 0.9974589
 0.9998191
 0.9999871
 1.000004
 0.9999979
 0.9999989
 0.9999889
 0.9999505
 0.9999487
 0.9999483
 0.9999481
 0.969984
 0.6436064
 0.4270475
 0.2833557
 0.188013
 0.1247509
 0.08277505
 0.05492312
 0.03644274
 0.02418059
 0.01604437
 0.0106458
 0.007063733
 0.004686948
 0.003109896
 0.002063487
 0.00136917
 908.4756E-6
 602.7941E-6
 399.9676E-6
 265.3875E-6
 176.0906E-6
 116.84E-6
 77.52594E-6
 51.44015E-6
 34.13164E-6
 22.64705E-6
 15.02676E-6
 9.970526E-6
 6.6156E-6
 4.38953E-6
 2.912482E-6
 1.932427E-6
 1.282138E-6
 622.9247E-9
 302.5911E-9
 146.9303E-9
 38.66888E-9
 10.06214E-9
-568.857E-12
-544.018E-12
 9.999354E-6
 0.003552605
 0.004730681
 0.005123064
 0.005515291
 0.07546415
 0.2156376
 0.4020579
 0.5441714
 0.7023249
 0.8056057
 0.8730524
 0.9357129
 0.9674446
 0.9888603
 0.9961883
 0.9995681
 0.9999511
 1.000013
 0.9999942
 1.000001
 0.9999909
 0.9999344
 0.9999318
 0.9999313
 0.9999311
 0.9638587
 0.6447986
 0.431355
 0.2885663
 0.193044
 0.1291419
 0.08639288
 0.05779479
 0.03866335
 0.02586486
 0.01730298
 0.01157529
 0.007743592
 0.00518028
 0.003465484
 0.002318327
 0.001550906
 0.001037519
 694.0755E-6
 464.3198E-6
 310.6188E-6
 207.7964E-6
 139.0107E-6
 92.99463E-6
 62.211E-6
 41.61747E-6
 27.84089E-6
 18.62468E-6
 12.45926E-6
 8.334736E-6
 5.575527E-6
 3.729682E-6
 2.494856E-6
 1.668786E-6
 865.0235E-9
 448.2396E-9
 232.1199E-9
 73.24024E-9
 22.80767E-9
 574.934E-12
-289.176E-12
 9.999609E-6
 0.009579263
 0.0127486
 0.01380279
 0.01485586
 0.1101368
 0.2626992
 0.4535718
 0.5950313
 0.6998697
 0.8184812
 0.8902175
 0.9336035
 0.9711717
 0.9874832
 0.9970724
 0.9993153
 1.000036
 0.9999981
 1.000001
 0.9999998
 0.9999898
 0.9999344
 0.9999319
 0.9999315
 0.9999313
 0.964177
 0.6447234
 0.4311119
 0.2882748
 0.1927628
 0.1288961
 0.08618992
 0.05763325
 0.03853805
 0.02576952
 0.0172315
 0.01152231
 0.007704709
 0.005151964
 0.003445002
 0.002303595
 0.001540362
 0.001030005
 688.7412E-6
 460.5457E-6
 307.9566E-6
 205.9237E-6
 137.6966E-6
 92.07464E-6
 61.5683E-6
 41.1694E-6
 27.52912E-6
 18.40817E-6
 12.3092E-6
 8.230955E-6
 5.503926E-6
 3.680423E-6
 2.461088E-6
 1.645746E-6
 854.3278E-9
 443.543E-9
 230.3255E-9
 72.33098E-9
 22.81748E-9
 1.494625E-9
 598.462E-12
 10.0005E-6
 0.009506537
 0.01265194
 0.01369819
 0.01474333
 0.1096739
 0.2621133
 0.4525056
 0.5937721
 0.6985885
 0.8174569
 0.8894468
 0.9330459
 0.9711117
 0.9875357
 0.9970411
 0.9992976
 1.000036
 0.9999981
 1.000001
 0.9999998
 0.9999898
 0.9999378
 0.9999355
 0.9999351
 0.9999349
 0.9999077
 0.9077517
 0.6161199
 0.4181802
 0.2838322
 0.1926459
 0.1307549
 0.08874752
 0.06023576
 0.04088392
 0.02774922
 0.01883428
 0.01278342
 0.008676516
 0.005889027
 0.00399707
 0.002712939
 0.001841358
 0.001249788
 848.2713E-6
 575.7489E-6
 390.7793E-6
 265.2345E-6
 180.0233E-6
 122.1878E-6
 82.93292E-6
 56.28942E-6
 38.20563E-6
 25.93158E-6
 17.6008E-6
 11.94643E-6
 8.108632E-6
 5.503796E-6
 3.735811E-6
 2.535823E-6
 1.721353E-6
 900.6538E-9
 471.3923E-9
 246.8697E-9
 82.49366E-9
 27.85582E-9
 4.510183E-9
 1.19922E-9
</dep>
