<Qucs Dataset>
default plugins: ignored
C:C1 _net1 gnd C="1u" V="" 
                      ^ ? C1: V has no value?
Gnucap   System status
iterations: op=0, dc=0, tran=859, fourier=0, total=1161
transient timesteps: accepted=281, rejected=21, total=302
transient timesteps: accepted=0, rejected=0, total=0
nodes: user=2, subckt=0, model=2, total=4
dctran density=50.0%, ac density=50.0%

<indep time 281>
 0.
 80.E-12
 160.E-12
 440.E-12
 720.E-12
 1.01E-9
 1.44E-9
 1.87E-9
 2.3E-9
 2.73E-9
 779.13E-9
 5.53733E-6
 15.19232E-6
 29.6748E-6
 44.15728E-6
 65.881E-6
 87.60472E-6
 109.3284E-6
 143.5851E-6
 177.8417E-6
 229.2267E-6
 280.6116E-6
 360.5438E-6
 440.4759E-6
 626.9843E-6
 813.4927E-6
 0.001000001
 0.002000002
 0.003000003
 0.003000004
 0.003000006
 0.003000006
 0.003000006
 0.003000006
 0.003001262
 0.003022069
 0.003042877
 0.003063684
 0.003084491
 0.003105298
 0.003126105
 0.003146912
 0.003167719
 0.003188526
 0.003209334
 0.003230141
 0.003250948
 0.003271755
 0.003292562
 0.003313369
 0.003334176
 0.003354983
 0.003375791
 0.003396598
 0.003417405
 0.003438212
 0.003459019
 0.003479826
 0.003500633
 0.00352144
 0.003542247
 0.003563055
 0.003583862
 0.003604669
 0.003625476
 0.003646283
 0.00366709
 0.003700382
 0.003733673
 0.003766964
 0.003813572
 0.003875716
 0.00393786
 0.004000004
 0.004000005
 0.004000483
 0.004000683
 0.004000747
 0.00400081
 0.004005987
 0.004015454
 0.004030371
 0.004045289
 0.004060206
 0.004084938
 0.004109669
 0.004134401
 0.004173747
 0.004213092
 0.004273624
 0.004334156
 0.004445131
 0.004556105
 0.004778055
 0.005000005
 0.005000006
 0.005000007
 0.005000007
 0.005000007
 0.005000007
 0.005001351
 0.005019845
 0.005038338
 0.005056832
 0.005075325
 0.005093819
 0.005112313
 0.005130806
 0.0051493
 0.005167793
 0.005186287
 0.005204781
 0.005223274
 0.005241768
 0.005260261
 0.005278755
 0.005297249
 0.005315742
 0.005334236
 0.005352729
 0.005371223
 0.005389717
 0.00540821
 0.005426704
 0.005445198
 0.005463691
 0.005482185
 0.005500678
 0.005519172
 0.005537666
 0.005556159
 0.005574653
 0.005593146
 0.00561164
 0.005630134
 0.005648627
 0.005677909
 0.00570719
 0.005736472
 0.005780394
 0.005824317
 0.00588288
 0.005941443
 0.006000006
 0.006000007
 0.006000466
 0.00600066
 0.006000722
 0.006000783
 0.006005907
 0.006015286
 0.006030206
 0.006045126
 0.006060046
 0.006084782
 0.006109517
 0.006134253
 0.006173606
 0.006212958
 0.0062735
 0.006334043
 0.006445037
 0.006556031
 0.006778019
 0.007000007
 0.007000008
 0.007000009
 0.007000009
 0.007000009
 0.007000009
 0.007001545
 0.007021514
 0.007041483
 0.007061453
 0.007081422
 0.007101391
 0.00712136
 0.00714133
 0.007161299
 0.007181268
 0.007201238
 0.007221207
 0.007241176
 0.007261145
 0.007281115
 0.007301084
 0.007321053
 0.007341022
 0.007360992
 0.007380961
 0.00740093
 0.007420899
 0.007440869
 0.007460838
 0.007480807
 0.007500776
 0.007520746
 0.007540715
 0.007560684
 0.007580653
 0.007600623
 0.007620592
 0.007640561
 0.007660531
 0.007691392
 0.007722254
 0.007768546
 0.007814838
 0.007876562
 0.007938285
 0.008000008
 0.008000009
 0.008000485
 0.008000684
 0.008000748
 0.008000811
 0.008005988
 0.008015455
 0.008030372
 0.00804529
 0.008060207
 0.008084939
 0.008109671
 0.008134402
 0.008173748
 0.008213094
 0.008273626
 0.008334158
 0.008445133
 0.008556108
 0.008778059
 0.009000009
 0.00900001
 0.009000011
 0.009000011
 0.009000011
 0.009000011
 0.009001664
 0.009020151
 0.009038639
 0.009057127
 0.009075615
 0.009094102
 0.00911259
 0.009131078
 0.009149565
 0.009168053
 0.009186541
 0.009205029
 0.009223516
 0.009242004
 0.009260492
 0.009278979
 0.009297467
 0.009315955
 0.009334442
 0.00935293
 0.009371418
 0.009389906
 0.009408393
 0.009426881
 0.009445369
 0.009463856
 0.009482344
 0.009500832
 0.00951932
 0.009537807
 0.009556295
 0.009574783
 0.00959327
 0.009611758
 0.009630246
 0.009648734
 0.009678006
 0.009707278
 0.00973655
 0.009780458
 0.009824367
 0.009882911
 0.009941456
 0.01
</indep>
<dep _net0.Vt time>
 0.
 0.07999998
 0.16
 0.4399999
 0.7199999
 0.9999998
 0.9999998
 0.9999998
 0.9999998
 0.9999998
 0.9999998
 0.9999998
 0.9999999
 0.9999999
 0.9999999
 0.9999999
 1.
 1.
 1.
 1.
 1.
 1.
 1.
 1.
 1.
 1.
 1.
 1.
 1.
 199.9981E-9
 199.9901E-9
 199.9899E-9
 199.9899E-9
 199.9898E-9
 195.0273E-9
 127.8466E-9
 83.80746E-9
 54.93844E-9
 36.01389E-9
 23.60824E-9
 15.47595E-9
 10.14497E-9
 6.650351E-9
 4.359515E-9
 2.8578E-9
 1.873378E-9
 1.228059E-9
 805.031E-12
 527.723E-12
 345.939E-12
 226.774E-12
 148.658E-12
 97.45E-12
 63.881E-12
 41.876E-12
 27.451E-12
 17.995E-12
 11.796E-12
 7.733E-12
 5.069E-12
 3.323E-12
 2.178E-12
 1.428E-12
 936.E-15
 614.E-15
 402.E-15
 264.E-15
 132.E-15
 66.E-15
 33.E-15
 12.E-15
 3.E-15
 1.E-15
 0.
 0.9999998
 0.9999998
 0.9999998
 0.9999998
 0.9999998
 0.9999998
 0.9999999
 0.9999999
 0.9999999
 0.9999999
 1.
 1.
 1.
 1.
 1.
 1.
 1.
 1.
 1.
 1.
 1.
 199.9979E-9
 199.9949E-9
 199.9948E-9
 199.9947E-9
 199.9946E-9
 194.6898E-9
 133.9183E-9
 92.11633E-9
 63.36266E-9
 43.58431E-9
 29.97968E-9
 20.62166E-9
 14.18471E-9
 9.757021E-9
 6.711413E-9
 4.616478E-9
 3.175466E-9
 2.18426E-9
 1.502454E-9
 1.03347E-9
 710.877E-12
 488.98E-12
 336.347E-12
 231.358E-12
 159.141E-12
 109.466E-12
 75.297E-12
 51.793E-12
 35.626E-12
 24.506E-12
 16.856E-12
 11.595E-12
 7.976E-12
 5.486E-12
 3.774E-12
 2.596E-12
 1.786E-12
 1.228E-12
 845.E-15
 581.E-15
 400.E-15
 219.E-15
 120.E-15
 66.E-15
 26.E-15
 10.E-15
 3.E-15
 1.E-15
 0.
 0.9999998
 0.9999998
 0.9999998
 0.9999998
 0.9999998
 0.9999998
 0.9999999
 0.9999999
 0.9999999
 0.9999999
 1.
 1.
 1.
 1.
 1.
 1.
 1.
 1.
 1.
 1.
 1.
 199.9979E-9
 199.9949E-9
 199.9948E-9
 199.9947E-9
 199.9946E-9
 193.9434E-9
 129.3784E-9
 86.30753E-9
 57.57522E-9
 38.40807E-9
 25.62178E-9
 17.09213E-9
 11.40206E-9
 7.60624E-9
 5.074075E-9
 3.384884E-9
 2.258035E-9
 1.506321E-9
 1.004858E-9
 670.334E-12
 447.176E-12
 298.308E-12
 199.E-12
 132.751E-12
 88.558E-12
 59.076E-12
 39.409E-12
 26.29E-12
 17.538E-12
 11.699E-12
 7.805E-12
 5.206E-12
 3.473E-12
 2.317E-12
 1.546E-12
 1.031E-12
 688.E-15
 459.E-15
 306.E-15
 162.E-15
 86.E-15
 31.E-15
 12.E-15
 3.E-15
 1.E-15
 0.
 0.9999998
 0.9999998
 0.9999998
 0.9999998
 0.9999998
 0.9999998
 0.9999999
 0.9999999
 0.9999999
 0.9999999
 1.
 1.
 1.
 1.
 1.
 1.
 1.
 1.
 1.
 1.
 1.
 199.9979E-9
 199.9949E-9
 199.9948E-9
 199.9947E-9
 199.9946E-9
 193.4908E-9
 133.1099E-9
 91.57144E-9
 62.99555E-9
 43.33708E-9
 29.81326E-9
 20.5097E-9
 14.10942E-9
 9.706418E-9
 6.677422E-9
 4.593658E-9
 3.160155E-9
 2.173994E-9
 1.495575E-9
 1.028864E-9
 707.795E-12
 486.92E-12
 334.971E-12
 230.44E-12
 158.528E-12
 109.058E-12
 75.025E-12
 51.613E-12
 35.506E-12
 24.426E-12
 16.804E-12
 11.56E-12
 7.953E-12
 5.471E-12
 3.764E-12
 2.589E-12
 1.781E-12
 1.225E-12
 843.E-15
 580.E-15
 399.E-15
 218.E-15
 119.E-15
 65.E-15
 25.E-15
 10.E-15
 3.E-15
 1.E-15
 0.
</dep>
<dep _net1.Vt time>
 0.
 127.9998E-9
 319.9994E-9
 1.999993E-6
 5.247972E-6
 10.23593E-6
 18.8358E-6
 27.4356E-6
 36.03532E-6
 44.63498E-6
 0.01545231
 0.1048902
 0.2625168
 0.4491058
 0.5884863
 0.7353699
 0.8298256
 0.8905667
 0.9464123
 0.9737589
 0.9915731
 0.9972938
 0.9996982
 0.9999663
 1.00001
 0.9999969
 1.000001
 0.9999992
 1.000001
 0.9999905
 0.9999509
 0.9999499
 0.9999495
 0.9999493
 0.9751367
 0.6392329
 0.4190374
 0.2746923
 0.1800695
 0.1180412
 0.07737976
 0.05072488
 0.03325176
 0.02179758
 0.014289
 0.009366894
 0.006140295
 0.004025157
 0.002638618
 0.001729697
 0.001133871
 743.2885E-6
 487.2491E-6
 319.4072E-6
 209.3815E-6
 137.2562E-6
 89.97576E-6
 58.98194E-6
 38.66452E-6
 25.3458E-6
 16.61497E-6
 10.89162E-6
 7.139794E-6
 4.68035E-6
 3.068107E-6
 2.01123E-6
 1.318415E-6
 659.8144E-9
 330.2034E-9
 165.2423E-9
 60.15882E-9
 14.02184E-9
 3.250127E-9
 735.233E-12
 10.10063E-6
 0.009520165
 0.01348029
 0.0147308
 0.01597972
 0.1128534
 0.2662966
 0.4567808
 0.5978114
 0.7022276
 0.8203112
 0.8915679
 0.9345673
 0.9715185
 0.9876026
 0.996952
 0.9992506
 1.000039
 0.999998
 1.000001
 0.9999997
 0.9999896
 0.9999748
 0.9999742
 0.9999736
 0.9999734
 0.973449
 0.6695916
 0.4605818
 0.3168134
 0.2179216
 0.1498984
 0.1031083
 0.07092356
 0.04878511
 0.03355707
 0.02308239
 0.01587733
 0.0109213
 0.007512269
 0.00516735
 0.003554387
 0.002444902
 0.001681738
 0.001156792
 795.7048E-6
 547.3295E-6
 376.4834E-6
 258.9661E-6
 178.1312E-6
 122.5286E-6
 84.28206E-6
 57.97399E-6
 39.87786E-6
 27.43035E-6
 18.86828E-6
 12.97881E-6
 8.927712E-6
 6.141145E-6
 4.224392E-6
 2.905944E-6
 1.999043E-6
 1.093754E-6
 598.5504E-9
 327.6687E-9
 128.0159E-9
 50.22346E-9
 13.54057E-9
 3.954324E-9
 1.449176E-9
 10.10135E-6
 0.009155
 0.01298256
 0.01419841
 0.01541276
 0.111399
 0.2637796
 0.454946
 0.5964742
 0.7012534
 0.8197397
 0.8912329
 0.9343712
 0.9714377
 0.9875694
 0.9969448
 0.9992491
 1.000039
 0.999998
 1.000001
 0.9999997
 0.9999896
 0.9999748
 0.9999742
 0.9999736
 0.9999734
 0.969717
 0.6468922
 0.4315377
 0.2878761
 0.1920404
 0.1281089
 0.08546068
 0.05701029
 0.03803121
 0.02537038
 0.01692442
 0.01129018
 0.007531608
 0.005024289
 0.003351672
 0.00223588
 0.001491541
 994.9981E-6
 663.7572E-6
 442.7884E-6
 295.3815E-6
 197.0473E-6
 131.4491E-6
 87.68899E-6
 58.49689E-6
 39.02302E-6
 26.03212E-6
 17.36598E-6
 11.58484E-6
 7.728287E-6
 5.155601E-6
 3.439379E-6
 2.294497E-6
 1.530754E-6
 808.9017E-9
 427.5237E-9
 157.1624E-9
 57.9059E-9
 13.95566E-9
 3.553471E-9
 1.091467E-9
 10.10099E-6
 0.009479752
 0.01342485
 0.01467148
 0.01591655
 0.1127966
 0.2662501
 0.4567469
 0.5977867
 0.7022097
 0.8203006
 0.8915617
 0.9345637
 0.971517
 0.9876019
 0.9969518
 0.9992506
 1.000039
 0.999998
 1.000001
 0.9999997
 0.9999896
 0.9999748
 0.9999742
 0.9999736
 0.9999734
 0.9674544
 0.6655494
 0.4578573
 0.3149778
 0.2166855
 0.1490663
 0.1025485
 0.07054711
 0.0485321
 0.03338712
 0.02296829
 0.01580078
 0.01086997
 0.007477875
 0.00514432
 0.003538978
 0.0024346
 0.001674856
 0.001152198
 792.6421E-6
 545.2893E-6
 375.1257E-6
 258.0635E-6
 177.5319E-6
 122.1311E-6
 84.01874E-6
 57.79976E-6
 39.7627E-6
 27.35431E-6
 18.8181E-6
 12.94571E-6
 8.905863E-6
 6.126695E-6
 4.214798E-6
 2.89953E-6
 1.994706E-6
 1.091359E-6
 597.117E-9
 326.706E-9
 127.3543E-9
 49.65219E-9
 12.99839E-9
 3.414283E-9
 908.267E-12
</dep>
<dep Pr1.Vt time>
 0.
 127.9998E-9
 319.9994E-9
 1.999993E-6
 5.247972E-6
 10.23593E-6
 18.8358E-6
 27.4356E-6
 36.03532E-6
 44.63498E-6
 0.01545231
 0.1048902
 0.2625168
 0.4491058
 0.5884863
 0.7353699
 0.8298256
 0.8905667
 0.9464123
 0.9737589
 0.9915731
 0.9972938
 0.9996982
 0.9999663
 1.00001
 0.9999969
 1.000001
 0.9999992
 1.000001
 0.9999905
 0.9999509
 0.9999499
 0.9999495
 0.9999493
 0.9751367
 0.6392329
 0.4190374
 0.2746923
 0.1800695
 0.1180412
 0.07737976
 0.05072488
 0.03325176
 0.02179758
 0.014289
 0.009366894
 0.006140295
 0.004025157
 0.002638618
 0.001729697
 0.001133871
 743.2885E-6
 487.2491E-6
 319.4072E-6
 209.3815E-6
 137.2562E-6
 89.97576E-6
 58.98194E-6
 38.66452E-6
 25.3458E-6
 16.61497E-6
 10.89162E-6
 7.139794E-6
 4.68035E-6
 3.068107E-6
 2.01123E-6
 1.318415E-6
 659.8144E-9
 330.2034E-9
 165.2423E-9
 60.15883E-9
 14.02184E-9
 3.250127E-9
 735.233E-12
 10.10063E-6
 0.009520165
 0.01348029
 0.0147308
 0.01597972
 0.1128534
 0.2662966
 0.4567808
 0.5978114
 0.7022276
 0.8203112
 0.8915679
 0.9345673
 0.9715185
 0.9876026
 0.996952
 0.9992506
 1.000039
 0.999998
 1.000001
 0.9999997
 0.9999896
 0.9999748
 0.9999742
 0.9999736
 0.9999734
 0.973449
 0.6695916
 0.4605818
 0.3168134
 0.2179216
 0.1498984
 0.1031083
 0.07092356
 0.04878511
 0.03355707
 0.02308239
 0.01587733
 0.0109213
 0.007512269
 0.00516735
 0.003554387
 0.002444902
 0.001681738
 0.001156792
 795.7048E-6
 547.3295E-6
 376.4834E-6
 258.9661E-6
 178.1312E-6
 122.5286E-6
 84.28206E-6
 57.97399E-6
 39.87786E-6
 27.43035E-6
 18.86828E-6
 12.97881E-6
 8.927712E-6
 6.141145E-6
 4.224392E-6
 2.905944E-6
 1.999043E-6
 1.093754E-6
 598.5504E-9
 327.6687E-9
 128.0159E-9
 50.22346E-9
 13.54057E-9
 3.954324E-9
 1.449176E-9
 10.10135E-6
 0.009155
 0.01298256
 0.01419841
 0.01541276
 0.111399
 0.2637796
 0.454946
 0.5964742
 0.7012534
 0.8197397
 0.8912329
 0.9343712
 0.9714377
 0.9875694
 0.9969448
 0.9992491
 1.000039
 0.999998
 1.000001
 0.9999997
 0.9999896
 0.9999748
 0.9999742
 0.9999736
 0.9999734
 0.969717
 0.6468922
 0.4315377
 0.2878761
 0.1920404
 0.1281089
 0.08546068
 0.05701029
 0.03803121
 0.02537038
 0.01692442
 0.01129018
 0.007531608
 0.005024289
 0.003351672
 0.00223588
 0.001491541
 994.9981E-6
 663.7572E-6
 442.7884E-6
 295.3815E-6
 197.0473E-6
 131.4491E-6
 87.68899E-6
 58.49689E-6
 39.02302E-6
 26.03212E-6
 17.36598E-6
 11.58484E-6
 7.728287E-6
 5.155601E-6
 3.439379E-6
 2.294497E-6
 1.530754E-6
 808.9017E-9
 427.5237E-9
 157.1624E-9
 57.9059E-9
 13.95566E-9
 3.553471E-9
 1.091467E-9
 10.10099E-6
 0.009479752
 0.01342485
 0.01467148
 0.01591655
 0.1127966
 0.2662501
 0.4567469
 0.5977867
 0.7022097
 0.8203006
 0.8915617
 0.9345637
 0.971517
 0.9876019
 0.9969518
 0.9992506
 1.000039
 0.999998
 1.000001
 0.9999997
 0.9999896
 0.9999748
 0.9999742
 0.9999736
 0.9999734
 0.9674544
 0.6655494
 0.4578573
 0.3149778
 0.2166855
 0.1490663
 0.1025485
 0.07054711
 0.0485321
 0.03338712
 0.02296829
 0.01580078
 0.01086997
 0.007477875
 0.00514432
 0.003538978
 0.0024346
 0.001674856
 0.001152198
 792.6421E-6
 545.2893E-6
 375.1257E-6
 258.0635E-6
 177.5319E-6
 122.1311E-6
 84.01874E-6
 57.79976E-6
 39.7627E-6
 27.35431E-6
 18.8181E-6
 12.94571E-6
 8.905863E-6
 6.126695E-6
 4.214798E-6
 2.89953E-6
 1.994706E-6
 1.091359E-6
 597.117E-9
 326.706E-9
 127.3543E-9
 49.65219E-9
 12.99839E-9
 3.414283E-9
 908.267E-12
</dep>
