<Qucs Dataset>
default plugins: ignored
C:C1 _net1 gnd C="1u" V="" 
                      ^ ? C1: V has no value?
Gnucap   System status
iterations: op=0, dc=0, tran=1071, fourier=0, total=1450
transient timesteps: accepted=348, rejected=31, total=379
transient timesteps: accepted=0, rejected=0, total=0
nodes: user=2, subckt=0, model=0, total=2
dctran density=100.0%, ac density=100.0%

<indep time 348>
 0.
 84.E-12
 244.E-12
 404.E-12
 658.219E-12
 1.E-9
 1.558267E-9
 1.93931E-9
 2.320352E-9
 3.104632E-9
 788.5269E-9
 5.584312E-6
 15.26882E-6
 29.86638E-6
 44.46394E-6
 66.44084E-6
 88.41775E-6
 110.3946E-6
 144.9737E-6
 179.5527E-6
 232.0685E-6
 284.5842E-6
 372.1105E-6
 459.6368E-6
 654.3381E-6
 988.1117E-6
 0.001000003
 0.001000004
 0.001000006
 0.001000006
 0.001000006
 0.001000006
 0.001002859
 0.001022002
 0.001041145
 0.001060288
 0.00107943
 0.001098573
 0.001117716
 0.001136859
 0.001156002
 0.001175145
 0.001194287
 0.00121343
 0.001232573
 0.001251716
 0.001270859
 0.001290002
 0.001309145
 0.001328287
 0.00134743
 0.001366573
 0.001385716
 0.001404859
 0.001424002
 0.001443145
 0.001462287
 0.00148143
 0.001500573
 0.001519716
 0.001538859
 0.001558002
 0.001577145
 0.001596287
 0.00161543
 0.001634573
 0.001653716
 0.001685093
 0.00171647
 0.001747847
 0.001798786
 0.001849725
 0.001938315
 0.002000002
 0.002000003
 0.002000509
 0.002000715
 0.00200078
 0.002000846
 0.002006126
 0.002015677
 0.002030741
 0.002045806
 0.002060871
 0.002085758
 0.002110646
 0.002135533
 0.002175658
 0.002215783
 0.002279069
 0.002342356
 0.002456649
 0.002570942
 0.002880486
 0.003000005
 0.003000006
 0.00300001
 0.00300001
 0.00300001
 0.00300001
 0.003003008
 0.003022177
 0.003041347
 0.003060517
 0.003079687
 0.003098857
 0.003118027
 0.003137196
 0.003156366
 0.003175536
 0.003194706
 0.003213876
 0.003233046
 0.003252216
 0.003271385
 0.003290555
 0.003309725
 0.003328895
 0.003348065
 0.003367235
 0.003386404
 0.003405574
 0.003424744
 0.003443914
 0.003463084
 0.003482254
 0.003501424
 0.003520593
 0.003539763
 0.003558933
 0.003578103
 0.003597273
 0.003616443
 0.003635612
 0.003654782
 0.00368635
 0.003717919
 0.003749487
 0.003800721
 0.003851954
 0.003941057
 0.004000004
 0.004000005
 0.004000501
 0.004000702
 0.004000767
 0.004000831
 0.00400608
 0.004015609
 0.004030646
 0.004045682
 0.004060718
 0.004085568
 0.004110419
 0.00413527
 0.004175439
 0.004215608
 0.004279173
 0.004342738
 0.004458192
 0.004573646
 0.004892844
 0.005000007
 0.005000008
 0.005000011
 0.005000011
 0.005000011
 0.005000011
 0.005000013
 0.00500359
 0.005022881
 0.005042172
 0.005061463
 0.005080755
 0.005100046
 0.005119337
 0.005138628
 0.005157919
 0.00517721
 0.005196502
 0.005215793
 0.005235084
 0.005254375
 0.005273666
 0.005292957
 0.005312249
 0.00533154
 0.005350831
 0.005370122
 0.005389413
 0.005408704
 0.005427995
 0.005447287
 0.005466578
 0.005485869
 0.00550516
 0.005524451
 0.005543742
 0.005563034
 0.005582325
 0.005601616
 0.005620907
 0.005640198
 0.005659489
 0.005692125
 0.00572476
 0.005757396
 0.005810428
 0.005863461
 0.005957473
 0.006000006
 0.006000007
 0.00600044
 0.006000613
 0.006000672
 0.00600073
 0.00600576
 0.006015115
 0.006029928
 0.006044742
 0.006059556
 0.006084183
 0.006108811
 0.006133439
 0.006172894
 0.006212348
 0.006274441
 0.006336534
 0.006447548
 0.006558562
 0.006845348
 0.007000009
 0.00700001
 0.007000013
 0.007000013
 0.007000013
 0.007000013
 0.007000015
 0.007004807
 0.007024131
 0.007043455
 0.007062779
 0.007082103
 0.007101426
 0.00712075
 0.007140074
 0.007159398
 0.007178722
 0.007198045
 0.007217369
 0.007236693
 0.007256017
 0.007275341
 0.007294665
 0.007313988
 0.007333312
 0.007352636
 0.00737196
 0.007391284
 0.007410608
 0.007429931
 0.007449255
 0.007468579
 0.007487903
 0.007507227
 0.007526551
 0.007545874
 0.007565198
 0.007584522
 0.007603846
 0.00762317
 0.007642493
 0.007671598
 0.007700703
 0.007729809
 0.007776139
 0.007822469
 0.007897557
 0.007972644
 0.008000008
 0.008000009
 0.008000349
 0.008000486
 0.008000535
 0.008000584
 0.008005244
 0.00801427
 0.00802866
 0.008043049
 0.008064793
 0.008086537
 0.008108281
 0.008142061
 0.008175842
 0.008226513
 0.008277184
 0.008359223
 0.008441262
 0.008614455
 0.008891564
 0.009000011
 0.009000012
 0.009000014
 0.009000014
 0.009000014
 0.009000015
 0.009002762
 0.009021939
 0.009041117
 0.009060295
 0.009079472
 0.00909865
 0.009117828
 0.009137005
 0.009156183
 0.009175361
 0.009194538
 0.009213716
 0.009232894
 0.009252071
 0.009271249
 0.009290427
 0.009309604
 0.009328782
 0.00934796
 0.009367137
 0.009386315
 0.009405493
 0.00942467
 0.009443848
 0.009463026
 0.009482203
 0.009501381
 0.009520559
 0.009539736
 0.009558914
 0.009578091
 0.009597269
 0.009616447
 0.009635624
 0.009654802
 0.009686184
 0.009717565
 0.009748947
 0.009799158
 0.009849368
 0.009924684
 0.01
</indep>
<dep _net0.Vt time>
 0.
 0.08399998
 0.2439999
 0.4039999
 0.6582188
 0.9999998
 0.9999998
 0.9999998
 0.9999998
 0.9999998
 0.9999998
 0.9999998
 0.9999999
 0.9999999
 0.9999999
 0.9999999
 1.
 1.
 1.
 1.
 1.
 1.
 1.
 1.
 1.
 1.
 1.
 199.9977E-9
 199.9888E-9
 199.9884E-9
 199.9883E-9
 199.9883E-9
 188.895E-9
 128.1949E-9
 87.0004E-9
 59.04345E-9
 40.07026E-9
 27.19397E-9
 18.45538E-9
 12.52488E-9
 8.500099E-9
 5.768653E-9
 3.914938E-9
 2.656901E-9
 1.803125E-9
 1.223704E-9
 830.475E-12
 563.608E-12
 382.497E-12
 259.584E-12
 176.169E-12
 119.558E-12
 81.139E-12
 55.066E-12
 37.371E-12
 25.362E-12
 17.212E-12
 11.681E-12
 7.927E-12
 5.38E-12
 3.651E-12
 2.478E-12
 1.682E-12
 1.141E-12
 775.E-15
 526.E-15
 357.E-15
 186.E-15
 97.E-15
 51.E-15
 17.E-15
 5.E-15
 0.
 0.
 0.9999998
 0.9999998
 0.9999998
 0.9999998
 0.9999998
 0.9999998
 0.9999999
 0.9999999
 0.9999999
 0.9999999
 1.
 1.
 1.
 1.
 1.
 1.
 1.
 1.
 1.
 1.
 1.
 199.9979E-9
 199.9837E-9
 199.9831E-9
 199.983E-9
 199.9829E-9
 188.3415E-9
 127.7477E-9
 86.64835E-9
 58.77158E-9
 39.86341E-9
 27.03844E-9
 18.33955E-9
 12.4393E-9
 8.437288E-9
 5.722819E-9
 3.881656E-9
 2.632838E-9
 1.785794E-9
 1.211263E-9
 821.572E-12
 557.253E-12
 377.972E-12
 256.37E-12
 173.89E-12
 117.945E-12
 80.E-12
 54.262E-12
 36.805E-12
 24.964E-12
 16.932E-12
 11.485E-12
 7.79E-12
 5.284E-12
 3.584E-12
 2.431E-12
 1.649E-12
 1.118E-12
 759.E-15
 515.E-15
 349.E-15
 182.E-15
 94.E-15
 49.E-15
 16.E-15
 5.E-15
 0.
 0.
 0.9999998
 0.9999998
 0.9999998
 0.9999998
 0.9999998
 0.9999998
 0.9999999
 0.9999999
 0.9999999
 0.9999999
 1.
 1.
 1.
 1.
 1.
 1.
 1.
 1.
 1.
 1.
 1.
 200.3075E-9
 199.9863E-9
 199.9857E-9
 199.9857E-9
 199.9856E-9
 199.9762E-9
 186.1657E-9
 125.9542E-9
 85.21686E-9
 57.65519E-9
 39.00779E-9
 26.39151E-9
 17.85571E-9
 12.08064E-9
 8.173402E-9
 5.529881E-9
 3.741353E-9
 2.531288E-9
 1.712594E-9
 1.15869E-9
 783.935E-12
 530.387E-12
 358.844E-12
 242.783E-12
 164.26E-12
 111.133E-12
 75.19E-12
 50.871E-12
 34.418E-12
 23.286E-12
 15.755E-12
 10.659E-12
 7.212E-12
 4.879E-12
 3.301E-12
 2.233E-12
 1.511E-12
 1.022E-12
 692.E-15
 468.E-15
 317.E-15
 161.E-15
 82.E-15
 41.E-15
 13.E-15
 4.E-15
 0.
 0.
 0.9999998
 0.9999998
 0.9999998
 0.9999998
 0.9999998
 0.9999998
 0.9999999
 0.9999999
 0.9999999
 0.9999999
 1.
 1.
 1.
 1.
 1.
 1.
 1.
 1.
 1.
 1.
 1.
 200.7411E-9
 199.9859E-9
 199.9854E-9
 199.9853E-9
 199.9853E-9
 199.9781E-9
 181.6875E-9
 122.841E-9
 83.05418E-9
 56.15387E-9
 37.96626E-9
 25.66942E-9
 17.35538E-9
 11.73417E-9
 7.933604E-9
 5.363999E-9
 3.62666E-9
 2.452026E-9
 1.657842E-9
 1.120886E-9
 757.844E-12
 512.387E-12
 346.43E-12
 234.226E-12
 158.363E-12
 107.071E-12
 72.392E-12
 48.945E-12
 33.092E-12
 22.374E-12
 15.127E-12
 10.228E-12
 6.915E-12
 4.675E-12
 3.161E-12
 2.137E-12
 1.445E-12
 977.E-15
 661.E-15
 447.E-15
 245.E-15
 135.E-15
 74.E-15
 27.E-15
 10.E-15
 1.E-15
 0.
 0.
 0.9999998
 0.9999998
 0.9999998
 0.9999998
 0.9999998
 0.9999998
 0.9999998
 0.9999999
 0.9999999
 0.9999999
 1.
 1.
 1.
 1.
 1.
 1.
 1.
 1.
 1.
 1.
 1.
 199.998E-9
 199.9885E-9
 199.9881E-9
 199.988E-9
 199.988E-9
 189.2936E-9
 128.3726E-9
 87.05808E-9
 59.03991E-9
 40.03891E-9
 27.15307E-9
 18.41431E-9
 12.48798E-9
 8.468934E-9
 5.743351E-9
 3.894951E-9
 2.641427E-9
 1.791328E-9
 1.21482E-9
 823.851E-12
 558.708E-12
 378.897E-12
 256.956E-12
 174.259E-12
 118.177E-12
 80.144E-12
 54.351E-12
 36.859E-12
 24.997E-12
 16.952E-12
 11.496E-12
 7.796E-12
 5.287E-12
 3.586E-12
 2.432E-12
 1.649E-12
 1.118E-12
 759.E-15
 514.E-15
 349.E-15
 182.E-15
 95.E-15
 50.E-15
 17.E-15
 6.E-15
 1.E-15
 0.
</dep>
<dep _net1.Vt time>
 0.
 141.1197E-9
 665.9183E-9
 1.702714E-6
 4.403059E-6
 10.07049E-6
 21.23565E-6
 28.85631E-6
 36.47691E-6
 52.1618E-6
 0.01563738
 0.1057324
 0.2636498
 0.4512439
 0.5910462
 0.7384107
 0.8326732
 0.8929686
 0.9479704
 0.9747076
 0.9921255
 0.9975483
 0.9998369
 0.9999892
 1.000003
 0.9999981
 0.9999985
 0.9999885
 0.9999443
 0.9999423
 0.9999419
 0.9999417
 0.944475
 0.6409747
 0.4350021
 0.2952173
 0.2003513
 0.1359699
 0.09227694
 0.06262441
 0.0425005
 0.02884327
 0.01957469
 0.01328451
 0.009015626
 0.006118519
 0.004152377
 0.002818041
 0.001912483
 0.001297921
 880.8433E-6
 597.7907E-6
 405.695E-6
 275.3279E-6
 186.8533E-6
 126.8094E-6
 86.06014E-6
 58.40538E-6
 39.63728E-6
 26.90017E-6
 18.25604E-6
 12.38964E-6
 8.408369E-6
 5.706449E-6
 3.872771E-6
 2.628333E-6
 1.783785E-6
 931.8085E-9
 486.7899E-9
 254.3404E-9
 82.77215E-9
 27.00616E-9
 1.776139E-9
 536.375E-12
 10.00043E-6
 0.01008483
 0.01414148
 0.01543535
 0.01672752
 0.1153531
 0.2696001
 0.4608541
 0.6020286
 0.7062367
 0.8233188
 0.8937367
 0.936089
 0.9726909
 0.9883308
 0.9973763
 0.9994101
 1.000039
 0.9999974
 1.000001
 0.9999999
 0.9999899
 0.9999188
 0.9999155
 0.9999151
 0.9999149
 0.9417079
 0.6387388
 0.4332418
 0.293858
 0.1993171
 0.1351922
 0.09169777
 0.06219649
 0.04218645
 0.0286141
 0.01940829
 0.01316419
 0.008928971
 0.006056316
 0.00410786
 0.002786267
 0.001889861
 0.001281849
 869.4492E-6
 589.7275E-6
 399.9988E-6
 271.3101E-6
 184.0236E-6
 124.8191E-6
 84.66208E-6
 57.42449E-6
 38.94986E-6
 26.41895E-6
 17.91952E-6
 12.15455E-6
 8.244299E-6
 5.592069E-6
 3.793122E-6
 2.572938E-6
 1.745315E-6
 908.0039E-9
 472.4986E-9
 245.982E-9
 79.63515E-9
 25.99552E-9
 1.938525E-9
 847.315E-12
 10.00075E-6
 0.00988481
 0.01385623
 0.01513071
 0.01640354
 0.114505
 0.2685849
 0.4597886
 0.6010086
 0.7053114
 0.8226224
 0.8932337
 0.9357358
 0.9725691
 0.9882913
 0.9973918
 0.999419
 1.000042
 0.999997
 1.000002
 0.9999999
 0.9999899
 0.9999315
 0.9999289
 0.9999285
 0.9999282
 0.9998812
 0.9308288
 0.6297711
 0.4260844
 0.288276
 0.195039
 0.1319576
 0.08927856
 0.06040322
 0.04086702
 0.02764941
 0.01870677
 0.01265644
 0.008562972
 0.005793452
 0.003919677
 0.002651937
 0.001794222
 0.001213917
 821.3001E-6
 555.6672E-6
 375.9479E-6
 254.3551E-6
 172.0891E-6
 116.4304E-6
 78.77331E-6
 53.29567E-6
 36.05826E-6
 24.39594E-6
 16.50556E-6
 11.16716E-6
 7.555364E-6
 5.111727E-6
 3.458436E-6
 2.339868E-6
 1.583078E-6
 804.0236E-9
 408.3474E-9
 207.3863E-9
 63.63448E-9
 19.51539E-9
 581.647E-12
 221.792E-12
 10.00012E-6
 0.008637094
 0.01206278
 0.01321338
 0.01436264
 0.1087785
 0.2612492
 0.4518821
 0.5933226
 0.6982647
 0.8175169
 0.8896381
 0.9332555
 0.9710224
 0.9874191
 0.9970578
 0.9993119
 1.000036
 0.9999981
 1.000001
 0.9999998
 0.9999898
 0.9999298
 0.9999271
 0.9999267
 0.9999265
 0.9998908
 0.9084379
 0.6142051
 0.415271
 0.2807694
 0.1898313
 0.1283471
 0.08677693
 0.05867086
 0.03966803
 0.02682
 0.01813331
 0.01226013
 0.008289214
 0.005604431
 0.003789219
 0.002561934
 0.001732153
 0.001171128
 791.8129E-6
 535.3538E-6
 361.9588E-6
 244.7246E-6
 165.4612E-6
 111.8703E-6
 75.63688E-6
 51.13907E-6
 34.57582E-6
 23.37723E-6
 15.80573E-6
 10.68655E-6
 7.225421E-6
 4.885311E-6
 3.303136E-6
 2.23341E-6
 1.226594E-6
 673.7256E-9
 370.1306E-9
 135.9915E-9
 50.11641E-9
 7.454447E-9
 1.384176E-9
 951.465E-12
 10.00085E-6
 0.006783822
 0.009507816
 0.01047178
 0.01143481
 0.09947841
 0.2485831
 0.4376286
 0.579113
 0.7294569
 0.8260968
 0.8882163
 0.9446688
 0.972612
 0.9910333
 0.9970643
 0.9997103
 0.9999714
 1.000008
 0.9999964
 1.
 0.9999901
 0.9999427
 0.9999406
 0.9999402
 0.99994
 0.946468
 0.6418633
 0.4352905
 0.2951996
 0.2001946
 0.1357654
 0.09207158
 0.0624399
 0.04234468
 0.02871676
 0.01947476
 0.01320714
 0.008956643
 0.006074099
 0.004119253
 0.002793542
 0.001894488
 0.001284779
 871.2949E-6
 590.8835E-6
 400.7178E-6
 271.7538E-6
 184.2946E-6
 124.9827E-6
 84.75928E-6
 57.48111E-6
 38.98196E-6
 26.43645E-6
 17.9285E-6
 12.15868E-6
 8.245789E-6
 5.592193E-6
 3.792612E-6
 2.572195E-6
 1.744549E-6
 911.4029E-9
 476.2647E-9
 248.9994E-9
 82.89051E-9
 27.83137E-9
 4.376315E-9
 1.073891E-9
</dep>
<dep Pr1.Vt time>
 0.
 141.1197E-9
 665.9183E-9
 1.702714E-6
 4.403059E-6
 10.07049E-6
 21.23565E-6
 28.85631E-6
 36.47691E-6
 52.1618E-6
 0.01563738
 0.1057324
 0.2636498
 0.4512439
 0.5910462
 0.7384107
 0.8326732
 0.8929686
 0.9479704
 0.9747076
 0.9921255
 0.9975483
 0.9998369
 0.9999892
 1.000003
 0.9999981
 0.9999985
 0.9999885
 0.9999443
 0.9999423
 0.9999419
 0.9999417
 0.944475
 0.6409747
 0.4350021
 0.2952173
 0.2003513
 0.1359699
 0.09227694
 0.06262441
 0.0425005
 0.02884327
 0.01957469
 0.01328451
 0.009015626
 0.006118519
 0.004152377
 0.002818041
 0.001912483
 0.001297921
 880.8433E-6
 597.7907E-6
 405.695E-6
 275.3279E-6
 186.8533E-6
 126.8094E-6
 86.06014E-6
 58.40538E-6
 39.63728E-6
 26.90017E-6
 18.25604E-6
 12.38964E-6
 8.408369E-6
 5.706449E-6
 3.872771E-6
 2.628333E-6
 1.783785E-6
 931.8085E-9
 486.7899E-9
 254.3404E-9
 82.77215E-9
 27.00616E-9
 1.776139E-9
 536.375E-12
 10.00043E-6
 0.01008483
 0.01414148
 0.01543535
 0.01672752
 0.1153531
 0.2696001
 0.4608541
 0.6020286
 0.7062367
 0.8233188
 0.8937367
 0.936089
 0.9726909
 0.9883308
 0.9973763
 0.9994101
 1.000039
 0.9999974
 1.000001
 0.9999999
 0.9999899
 0.9999188
 0.9999155
 0.9999151
 0.9999149
 0.9417079
 0.6387388
 0.4332418
 0.293858
 0.1993171
 0.1351922
 0.09169777
 0.06219649
 0.04218645
 0.0286141
 0.01940829
 0.01316419
 0.008928971
 0.006056316
 0.00410786
 0.002786267
 0.001889861
 0.001281849
 869.4492E-6
 589.7275E-6
 399.9988E-6
 271.3101E-6
 184.0236E-6
 124.8191E-6
 84.66208E-6
 57.42449E-6
 38.94986E-6
 26.41895E-6
 17.91952E-6
 12.15455E-6
 8.244299E-6
 5.592069E-6
 3.793122E-6
 2.572938E-6
 1.745315E-6
 908.0039E-9
 472.4986E-9
 245.982E-9
 79.63515E-9
 25.99552E-9
 1.938525E-9
 847.315E-12
 10.00075E-6
 0.00988481
 0.01385623
 0.01513071
 0.01640354
 0.114505
 0.2685849
 0.4597886
 0.6010086
 0.7053114
 0.8226224
 0.8932337
 0.9357358
 0.9725691
 0.9882913
 0.9973918
 0.999419
 1.000042
 0.999997
 1.000002
 0.9999999
 0.9999899
 0.9999315
 0.9999289
 0.9999285
 0.9999282
 0.9998812
 0.9308288
 0.6297711
 0.4260844
 0.288276
 0.195039
 0.1319576
 0.08927856
 0.06040322
 0.04086702
 0.02764941
 0.01870677
 0.01265644
 0.008562972
 0.005793452
 0.003919677
 0.002651937
 0.001794222
 0.001213917
 821.3001E-6
 555.6672E-6
 375.9479E-6
 254.3551E-6
 172.0891E-6
 116.4304E-6
 78.77331E-6
 53.29567E-6
 36.05826E-6
 24.39594E-6
 16.50556E-6
 11.16716E-6
 7.555364E-6
 5.111727E-6
 3.458436E-6
 2.339868E-6
 1.583078E-6
 804.0236E-9
 408.3474E-9
 207.3863E-9
 63.63448E-9
 19.51539E-9
 581.647E-12
 221.792E-12
 10.00012E-6
 0.008637094
 0.01206278
 0.01321338
 0.01436264
 0.1087785
 0.2612492
 0.4518821
 0.5933226
 0.6982647
 0.8175169
 0.8896381
 0.9332555
 0.9710224
 0.9874191
 0.9970578
 0.9993119
 1.000036
 0.9999981
 1.000001
 0.9999998
 0.9999898
 0.9999298
 0.9999271
 0.9999267
 0.9999265
 0.9998908
 0.9084379
 0.6142051
 0.415271
 0.2807694
 0.1898313
 0.1283471
 0.08677693
 0.05867086
 0.03966803
 0.02682
 0.01813331
 0.01226013
 0.008289214
 0.005604431
 0.003789219
 0.002561934
 0.001732153
 0.001171128
 791.8129E-6
 535.3538E-6
 361.9588E-6
 244.7246E-6
 165.4612E-6
 111.8703E-6
 75.63688E-6
 51.13907E-6
 34.57582E-6
 23.37723E-6
 15.80573E-6
 10.68655E-6
 7.225421E-6
 4.885311E-6
 3.303136E-6
 2.23341E-6
 1.226594E-6
 673.7256E-9
 370.1306E-9
 135.9915E-9
 50.11641E-9
 7.454447E-9
 1.384176E-9
 951.465E-12
 10.00085E-6
 0.006783822
 0.009507816
 0.01047178
 0.01143481
 0.09947841
 0.2485831
 0.4376286
 0.579113
 0.7294569
 0.8260968
 0.8882163
 0.9446688
 0.972612
 0.9910333
 0.9970643
 0.9997103
 0.9999714
 1.000008
 0.9999964
 1.
 0.9999901
 0.9999427
 0.9999406
 0.9999402
 0.99994
 0.946468
 0.6418633
 0.4352905
 0.2951996
 0.2001946
 0.1357654
 0.09207158
 0.0624399
 0.04234468
 0.02871676
 0.01947476
 0.01320714
 0.008956643
 0.006074099
 0.004119253
 0.002793542
 0.001894488
 0.001284779
 871.2949E-6
 590.8835E-6
 400.7178E-6
 271.7538E-6
 184.2946E-6
 124.9827E-6
 84.75928E-6
 57.48111E-6
 38.98196E-6
 26.43645E-6
 17.9285E-6
 12.15868E-6
 8.245789E-6
 5.592193E-6
 3.792612E-6
 2.572195E-6
 1.744549E-6
 911.4029E-9
 476.2647E-9
 248.9994E-9
 82.89051E-9
 27.83137E-9
 4.376315E-9
 1.073891E-9
</dep>
