<Qucs Dataset>
default plugins: ignored
C:C1 _net1 gnd C="1u" V="" 
                      ^ ? C1: V has no value?
Gnucap   System status
iterations: op=0, dc=0, tran=1089, fourier=0, total=1458
transient timesteps: accepted=356, rejected=13, total=369
transient timesteps: accepted=0, rejected=0, total=0
nodes: user=2, subckt=0, model=2, total=4
dctran density=50.0%, ac density=50.0%

<indep time 356>
 0.
 84.E-12
 306.943E-12
 529.885E-12
 752.828E-12
 1.E-9
 1.536915E-9
 1.886825E-9
 2.236735E-9
 699.5859E-9
 5.304662E-6
 14.77796E-6
 29.05655E-6
 43.33515E-6
 65.07756E-6
 86.81996E-6
 108.5624E-6
 141.5786E-6
 174.5949E-6
 223.1482E-6
 271.7015E-6
 352.6236E-6
 433.5458E-6
 575.1596E-6
 787.5803E-6
 0.001000001
 0.001000002
 0.001050002
 0.001064425
 0.001078847
 0.00109327
 0.001107692
 0.001122115
 0.001136538
 0.00115096
 0.001165383
 0.001179805
 0.001194228
 0.001208651
 0.001223073
 0.001237496
 0.001251918
 0.001266341
 0.001280763
 0.001295186
 0.001309609
 0.001324031
 0.001338454
 0.001352876
 0.001367299
 0.001381722
 0.001396144
 0.001410567
 0.001424989
 0.001439412
 0.001453835
 0.001468257
 0.00148268
 0.001497102
 0.001511525
 0.001525948
 0.00154037
 0.001554793
 0.001569215
 0.001583638
 0.00159806
 0.001620391
 0.001642721
 0.001665051
 0.001687381
 0.001722117
 0.001756852
 0.001805482
 0.001854112
 0.001927057
 0.002000002
 0.002000003
 0.002000533
 0.002000835
 0.002001051
 0.002006928
 0.002016858
 0.00203222
 0.002047582
 0.002062943
 0.002087603
 0.002112262
 0.002136922
 0.002176153
 0.002215384
 0.002275739
 0.002336094
 0.002446746
 0.002557397
 0.0027787
 0.003000003
 0.003000004
 0.003050004
 0.003064427
 0.003078849
 0.003093272
 0.003107694
 0.003122117
 0.00313654
 0.003150962
 0.003165385
 0.003179807
 0.00319423
 0.003208652
 0.003223075
 0.003237498
 0.00325192
 0.003266343
 0.003280765
 0.003295188
 0.003309611
 0.003324033
 0.003338456
 0.003352878
 0.003367301
 0.003381723
 0.003396146
 0.003410569
 0.003424991
 0.003439414
 0.003453836
 0.003468259
 0.003482682
 0.003497104
 0.003511527
 0.003525949
 0.003540372
 0.003554794
 0.003569217
 0.00358364
 0.003598062
 0.003620392
 0.003642722
 0.003665053
 0.003687383
 0.003722118
 0.003756854
 0.003805484
 0.003854114
 0.003927059
 0.004000004
 0.004000005
 0.004000535
 0.004000837
 0.004001053
 0.00400693
 0.00401686
 0.004032222
 0.004047584
 0.004062945
 0.004087605
 0.004112264
 0.004136924
 0.004176155
 0.004215386
 0.004275741
 0.004336096
 0.004446748
 0.004557399
 0.004778702
 0.005000005
 0.005000006
 0.005050006
 0.005064429
 0.005078851
 0.005093274
 0.005107696
 0.005122119
 0.005136542
 0.005150964
 0.005165387
 0.005179809
 0.005194232
 0.005208654
 0.005223077
 0.0052375
 0.005251922
 0.005266345
 0.005280767
 0.00529519
 0.005309613
 0.005324035
 0.005338458
 0.00535288
 0.005367303
 0.005381725
 0.005396148
 0.005410571
 0.005424993
 0.005439416
 0.005453838
 0.005468261
 0.005482684
 0.005497106
 0.005511529
 0.005525951
 0.005540374
 0.005554796
 0.005569219
 0.005583642
 0.005598064
 0.005620394
 0.005642724
 0.005665055
 0.005687385
 0.00572212
 0.005756856
 0.005805486
 0.005854116
 0.005927061
 0.006000006
 0.006000007
 0.006000537
 0.006000839
 0.006001055
 0.006006932
 0.006016862
 0.006032224
 0.006047586
 0.006062947
 0.006087607
 0.006112266
 0.006136926
 0.006176157
 0.006215388
 0.006275743
 0.006336098
 0.00644675
 0.006557401
 0.006778704
 0.007000007
 0.007000008
 0.007050008
 0.007064431
 0.007078853
 0.007093276
 0.007107698
 0.007122121
 0.007136544
 0.007150966
 0.007165389
 0.007179811
 0.007194234
 0.007208656
 0.007223079
 0.007237502
 0.007251924
 0.007266347
 0.007280769
 0.007295192
 0.007309615
 0.007324037
 0.00733846
 0.007352882
 0.007367305
 0.007381727
 0.00739615
 0.007410573
 0.007424995
 0.007439418
 0.00745384
 0.007468263
 0.007482686
 0.007497108
 0.007511531
 0.007525953
 0.007540376
 0.007554798
 0.007569221
 0.007583644
 0.007598066
 0.007620396
 0.007642726
 0.007665057
 0.007687387
 0.007722122
 0.007756858
 0.007805488
 0.007854118
 0.007927063
 0.008000008
 0.008000009
 0.008000539
 0.008000841
 0.008001057
 0.008006934
 0.008016864
 0.008032226
 0.008047588
 0.008062949
 0.008087609
 0.008112268
 0.008136928
 0.008176159
 0.00821539
 0.008275745
 0.0083361
 0.008446752
 0.008557403
 0.008778706
 0.009000009
 0.00900001
 0.009050009
 0.009064432
 0.009078855
 0.009093277
 0.0091077
 0.009122122
 0.009136545
 0.009150967
 0.00916539
 0.009179812
 0.009194235
 0.009208657
 0.00922308
 0.009237502
 0.009251925
 0.009266348
 0.00928077
 0.009295193
 0.009309615
 0.009324038
 0.00933846
 0.009352883
 0.009367305
 0.009381728
 0.00939615
 0.009410573
 0.009424995
 0.009439418
 0.00945384
 0.009468263
 0.009482686
 0.009497108
 0.009511531
 0.009525953
 0.009540376
 0.009554798
 0.009569221
 0.009583643
 0.009598066
 0.009620396
 0.009642725
 0.009665055
 0.009687385
 0.00972212
 0.009756855
 0.009805484
 0.009854113
 0.009927056
 0.01
</indep>
<dep _net0.Vt time>
 0.
 0.08399998
 0.3069425
 0.529885
 0.7528275
 0.9999998
 0.9999998
 0.9999998
 0.9999998
 0.9999998
 0.9999998
 0.9999999
 0.9999999
 0.9999999
 0.9999999
 1.
 1.
 1.
 1.
 1.
 1.
 1.
 1.
 1.
 1.
 1.
 199.9981E-9
 66.66606E-9
 49.85999E-9
 37.29061E-9
 27.8899E-9
 20.85904E-9
 15.60061E-9
 11.6678E-9
 8.726426E-9
 6.526551E-9
 4.881251E-9
 3.65072E-9
 2.730398E-9
 2.042082E-9
 1.527287E-9
 1.142268E-9
 854.31E-12
 638.944E-12
 477.87E-12
 357.402E-12
 267.304E-12
 199.918E-12
 149.52E-12
 111.827E-12
 83.636E-12
 62.552E-12
 46.783E-12
 34.989E-12
 26.169E-12
 19.572E-12
 14.638E-12
 10.948E-12
 8.188E-12
 6.124E-12
 4.58E-12
 3.425E-12
 2.562E-12
 1.916E-12
 1.433E-12
 1.072E-12
 680.E-15
 432.E-15
 274.E-15
 174.E-15
 84.E-15
 41.E-15
 14.E-15
 5.E-15
 1.E-15
 0.
 0.9999998
 0.9999998
 0.9999998
 0.9999998
 0.9999998
 0.9999999
 0.9999999
 0.9999999
 0.9999999
 1.
 1.
 1.
 1.
 1.
 1.
 1.
 1.
 1.
 1.
 1.
 199.9979E-9
 66.66599E-9
 49.85994E-9
 37.29058E-9
 27.88988E-9
 20.85903E-9
 15.60061E-9
 11.6678E-9
 8.726425E-9
 6.526552E-9
 4.881252E-9
 3.650721E-9
 2.730399E-9
 2.042084E-9
 1.527288E-9
 1.142269E-9
 854.311E-12
 638.945E-12
 477.871E-12
 357.403E-12
 267.304E-12
 199.918E-12
 149.52E-12
 111.827E-12
 83.636E-12
 62.552E-12
 46.783E-12
 34.989E-12
 26.169E-12
 19.572E-12
 14.638E-12
 10.948E-12
 8.188E-12
 6.124E-12
 4.58E-12
 3.425E-12
 2.562E-12
 1.916E-12
 1.433E-12
 1.072E-12
 680.E-15
 432.E-15
 274.E-15
 174.E-15
 84.E-15
 41.E-15
 14.E-15
 5.E-15
 1.E-15
 0.
 0.9999998
 0.9999998
 0.9999998
 0.9999998
 0.9999998
 0.9999999
 0.9999999
 0.9999999
 0.9999999
 1.
 1.
 1.
 1.
 1.
 1.
 1.
 1.
 1.
 1.
 1.
 199.9979E-9
 66.66599E-9
 49.85994E-9
 37.29058E-9
 27.88988E-9
 20.85903E-9
 15.60061E-9
 11.6678E-9
 8.726425E-9
 6.526552E-9
 4.881252E-9
 3.650721E-9
 2.730399E-9
 2.042084E-9
 1.527288E-9
 1.142269E-9
 854.311E-12
 638.945E-12
 477.871E-12
 357.403E-12
 267.304E-12
 199.918E-12
 149.52E-12
 111.827E-12
 83.636E-12
 62.552E-12
 46.783E-12
 34.989E-12
 26.169E-12
 19.572E-12
 14.638E-12
 10.948E-12
 8.188E-12
 6.124E-12
 4.58E-12
 3.425E-12
 2.562E-12
 1.916E-12
 1.433E-12
 1.072E-12
 680.E-15
 432.E-15
 274.E-15
 174.E-15
 84.E-15
 41.E-15
 14.E-15
 5.E-15
 1.E-15
 0.
 0.9999998
 0.9999998
 0.9999998
 0.9999998
 0.9999998
 0.9999999
 0.9999999
 0.9999999
 0.9999999
 1.
 1.
 1.
 1.
 1.
 1.
 1.
 1.
 1.
 1.
 1.
 199.9979E-9
 66.66599E-9
 49.85994E-9
 37.29058E-9
 27.88988E-9
 20.85903E-9
 15.60061E-9
 11.6678E-9
 8.726425E-9
 6.526552E-9
 4.881252E-9
 3.650721E-9
 2.730399E-9
 2.042084E-9
 1.527288E-9
 1.142269E-9
 854.311E-12
 638.945E-12
 477.871E-12
 357.403E-12
 267.304E-12
 199.918E-12
 149.52E-12
 111.827E-12
 83.636E-12
 62.552E-12
 46.783E-12
 34.989E-12
 26.169E-12
 19.572E-12
 14.638E-12
 10.948E-12
 8.188E-12
 6.124E-12
 4.58E-12
 3.425E-12
 2.562E-12
 1.916E-12
 1.433E-12
 1.072E-12
 680.E-15
 432.E-15
 274.E-15
 174.E-15
 84.E-15
 41.E-15
 14.E-15
 5.E-15
 1.E-15
 0.
 0.9999998
 0.9999998
 0.9999998
 0.9999998
 0.9999998
 0.9999999
 0.9999999
 0.9999999
 0.9999999
 1.
 1.
 1.
 1.
 1.
 1.
 1.
 1.
 1.
 1.
 1.
 199.9979E-9
 66.66688E-9
 49.86065E-9
 37.29116E-9
 27.89034E-9
 20.85939E-9
 15.60089E-9
 11.66803E-9
 8.726604E-9
 6.526692E-9
 4.881362E-9
 3.650807E-9
 2.730466E-9
 2.042136E-9
 1.527329E-9
 1.142301E-9
 854.335E-12
 638.964E-12
 477.886E-12
 357.414E-12
 267.313E-12
 199.925E-12
 149.526E-12
 111.831E-12
 83.639E-12
 62.555E-12
 46.785E-12
 34.991E-12
 26.17E-12
 19.573E-12
 14.639E-12
 10.948E-12
 8.188E-12
 6.124E-12
 4.58E-12
 3.426E-12
 2.562E-12
 1.916E-12
 1.433E-12
 1.072E-12
 681.E-15
 432.E-15
 274.E-15
 174.E-15
 84.E-15
 41.E-15
 14.E-15
 5.E-15
 1.E-15
 0.
</dep>
<dep _net1.Vt time>
 0.
 141.1197E-9
 1.012694E-6
 2.87833E-6
 5.738023E-6
 10.07049E-6
 20.80861E-6
 27.80664E-6
 34.80462E-6
 0.01388472
 0.1007091
 0.2563498
 0.4421812
 0.5815751
 0.731031
 0.8271032
 0.8888597
 0.9440324
 0.9718161
 0.9902394
 0.9966197
 0.9996436
 0.9999624
 1.000006
 0.9999977
 1.000001
 0.9999908
 0.3333304
 0.2493
 0.1864531
 0.1394495
 0.1042952
 0.07800308
 0.05833902
 0.04363214
 0.03263276
 0.02440626
 0.0182536
 0.01365199
 0.01021041
 0.007636436
 0.005711341
 0.00427155
 0.00319472
 0.002389352
 0.001787012
 0.001336518
 999.591E-6
 747.6007E-6
 559.1355E-6
 418.1811E-6
 312.7604E-6
 233.9156E-6
 174.947E-6
 130.844E-6
 97.85912E-6
 73.18948E-6
 54.7389E-6
 40.93958E-6
 30.61898E-6
 22.90014E-6
 17.12717E-6
 12.80952E-6
 9.580326E-6
 7.165189E-6
 5.358892E-6
 3.402472E-6
 2.160301E-6
 1.37162E-6
 870.8702E-9
 421.8389E-9
 204.3336E-9
 70.62257E-9
 24.40884E-9
 3.818459E-9
 597.35E-12
 10.0005E-6
 0.01055286
 0.01650349
 0.0207612
 0.1294577
 0.2867411
 0.4766972
 0.6160639
 0.7183142
 0.8297573
 0.8971103
 0.9378165
 0.9728592
 0.9881541
 0.9970713
 0.9992759
 1.000037
 0.9999981
 1.000001
 0.9999997
 0.9999897
 0.33333
 0.2492997
 0.186453
 0.1394494
 0.1042952
 0.07800305
 0.058339
 0.04363213
 0.03263276
 0.02440626
 0.01825361
 0.013652
 0.01021042
 0.007636441
 0.005711346
 0.004271554
 0.003194724
 0.002389355
 0.001787015
 0.00133652
 999.5926E-6
 747.602E-6
 559.1366E-6
 418.182E-6
 312.7611E-6
 233.9162E-6
 174.9475E-6
 130.8444E-6
 97.85939E-6
 73.1897E-6
 54.73906E-6
 40.93971E-6
 30.61909E-6
 22.90022E-6
 17.12723E-6
 12.80957E-6
 9.580363E-6
 7.165218E-6
 5.358915E-6
 3.402486E-6
 2.160309E-6
 1.371625E-6
 870.8728E-9
 421.84E-9
 204.334E-9
 70.62265E-9
 24.40885E-9
 3.818452E-9
 597.348E-12
 10.0005E-6
 0.01055286
 0.01650349
 0.0207612
 0.1294577
 0.2867411
 0.4766972
 0.6160639
 0.7183142
 0.8297573
 0.8971103
 0.9378165
 0.9728592
 0.9881541
 0.9970713
 0.9992759
 1.000037
 0.9999981
 1.000001
 0.9999997
 0.9999897
 0.33333
 0.2492997
 0.186453
 0.1394494
 0.1042952
 0.07800305
 0.058339
 0.04363213
 0.03263276
 0.02440626
 0.01825361
 0.013652
 0.01021042
 0.007636441
 0.005711346
 0.004271554
 0.003194724
 0.002389355
 0.001787015
 0.00133652
 999.5926E-6
 747.602E-6
 559.1366E-6
 418.182E-6
 312.7611E-6
 233.9162E-6
 174.9475E-6
 130.8444E-6
 97.85939E-6
 73.1897E-6
 54.73906E-6
 40.93971E-6
 30.61909E-6
 22.90022E-6
 17.12723E-6
 12.80957E-6
 9.580363E-6
 7.165218E-6
 5.358915E-6
 3.402486E-6
 2.160309E-6
 1.371625E-6
 870.8728E-9
 421.84E-9
 204.334E-9
 70.62265E-9
 24.40885E-9
 3.818452E-9
 597.348E-12
 10.0005E-6
 0.01055286
 0.01650349
 0.0207612
 0.1294577
 0.2867411
 0.4766972
 0.6160639
 0.7183142
 0.8297573
 0.8971103
 0.9378165
 0.9728592
 0.9881541
 0.9970713
 0.9992759
 1.000037
 0.9999981
 1.000001
 0.9999997
 0.9999897
 0.33333
 0.2492997
 0.186453
 0.1394494
 0.1042952
 0.07800305
 0.058339
 0.04363213
 0.03263276
 0.02440626
 0.01825361
 0.013652
 0.01021042
 0.007636441
 0.005711346
 0.004271554
 0.003194724
 0.002389355
 0.001787015
 0.00133652
 999.5926E-6
 747.602E-6
 559.1366E-6
 418.182E-6
 312.7611E-6
 233.9162E-6
 174.9475E-6
 130.8444E-6
 97.85939E-6
 73.1897E-6
 54.73906E-6
 40.93971E-6
 30.61909E-6
 22.90022E-6
 17.12723E-6
 12.80957E-6
 9.580363E-6
 7.165218E-6
 5.358915E-6
 3.402486E-6
 2.160309E-6
 1.371625E-6
 870.8728E-9
 421.84E-9
 204.334E-9
 70.62265E-9
 24.40885E-9
 3.818452E-9
 597.348E-12
 10.0005E-6
 0.01055286
 0.01650349
 0.0207612
 0.1294577
 0.2867411
 0.4766972
 0.6160639
 0.7183142
 0.8297573
 0.8971103
 0.9378165
 0.9728592
 0.9881541
 0.9970713
 0.9992759
 1.000037
 0.9999981
 1.000001
 0.9999997
 0.9999897
 0.3333344
 0.2493033
 0.1864558
 0.1394517
 0.104297
 0.07800449
 0.05834014
 0.04363303
 0.03263347
 0.02440681
 0.01825404
 0.01365233
 0.01021068
 0.007636645
 0.005711504
 0.004271677
 0.003194819
 0.002389429
 0.001787072
 0.001336564
 999.6265E-6
 747.6282E-6
 559.1567E-6
 418.1975E-6
 312.773E-6
 233.9253E-6
 174.9545E-6
 130.8498E-6
 97.86351E-6
 73.19286E-6
 54.74148E-6
 40.94157E-6
 30.6205E-6
 22.9013E-6
 17.12806E-6
 12.8102E-6
 9.580846E-6
 7.165586E-6
 5.359195E-6
 3.402694E-6
 2.16046E-6
 1.371733E-6
 870.9494E-9
 421.8833E-9
 204.3581E-9
 70.63267E-9
 24.4129E-9
 3.81931E-9
 597.517E-12
</dep>
<dep Pr1.Vt time>
 0.
 141.1197E-9
 1.012694E-6
 2.87833E-6
 5.738023E-6
 10.07049E-6
 20.80861E-6
 27.80664E-6
 34.80462E-6
 0.01388472
 0.1007091
 0.2563498
 0.4421812
 0.5815751
 0.731031
 0.8271032
 0.8888597
 0.9440324
 0.9718161
 0.9902394
 0.9966197
 0.9996436
 0.9999624
 1.000006
 0.9999977
 1.000001
 0.9999908
 0.3333304
 0.2493
 0.1864531
 0.1394495
 0.1042952
 0.07800308
 0.05833902
 0.04363214
 0.03263276
 0.02440626
 0.0182536
 0.01365199
 0.01021041
 0.007636436
 0.005711341
 0.00427155
 0.00319472
 0.002389352
 0.001787012
 0.001336518
 999.591E-6
 747.6007E-6
 559.1355E-6
 418.1811E-6
 312.7604E-6
 233.9156E-6
 174.947E-6
 130.844E-6
 97.85912E-6
 73.18948E-6
 54.7389E-6
 40.93958E-6
 30.61898E-6
 22.90014E-6
 17.12717E-6
 12.80952E-6
 9.580326E-6
 7.165189E-6
 5.358892E-6
 3.402472E-6
 2.160301E-6
 1.37162E-6
 870.8702E-9
 421.8389E-9
 204.3336E-9
 70.62257E-9
 24.40884E-9
 3.818459E-9
 597.35E-12
 10.0005E-6
 0.01055286
 0.01650349
 0.0207612
 0.1294577
 0.2867411
 0.4766972
 0.6160639
 0.7183142
 0.8297573
 0.8971103
 0.9378165
 0.9728592
 0.9881541
 0.9970713
 0.9992759
 1.000037
 0.9999981
 1.000001
 0.9999997
 0.9999897
 0.33333
 0.2492997
 0.186453
 0.1394494
 0.1042952
 0.07800305
 0.058339
 0.04363213
 0.03263276
 0.02440626
 0.01825361
 0.013652
 0.01021042
 0.007636441
 0.005711346
 0.004271554
 0.003194724
 0.002389355
 0.001787015
 0.00133652
 999.5926E-6
 747.602E-6
 559.1366E-6
 418.182E-6
 312.7611E-6
 233.9162E-6
 174.9475E-6
 130.8444E-6
 97.85939E-6
 73.1897E-6
 54.73906E-6
 40.93971E-6
 30.61909E-6
 22.90022E-6
 17.12723E-6
 12.80957E-6
 9.580363E-6
 7.165218E-6
 5.358915E-6
 3.402486E-6
 2.160309E-6
 1.371625E-6
 870.8728E-9
 421.84E-9
 204.334E-9
 70.62265E-9
 24.40885E-9
 3.818452E-9
 597.348E-12
 10.0005E-6
 0.01055286
 0.01650349
 0.0207612
 0.1294577
 0.2867411
 0.4766972
 0.6160639
 0.7183142
 0.8297573
 0.8971103
 0.9378165
 0.9728592
 0.9881541
 0.9970713
 0.9992759
 1.000037
 0.9999981
 1.000001
 0.9999997
 0.9999897
 0.33333
 0.2492997
 0.186453
 0.1394494
 0.1042952
 0.07800305
 0.058339
 0.04363213
 0.03263276
 0.02440626
 0.01825361
 0.013652
 0.01021042
 0.007636441
 0.005711346
 0.004271554
 0.003194724
 0.002389355
 0.001787015
 0.00133652
 999.5926E-6
 747.602E-6
 559.1366E-6
 418.182E-6
 312.7611E-6
 233.9162E-6
 174.9475E-6
 130.8444E-6
 97.85939E-6
 73.1897E-6
 54.73906E-6
 40.93971E-6
 30.61909E-6
 22.90022E-6
 17.12723E-6
 12.80957E-6
 9.580363E-6
 7.165218E-6
 5.358915E-6
 3.402486E-6
 2.160309E-6
 1.371625E-6
 870.8728E-9
 421.84E-9
 204.334E-9
 70.62265E-9
 24.40885E-9
 3.818452E-9
 597.348E-12
 10.0005E-6
 0.01055286
 0.01650349
 0.0207612
 0.1294577
 0.2867411
 0.4766972
 0.6160639
 0.7183142
 0.8297573
 0.8971103
 0.9378165
 0.9728592
 0.9881541
 0.9970713
 0.9992759
 1.000037
 0.9999981
 1.000001
 0.9999997
 0.9999897
 0.33333
 0.2492997
 0.186453
 0.1394494
 0.1042952
 0.07800305
 0.058339
 0.04363213
 0.03263276
 0.02440626
 0.01825361
 0.013652
 0.01021042
 0.007636441
 0.005711346
 0.004271554
 0.003194724
 0.002389355
 0.001787015
 0.00133652
 999.5926E-6
 747.602E-6
 559.1366E-6
 418.182E-6
 312.7611E-6
 233.9162E-6
 174.9475E-6
 130.8444E-6
 97.85939E-6
 73.1897E-6
 54.73906E-6
 40.93971E-6
 30.61909E-6
 22.90022E-6
 17.12723E-6
 12.80957E-6
 9.580363E-6
 7.165218E-6
 5.358915E-6
 3.402486E-6
 2.160309E-6
 1.371625E-6
 870.8728E-9
 421.84E-9
 204.334E-9
 70.62265E-9
 24.40885E-9
 3.818452E-9
 597.348E-12
 10.0005E-6
 0.01055286
 0.01650349
 0.0207612
 0.1294577
 0.2867411
 0.4766972
 0.6160639
 0.7183142
 0.8297573
 0.8971103
 0.9378165
 0.9728592
 0.9881541
 0.9970713
 0.9992759
 1.000037
 0.9999981
 1.000001
 0.9999997
 0.9999897
 0.3333344
 0.2493033
 0.1864558
 0.1394517
 0.104297
 0.07800449
 0.05834014
 0.04363303
 0.03263347
 0.02440681
 0.01825404
 0.01365233
 0.01021068
 0.007636645
 0.005711504
 0.004271677
 0.003194819
 0.002389429
 0.001787072
 0.001336564
 999.6265E-6
 747.6282E-6
 559.1567E-6
 418.1975E-6
 312.773E-6
 233.9253E-6
 174.9545E-6
 130.8498E-6
 97.86351E-6
 73.19286E-6
 54.74148E-6
 40.94157E-6
 30.6205E-6
 22.9013E-6
 17.12806E-6
 12.8102E-6
 9.580846E-6
 7.165586E-6
 5.359195E-6
 3.402694E-6
 2.16046E-6
 1.371733E-6
 870.9494E-9
 421.8833E-9
 204.3581E-9
 70.63267E-9
 24.4129E-9
 3.81931E-9
 597.517E-12
</dep>
