<Qucs Dataset>
default plugins: ignored
detach_all: already installed, replacing
stashing as detach_all:0
;: already installed, replacing
stashing as ;:0
*: already installed, replacing
stashing as *:0
': already installed, replacing
stashing as ':0
": already installed, replacing
stashing as ":0
C:C1 _net1 gnd C="1u" V="" 
                      ^ ? C1: V has no value?
Gnucap   System status
iterations: op=0, dc=0, tran=1079, fourier=0, total=1461
transient timesteps: accepted=351, rejected=31, total=382
transient timesteps: accepted=0, rejected=0, total=0
nodes: user=2, subckt=0, model=0, total=2
dctran density=100.0%, ac density=100.0%

<indep time 351>
 0.
 83.3333E-12
 244.613E-12
 405.893E-12
 661.4E-12
 1.E-9
 1.536128E-9
 1.913349E-9
 2.290571E-9
 3.057532E-9
 784.2463E-9
 5.573143E-6
 15.24829E-6
 29.84588E-6
 44.44347E-6
 66.42042E-6
 88.39736E-6
 110.3743E-6
 144.9534E-6
 179.5325E-6
 232.0484E-6
 284.5643E-6
 372.0907E-6
 459.6172E-6
 654.3189E-6
 988.0932E-6
 0.001000003
 0.001000004
 0.001000006
 0.001000006
 0.001000006
 0.001000006
 0.001002641
 0.001022032
 0.001041423
 0.001060814
 0.001080205
 0.001099596
 0.001118987
 0.001138377
 0.001157768
 0.001177159
 0.00119655
 0.001215941
 0.001235332
 0.001254723
 0.001274113
 0.001293504
 0.001312895
 0.001332286
 0.001351677
 0.001371068
 0.001390459
 0.001409849
 0.00142924
 0.001448631
 0.001468022
 0.001487413
 0.001506804
 0.001526195
 0.001545585
 0.001564976
 0.001584367
 0.001603758
 0.001623149
 0.00164254
 0.00167166
 0.00170078
 0.0017299
 0.001776361
 0.001822822
 0.001899966
 0.001977109
 0.002000002
 0.002000003
 0.002000321
 0.002000427
 0.002000462
 0.002000497
 0.002004924
 0.002013788
 0.002028049
 0.00204231
 0.002063934
 0.002085558
 0.002107183
 0.002141057
 0.002174932
 0.002226076
 0.002277221
 0.002361164
 0.002445107
 0.002629373
 0.002936482
 0.003000005
 0.003000006
 0.003000008
 0.003000009
 0.003000009
 0.003000009
 0.003001569
 0.003019842
 0.003038114
 0.003056387
 0.00307466
 0.003092932
 0.003111205
 0.003129478
 0.00314775
 0.003166023
 0.003184296
 0.003202568
 0.003220841
 0.003239114
 0.003257386
 0.003275659
 0.003293932
 0.003312204
 0.003330477
 0.00334875
 0.003367022
 0.003385295
 0.003403568
 0.00342184
 0.003440113
 0.003458386
 0.003476658
 0.003494931
 0.003513204
 0.003531476
 0.003549749
 0.003568022
 0.003586294
 0.003604567
 0.00362284
 0.003641112
 0.003670148
 0.003699184
 0.00372822
 0.003774
 0.003819779
 0.003895148
 0.003970516
 0.004000004
 0.004000005
 0.004000356
 0.004000473
 0.004000512
 0.004000551
 0.004005127
 0.004014115
 0.004028504
 0.004042894
 0.004064635
 0.004086376
 0.004108117
 0.004142174
 0.004176232
 0.004227769
 0.004279307
 0.004364691
 0.004450074
 0.004635072
 0.004950656
 0.005000007
 0.005000008
 0.00500001
 0.00500001
 0.00500001
 0.00500001
 0.005000012
 0.005005052
 0.005024488
 0.005043923
 0.005063359
 0.005082794
 0.00510223
 0.005121666
 0.005141101
 0.005160537
 0.005179972
 0.005199408
 0.005218844
 0.005238279
 0.005257715
 0.00527715
 0.005296586
 0.005316022
 0.005335457
 0.005354893
 0.005374328
 0.005393764
 0.0054132
 0.005432635
 0.005452071
 0.005471506
 0.005490942
 0.005510378
 0.005529813
 0.005549249
 0.005568684
 0.00558812
 0.005607555
 0.005626991
 0.005646427
 0.005676246
 0.005706065
 0.005735884
 0.005783795
 0.005831706
 0.005911866
 0.006000006
 0.006000007
 0.006000599
 0.006000797
 0.006000862
 0.006000928
 0.006006376
 0.006016046
 0.006031252
 0.006046458
 0.006061664
 0.00608659
 0.006111516
 0.006136443
 0.006176688
 0.006216933
 0.006279984
 0.006343036
 0.006457316
 0.006571596
 0.006883269
 0.007000009
 0.00700001
 0.007000013
 0.007000013
 0.007000013
 0.007000013
 0.007000014
 0.007004492
 0.007023818
 0.007043143
 0.007062469
 0.007081795
 0.007101121
 0.007120447
 0.007139773
 0.007159099
 0.007178424
 0.00719775
 0.007217076
 0.007236402
 0.007255728
 0.007275054
 0.00729438
 0.007313705
 0.007333031
 0.007352357
 0.007371683
 0.007391009
 0.007410335
 0.007429661
 0.007448987
 0.007468312
 0.007487638
 0.007506964
 0.00752629
 0.007545616
 0.007564942
 0.007584268
 0.007603593
 0.007622919
 0.007642245
 0.007670998
 0.007699751
 0.007728504
 0.007774861
 0.007821219
 0.007896349
 0.007971479
 0.008000008
 0.008000009
 0.008000355
 0.00800047
 0.008000509
 0.008000547
 0.008005102
 0.008014047
 0.008028335
 0.008042622
 0.008064132
 0.008085642
 0.008107151
 0.008140952
 0.008174753
 0.008225454
 0.008276156
 0.008358243
 0.008440331
 0.008613628
 0.008890902
 0.009000011
 0.009000012
 0.009000014
 0.009000014
 0.009000014
 0.009000014
 0.009001806
 0.009020292
 0.009038777
 0.009057262
 0.009075747
 0.009094232
 0.009112717
 0.009131202
 0.009149687
 0.009168172
 0.009186657
 0.009205142
 0.009223627
 0.009242112
 0.009260597
 0.009279082
 0.009297568
 0.009316053
 0.009334538
 0.009353023
 0.009371508
 0.009389993
 0.009408478
 0.009426963
 0.009445448
 0.009463933
 0.009482418
 0.009500903
 0.009519388
 0.009537873
 0.009556358
 0.009574843
 0.009593329
 0.009611814
 0.009630299
 0.009648784
 0.009678052
 0.00970732
 0.009736588
 0.00978049
 0.009824392
 0.009882928
 0.009941464
 0.01
</indep>
<dep _net0.Vt time>
 0.
 0.08333332
 0.2446133
 0.4058933
 0.6613995
 0.9999998
 0.9999998
 0.9999998
 0.9999998
 0.9999998
 0.9999998
 0.9999998
 0.9999999
 0.9999999
 0.9999999
 0.9999999
 1.
 1.
 1.
 1.
 1.
 1.
 1.
 1.
 1.
 1.
 1.
 199.9977E-9
 199.9902E-9
 199.9898E-9
 199.9897E-9
 199.9897E-9
 189.7192E-9
 128.0927E-9
 86.48439E-9
 58.39168E-9
 39.42432E-9
 26.61813E-9
 17.97177E-9
 12.134E-9
 8.192515E-9
 5.531342E-9
 3.734597E-9
 2.521489E-9
 1.702434E-9
 1.149433E-9
 776.063E-12
 523.974E-12
 353.772E-12
 238.856E-12
 161.269E-12
 108.884E-12
 73.515E-12
 49.635E-12
 33.512E-12
 22.627E-12
 15.277E-12
 10.314E-12
 6.964E-12
 4.702E-12
 3.175E-12
 2.143E-12
 1.447E-12
 977.E-15
 660.E-15
 446.E-15
 245.E-15
 134.E-15
 74.E-15
 27.E-15
 10.E-15
 1.E-15
 0.
 0.
 0.9999998
 0.9999998
 0.9999998
 0.9999998
 0.9999998
 0.9999998
 0.9999998
 0.9999999
 0.9999999
 0.9999999
 1.
 1.
 1.
 1.
 1.
 1.
 1.
 1.
 1.
 1.
 1.
 199.9978E-9
 199.988E-9
 199.9875E-9
 199.9874E-9
 199.9874E-9
 193.842E-9
 133.9464E-9
 92.55798E-9
 63.95829E-9
 44.19568E-9
 30.53956E-9
 21.10308E-9
 14.58239E-9
 10.07655E-9
 6.962974E-9
 4.811469E-9
 3.324763E-9
 2.297437E-9
 1.587547E-9
 1.097008E-9
 758.041E-12
 523.812E-12
 361.958E-12
 250.116E-12
 172.832E-12
 119.428E-12
 82.526E-12
 57.026E-12
 39.406E-12
 27.23E-12
 18.816E-12
 13.002E-12
 8.984E-12
 6.208E-12
 4.29E-12
 2.964E-12
 2.048E-12
 1.416E-12
 978.E-15
 676.E-15
 467.E-15
 257.E-15
 141.E-15
 78.E-15
 29.E-15
 11.E-15
 2.E-15
 0.
 0.
 0.9999998
 0.9999998
 0.9999998
 0.9999998
 0.9999998
 0.9999998
 0.9999998
 0.9999999
 0.9999999
 0.9999999
 1.
 1.
 1.
 1.
 1.
 1.
 1.
 1.
 1.
 1.
 1.
 200.3073E-9
 199.9898E-9
 199.9895E-9
 199.9894E-9
 199.9893E-9
 199.9829E-9
 180.7908E-9
 121.9511E-9
 82.26122E-9
 55.48871E-9
 37.4295E-9
 25.2478E-9
 17.03072E-9
 11.48795E-9
 7.749111E-9
 5.227107E-9
 3.525907E-9
 2.378375E-9
 1.604315E-9
 1.082179E-9
 729.976E-12
 492.4E-12
 332.145E-12
 224.046E-12
 151.129E-12
 101.943E-12
 68.765E-12
 46.385E-12
 31.288E-12
 21.105E-12
 14.236E-12
 9.603E-12
 6.478E-12
 4.369E-12
 2.947E-12
 1.988E-12
 1.341E-12
 905.E-15
 610.E-15
 412.E-15
 223.E-15
 120.E-15
 65.E-15
 23.E-15
 8.E-15
 1.E-15
 0.
 0.9999998
 0.9999998
 0.9999998
 0.9999998
 0.9999998
 0.9999998
 0.9999999
 0.9999999
 0.9999999
 0.9999999
 1.
 1.
 1.
 1.
 1.
 1.
 1.
 1.
 1.
 1.
 1.
 200.7411E-9
 199.9879E-9
 199.9874E-9
 199.9874E-9
 199.9873E-9
 199.9814E-9
 182.8402E-9
 123.6151E-9
 83.57401E-9
 56.50294E-9
 38.20066E-9
 25.8268E-9
 17.46106E-9
 11.80512E-9
 7.981235E-9
 5.395975E-9
 3.648125E-9
 2.466434E-9
 1.667513E-9
 1.127377E-9
 762.2E-12
 515.31E-12
 348.392E-12
 235.542E-12
 159.246E-12
 107.663E-12
 72.789E-12
 49.212E-12
 33.271E-12
 22.494E-12
 15.208E-12
 10.282E-12
 6.951E-12
 4.7E-12
 3.177E-12
 2.148E-12
 1.452E-12
 982.E-15
 664.E-15
 449.E-15
 248.E-15
 138.E-15
 76.E-15
 28.E-15
 10.E-15
 2.E-15
 0.
 0.
 0.9999998
 0.9999998
 0.9999998
 0.9999998
 0.9999998
 0.9999998
 0.9999998
 0.9999999
 0.9999999
 0.9999999
 1.
 1.
 1.
 1.
 1.
 1.
 1.
 1.
 1.
 1.
 1.
 199.998E-9
 199.989E-9
 199.9886E-9
 199.9886E-9
 199.9885E-9
 192.9468E-9
 132.7428E-9
 91.32395E-9
 62.82873E-9
 43.22469E-9
 29.73757E-9
 20.45875E-9
 14.07514E-9
 9.683365E-9
 6.661928E-9
 4.58325E-9
 3.153168E-9
 2.169306E-9
 1.492431E-9
 1.026758E-9
 706.385E-12
 485.976E-12
 334.34E-12
 230.018E-12
 158.247E-12
 108.87E-12
 74.9E-12
 51.53E-12
 35.451E-12
 24.39E-12
 16.78E-12
 11.544E-12
 7.942E-12
 5.464E-12
 3.759E-12
 2.586E-12
 1.779E-12
 1.224E-12
 842.E-15
 579.E-15
 399.E-15
 218.E-15
 119.E-15
 65.E-15
 26.E-15
 10.E-15
 3.E-15
 1.E-15
 0.
</dep>
<dep _net1.Vt time>
 0.
 138.8886E-9
 667.7996E-9
 1.716933E-6
 4.443917E-6
 10.06937E-6
 20.79176E-6
 28.336E-6
 35.88019E-6
 51.21875E-6
 0.01555309
 0.1055323
 0.2633458
 0.4510177
 0.5908778
 0.7383033
 0.8326046
 0.8929248
 0.9479492
 0.9746973
 0.9921223
 0.9975474
 0.9998369
 0.9999891
 1.000003
 0.9999981
 0.9999985
 0.9999885
 0.9999511
 0.9999492
 0.9999488
 0.9999486
 0.9485961
 0.6404638
 0.4324221
 0.2919585
 0.1971217
 0.1330907
 0.08985885
 0.06067001
 0.04096258
 0.02765672
 0.01867299
 0.01260745
 0.008512172
 0.005747165
 0.003880314
 0.002619873
 0.00176886
 0.001194282
 806.3436E-6
 544.4194E-6
 367.5759E-6
 248.1765E-6
 167.5615E-6
 113.1327E-6
 76.38404E-6
 51.57241E-6
 34.82034E-6
 23.50984E-6
 15.87333E-6
 10.71738E-6
 7.236244E-6
 4.885881E-6
 3.298987E-6
 2.227563E-6
 1.22307E-6
 671.6569E-9
 368.9611E-9
 135.236E-9
 49.79795E-9
 6.923169E-9
 1.391024E-9
 1.08568E-9
 10.00098E-6
 0.006343808
 0.008446144
 0.009145933
 0.009845228
 0.09379611
 0.2413629
 0.4307361
 0.5728374
 0.724732
 0.8226145
 0.885691
 0.9435389
 0.972112
 0.9909855
 0.9970862
 0.9997456
 0.9999778
 1.000007
 0.9999967
 0.9999993
 0.9999893
 0.9999401
 0.9999376
 0.9999372
 0.999937
 0.9692103
 0.6697319
 0.46279
 0.3197915
 0.2209785
 0.1526978
 0.1055154
 0.07291198
 0.05038275
 0.03481487
 0.02405735
 0.01662382
 0.01148719
 0.007937738
 0.005485039
 0.003790205
 0.002619062
 0.001809792
 0.001250581
 864.1612E-6
 597.1422E-6
 412.63E-6
 285.1307E-6
 197.0276E-6
 136.1477E-6
 94.07919E-6
 65.00953E-6
 44.92217E-6
 31.04164E-6
 21.45009E-6
 14.82225E-6
 10.24236E-6
 7.077622E-6
 4.890763E-6
 3.379626E-6
 2.335419E-6
 1.284478E-6
 706.5074E-9
 388.6499E-9
 144.6961E-9
 53.96091E-9
 7.775141E-9
 1.288097E-9
 805.305E-12
 10.0007E-6
 0.007007824
 0.009329524
 0.01010222
 0.01087431
 0.09744224
 0.2463033
 0.4359201
 0.5778326
 0.7286188
 0.8255485
 0.8878576
 0.944837
 0.9728652
 0.9913222
 0.9972248
 0.9997812
 0.9999827
 1.000005
 0.9999973
 0.9999991
 0.9999891
 0.9999493
 0.9999475
 0.9999471
 0.9999469
 0.9999148
 0.903954
 0.6097556
 0.4113062
 0.2774436
 0.1871475
 0.126239
 0.08515361
 0.05743975
 0.03874556
 0.02613554
 0.01762954
 0.01189188
 0.008021578
 0.005410897
 0.003649881
 0.002462001
 0.001660725
 0.00112023
 755.6428E-6
 509.7133E-6
 343.8234E-6
 231.9236E-6
 156.4423E-6
 105.527E-6
 71.18248E-6
 48.01561E-6
 32.38857E-6
 21.84746E-6
 14.73703E-6
 9.940745E-6
 6.705444E-6
 4.523096E-6
 3.051009E-6
 2.058023E-6
 1.112563E-6
 601.4411E-9
 325.1252E-9
 114.4711E-9
 40.287E-9
 4.402061E-9
 241.015E-12
 10.00014E-6
 0.01178322
 0.01567671
 0.01697112
 0.01826383
 0.1197129
 0.274946
 0.4663445
 0.6072179
 0.7109038
 0.8262689
 0.8955971
 0.9372595
 0.973268
 0.9886103
 0.997419
 0.9994151
 1.000039
 0.9999974
 1.000001
 0.9999999
 0.9999899
 0.9999397
 0.9999374
 0.999937
 0.9999368
 0.999907
 0.9142011
 0.6180755
 0.4178701
 0.2825148
 0.1910033
 0.129134
 0.08730529
 0.0590256
 0.03990618
 0.02697988
 0.01824063
 0.01233217
 0.008337569
 0.005636886
 0.003811001
 0.002576552
 0.001741962
 0.001177711
 796.23E-6
 538.3175E-6
 363.9473E-6
 246.0586E-6
 166.3561E-6
 112.4706E-6
 76.0396E-6
 51.40921E-6
 34.75703E-6
 23.49878E-6
 15.88727E-6
 10.74126E-6
 7.262135E-6
 4.909957E-6
 3.31969E-6
 2.244539E-6
 1.242251E-6
 687.6243E-9
 380.7158E-9
 139.8406E-9
 51.55466E-9
 7.72759E-9
 1.50387E-9
 1.046587E-9
 10.00094E-6
 0.006905263
 0.009193093
 0.009954531
 0.01071538
 0.09690498
 0.2452145
 0.4339307
 0.5754628
 0.725766
 0.8228558
 0.885572
 0.9433857
 0.9719896
 0.990837
 0.9970025
 0.9997051
 0.999971
 1.000008
 0.9999963
 1.
 0.9999902
 0.9999454
 0.9999434
 0.999943
 0.9999427
 0.964734
 0.6637143
 0.4566199
 0.3141437
 0.2161235
 0.1486879
 0.1022938
 0.07037571
 0.04841684
 0.03330965
 0.02291625
 0.01576584
 0.01084653
 0.007462158
 0.00513379
 0.003531927
 0.002429883
 0.001671702
 0.001150092
 791.2364E-6
 544.3522E-6
 374.5016E-6
 257.6484E-6
 177.2562E-6
 121.9482E-6
 83.89763E-6
 57.71972E-6
 39.70994E-6
 27.31963E-6
 18.79538E-6
 12.93091E-6
 8.896283E-6
 6.120557E-6
 4.210922E-6
 2.897139E-6
 1.993287E-6
 1.090852E-6
 597.0636E-9
 326.876E-9
 127.6685E-9
 50.01055E-9
 13.37152E-9
 3.788849E-9
 1.282568E-9
</dep>
<dep Pr1.Vt time>
 0.
 138.8886E-9
 667.7996E-9
 1.716933E-6
 4.443917E-6
 10.06937E-6
 20.79176E-6
 28.336E-6
 35.88019E-6
 51.21875E-6
 0.01555309
 0.1055323
 0.2633458
 0.4510177
 0.5908778
 0.7383033
 0.8326046
 0.8929248
 0.9479492
 0.9746973
 0.9921223
 0.9975474
 0.9998369
 0.9999891
 1.000003
 0.9999981
 0.9999985
 0.9999885
 0.9999511
 0.9999492
 0.9999488
 0.9999486
 0.9485961
 0.6404638
 0.4324221
 0.2919585
 0.1971217
 0.1330907
 0.08985885
 0.06067001
 0.04096258
 0.02765672
 0.01867299
 0.01260745
 0.008512172
 0.005747165
 0.003880314
 0.002619873
 0.00176886
 0.001194282
 806.3436E-6
 544.4194E-6
 367.5759E-6
 248.1765E-6
 167.5615E-6
 113.1327E-6
 76.38404E-6
 51.57241E-6
 34.82034E-6
 23.50984E-6
 15.87333E-6
 10.71738E-6
 7.236244E-6
 4.885881E-6
 3.298987E-6
 2.227563E-6
 1.22307E-6
 671.6569E-9
 368.9611E-9
 135.236E-9
 49.79795E-9
 6.923169E-9
 1.391024E-9
 1.08568E-9
 10.00098E-6
 0.006343808
 0.008446144
 0.009145933
 0.009845228
 0.09379611
 0.2413629
 0.4307361
 0.5728374
 0.724732
 0.8226145
 0.885691
 0.9435389
 0.972112
 0.9909855
 0.9970862
 0.9997456
 0.9999778
 1.000007
 0.9999967
 0.9999993
 0.9999893
 0.9999401
 0.9999376
 0.9999372
 0.999937
 0.9692103
 0.6697319
 0.46279
 0.3197915
 0.2209785
 0.1526978
 0.1055154
 0.07291198
 0.05038275
 0.03481487
 0.02405735
 0.01662382
 0.01148719
 0.007937738
 0.005485039
 0.003790205
 0.002619062
 0.001809792
 0.001250581
 864.1612E-6
 597.1422E-6
 412.63E-6
 285.1307E-6
 197.0276E-6
 136.1477E-6
 94.07919E-6
 65.00953E-6
 44.92217E-6
 31.04164E-6
 21.45009E-6
 14.82225E-6
 10.24236E-6
 7.077622E-6
 4.890763E-6
 3.379626E-6
 2.335419E-6
 1.284478E-6
 706.5074E-9
 388.6499E-9
 144.6961E-9
 53.96092E-9
 7.775141E-9
 1.288097E-9
 805.305E-12
 10.0007E-6
 0.007007824
 0.009329524
 0.01010222
 0.01087431
 0.09744224
 0.2463033
 0.4359201
 0.5778326
 0.7286188
 0.8255485
 0.8878576
 0.944837
 0.9728652
 0.9913222
 0.9972248
 0.9997812
 0.9999827
 1.000005
 0.9999973
 0.9999991
 0.9999891
 0.9999493
 0.9999475
 0.9999471
 0.9999469
 0.9999148
 0.903954
 0.6097556
 0.4113062
 0.2774436
 0.1871475
 0.126239
 0.08515361
 0.05743975
 0.03874556
 0.02613554
 0.01762954
 0.01189188
 0.008021578
 0.005410897
 0.003649881
 0.002462001
 0.001660725
 0.00112023
 755.6428E-6
 509.7133E-6
 343.8234E-6
 231.9236E-6
 156.4423E-6
 105.527E-6
 71.18248E-6
 48.01561E-6
 32.38857E-6
 21.84746E-6
 14.73703E-6
 9.940745E-6
 6.705444E-6
 4.523096E-6
 3.051009E-6
 2.058023E-6
 1.112563E-6
 601.4411E-9
 325.1252E-9
 114.4711E-9
 40.287E-9
 4.402061E-9
 241.015E-12
 10.00014E-6
 0.01178322
 0.01567671
 0.01697112
 0.01826383
 0.1197129
 0.274946
 0.4663445
 0.6072179
 0.7109038
 0.8262689
 0.8955971
 0.9372595
 0.973268
 0.9886103
 0.997419
 0.9994151
 1.000039
 0.9999974
 1.000001
 0.9999999
 0.9999899
 0.9999397
 0.9999374
 0.999937
 0.9999368
 0.999907
 0.9142011
 0.6180755
 0.4178701
 0.2825148
 0.1910033
 0.129134
 0.08730529
 0.0590256
 0.03990618
 0.02697988
 0.01824063
 0.01233217
 0.008337569
 0.005636886
 0.003811001
 0.002576552
 0.001741962
 0.001177711
 796.23E-6
 538.3175E-6
 363.9473E-6
 246.0586E-6
 166.3561E-6
 112.4706E-6
 76.0396E-6
 51.40921E-6
 34.75703E-6
 23.49878E-6
 15.88727E-6
 10.74126E-6
 7.262135E-6
 4.909957E-6
 3.31969E-6
 2.244539E-6
 1.242251E-6
 687.6243E-9
 380.7158E-9
 139.8406E-9
 51.55466E-9
 7.72759E-9
 1.50387E-9
 1.046587E-9
 10.00094E-6
 0.006905263
 0.009193093
 0.009954531
 0.01071538
 0.09690498
 0.2452145
 0.4339307
 0.5754628
 0.725766
 0.8228558
 0.885572
 0.9433857
 0.9719896
 0.990837
 0.9970025
 0.9997051
 0.999971
 1.000008
 0.9999963
 1.
 0.9999902
 0.9999454
 0.9999434
 0.999943
 0.9999427
 0.964734
 0.6637143
 0.4566199
 0.3141437
 0.2161235
 0.1486879
 0.1022938
 0.07037571
 0.04841684
 0.03330965
 0.02291625
 0.01576584
 0.01084653
 0.007462158
 0.00513379
 0.003531927
 0.002429883
 0.001671702
 0.001150092
 791.2364E-6
 544.3522E-6
 374.5016E-6
 257.6484E-6
 177.2562E-6
 121.9482E-6
 83.89763E-6
 57.71972E-6
 39.70994E-6
 27.31963E-6
 18.79538E-6
 12.93091E-6
 8.896283E-6
 6.120557E-6
 4.210922E-6
 2.897139E-6
 1.993287E-6
 1.090852E-6
 597.0636E-9
 326.876E-9
 127.6685E-9
 50.01055E-9
 13.37153E-9
 3.788849E-9
 1.282568E-9
</dep>
