<Qucs Dataset>
default plugins: ignored
;: already installed, replacing
stashing as ;:0
*: already installed, replacing
stashing as *:0
': already installed, replacing
stashing as ':0
": already installed, replacing
stashing as ":0
store: already installed, replacing
stashing as store:0
alarm: already installed, replacing
stashing as alarm:0
iplot: already installed, replacing
stashing as iplot:0
plot: already installed, replacing
stashing as plot:0
iprint: already installed, replacing
stashing as iprint:0
print: already installed, replacing
stashing as print:0
probe: already installed, replacing
stashing as probe:0
L: already installed, replacing
stashing as L:0
C:C1 _net1 gnd C="1u" V="" 
                      ^ ? C1: V has no value?
Gnucap   System status
iterations: op=0, dc=0, tran=1818, fourier=0, total=2294
transient timesteps: accepted=445, rejected=31, total=476
transient timesteps: accepted=0, rejected=0, total=0
nodes: user=2, subckt=0, model=0, total=2
dctran density=100.0%, ac density=100.0%

<indep time 445>
 0.
 83.3333E-12
 166.667E-12
 303.293E-12
 439.919E-12
 1.E-9
 1.495933E-9
 1.991866E-9
 2.487799E-9
 2.983732E-9
 808.2661E-9
 5.643465E-6
 15.3656E-6
 30.00583E-6
 44.64605E-6
 66.67117E-6
 88.69629E-6
 110.7214E-6
 145.4206E-6
 180.1199E-6
 214.8191E-6
 249.5183E-6
 284.2175E-6
 318.9168E-6
 353.616E-6
 388.3152E-6
 423.0144E-6
 457.7136E-6
 492.4129E-6
 527.1121E-6
 561.8113E-6
 596.5105E-6
 631.2098E-6
 665.909E-6
 700.6082E-6
 735.3074E-6
 770.0067E-6
 804.7059E-6
 839.4051E-6
 874.1043E-6
 908.8035E-6
 943.5028E-6
 978.202E-6
 0.001000003
 0.001000004
 0.001000005
 0.001000006
 0.001000006
 0.001000006
 0.001000309
 0.001001447
 0.001013225
 0.001033557
 0.001053889
 0.001074221
 0.001094553
 0.001114885
 0.001135217
 0.00115555
 0.001175882
 0.001196214
 0.001216546
 0.001236878
 0.00125721
 0.001277542
 0.001297874
 0.001318206
 0.001338538
 0.00135887
 0.001379202
 0.001399534
 0.001419866
 0.001440199
 0.001460531
 0.001480863
 0.001501195
 0.001521527
 0.001541859
 0.001562191
 0.001582523
 0.001602855
 0.001623187
 0.001643519
 0.001663851
 0.001697196
 0.00173054
 0.001763885
 0.00179723
 0.001830574
 0.001863919
 0.001897263
 0.001930608
 0.001963953
 0.002000002
 0.002000003
 0.00200033
 0.002000439
 0.002000476
 0.002000512
 0.002004983
 0.002013887
 0.002028173
 0.002042459
 0.002064142
 0.002085825
 0.002107507
 0.002141527
 0.002175546
 0.002209566
 0.002243585
 0.002277604
 0.002311624
 0.002345643
 0.002379662
 0.002413682
 0.002447701
 0.00248172
 0.00251574
 0.002549759
 0.002583779
 0.002617798
 0.002651817
 0.002685837
 0.002719856
 0.002753875
 0.002787895
 0.002821914
 0.002855933
 0.002889953
 0.002923972
 0.002957992
 0.003000005
 0.003000006
 0.003000007
 0.003000007
 0.003000007
 0.003000007
 0.003000863
 0.003004966
 0.003025539
 0.003046113
 0.003066686
 0.00308726
 0.003107834
 0.003128407
 0.003148981
 0.003169555
 0.003190128
 0.003210702
 0.003231276
 0.003251849
 0.003272423
 0.003292996
 0.00331357
 0.003334144
 0.003354717
 0.003375291
 0.003395865
 0.003416438
 0.003437012
 0.003457585
 0.003478159
 0.003498733
 0.003519306
 0.00353988
 0.003560454
 0.003581027
 0.003601601
 0.003622175
 0.003642748
 0.003663322
 0.003696498
 0.003729674
 0.003762851
 0.003796027
 0.003829203
 0.00386238
 0.003895556
 0.003928732
 0.003961909
 0.004000004
 0.004000005
 0.004000341
 0.004000453
 0.004000491
 0.004000528
 0.004005039
 0.004013973
 0.004028294
 0.004042615
 0.004064278
 0.004085941
 0.004107604
 0.004141469
 0.004175333
 0.004209197
 0.004243062
 0.004276926
 0.00431079
 0.004344655
 0.004378519
 0.004412383
 0.004446248
 0.004480112
 0.004513976
 0.004547841
 0.004581705
 0.004615569
 0.004649434
 0.004683298
 0.004717162
 0.004751027
 0.004784891
 0.004818755
 0.00485262
 0.004886484
 0.004920348
 0.004954213
 0.004988077
 0.005000007
 0.005000008
 0.005000009
 0.005000009
 0.005000009
 0.005000009
 0.005000274
 0.005001461
 0.005016034
 0.005030607
 0.005054048
 0.005077488
 0.005100929
 0.005124369
 0.00514781
 0.00517125
 0.005194691
 0.005218131
 0.005241572
 0.005265012
 0.005288453
 0.005311893
 0.005335334
 0.005358775
 0.005382215
 0.005405656
 0.005429096
 0.005452537
 0.005475977
 0.005499418
 0.005522858
 0.005546299
 0.005569739
 0.00559318
 0.00561662
 0.005640061
 0.005663501
 0.005686942
 0.005725111
 0.005763279
 0.005801448
 0.005839617
 0.005877785
 0.005915954
 0.005954123
 0.005992291
 0.006000006
 0.006000007
 0.006000178
 0.006000234
 0.006000253
 0.006000272
 0.006003869
 0.006012024
 0.006025452
 0.00603888
 0.006059838
 0.006080796
 0.006101754
 0.006134513
 0.006167271
 0.00620003
 0.006232788
 0.006265546
 0.006298305
 0.006331063
 0.006363821
 0.00639658
 0.006429338
 0.006462096
 0.006494855
 0.006527613
 0.006560372
 0.00659313
 0.006625888
 0.006658647
 0.006691405
 0.006724163
 0.006756922
 0.00678968
 0.006822439
 0.006855197
 0.006887955
 0.006920714
 0.006953472
 0.00698623
 0.007000009
 0.00700001
 0.007000011
 0.007000011
 0.007000011
 0.007000011
 0.007000262
 0.007001372
 0.007014186
 0.007034498
 0.00705481
 0.007075121
 0.007095433
 0.007115745
 0.007136056
 0.007156368
 0.007176679
 0.007196991
 0.007217303
 0.007237614
 0.007257926
 0.007278238
 0.007298549
 0.007318861
 0.007339173
 0.007359484
 0.007379796
 0.007400108
 0.007420419
 0.007440731
 0.007461043
 0.007481354
 0.007501666
 0.007521978
 0.007542289
 0.007562601
 0.007582913
 0.007603224
 0.007623536
 0.007643848
 0.007664159
 0.007697528
 0.007730898
 0.007764267
 0.007797636
 0.007831005
 0.007864374
 0.007897743
 0.007931113
 0.007964482
 0.008000008
 0.008000009
 0.008000334
 0.008000442
 0.008000478
 0.008000514
 0.008004967
 0.008013834
 0.008028123
 0.008042412
 0.008063924
 0.008085436
 0.008106948
 0.008140753
 0.008174557
 0.008208362
 0.008242166
 0.008275971
 0.008309775
 0.00834358
 0.008377384
 0.008411189
 0.008444993
 0.008478798
 0.008512602
 0.008546407
 0.008580211
 0.008614016
 0.00864782
 0.008681625
 0.008715429
 0.008749234
 0.008783038
 0.008816843
 0.008850647
 0.008884452
 0.008918256
 0.008952061
 0.008985865
 0.009000011
 0.009000012
 0.009000013
 0.009000013
 0.009000013
 0.009000013
 0.009000013
 0.009000397
 0.00900542
 0.009025311
 0.009045203
 0.009065095
 0.009084986
 0.009104878
 0.009124769
 0.009144661
 0.009164553
 0.009184444
 0.009204336
 0.009224227
 0.009244119
 0.009264011
 0.009283902
 0.009303794
 0.009323685
 0.009343577
 0.009363469
 0.00938336
 0.009403252
 0.009423143
 0.009443035
 0.009462927
 0.009482818
 0.00950271
 0.009522601
 0.009542493
 0.009562385
 0.009582276
 0.009602168
 0.00962206
 0.009641951
 0.009661843
 0.009692584
 0.009723326
 0.009754067
 0.009795056
 0.009836045
 0.009877034
 0.009918022
 0.009959011
 0.01
</indep>
<dep _net0.Vt time>
 0.
 0.08333332
 0.1666666
 0.3032926
 0.4399186
 0.9999998
 0.9999998
 0.9999998
 0.9999998
 0.9999998
 0.9999998
 0.9999998
 0.9999999
 0.9999999
 0.9999999
 0.9999999
 1.
 1.
 1.
 1.
 1.
 1.
 1.
 1.
 1.
 1.
 1.
 1.
 1.
 1.
 1.
 1.
 1.
 1.
 1.
 1.
 1.
 1.
 1.
 1.
 1.
 1.
 1.
 1.
 199.998E-9
 199.9922E-9
 199.9918E-9
 199.9918E-9
 199.9917E-9
 198.7803E-9
 194.309E-9
 153.3599E-9
 101.5346E-9
 67.22271E-9
 44.50597E-9
 29.46595E-9
 19.50844E-9
 12.9159E-9
 8.551198E-9
 5.661469E-9
 3.748274E-9
 2.48161E-9
 1.642993E-9
 1.087772E-9
 720.178E-12
 476.807E-12
 315.678E-12
 209.E-12
 138.372E-12
 91.612E-12
 60.653E-12
 40.157E-12
 26.586E-12
 17.602E-12
 11.654E-12
 7.716E-12
 5.108E-12
 3.382E-12
 2.239E-12
 1.483E-12
 982.E-15
 650.E-15
 430.E-15
 285.E-15
 142.E-15
 71.E-15
 36.E-15
 18.E-15
 9.E-15
 5.E-15
 2.E-15
 1.E-15
 1.E-15
 0.
 0.9999998
 0.9999998
 0.9999998
 0.9999998
 0.9999998
 0.9999998
 0.9999998
 0.9999999
 0.9999999
 0.9999999
 1.
 1.
 1.
 1.
 1.
 1.
 1.
 1.
 1.
 1.
 1.
 1.
 1.
 1.
 1.
 1.
 1.
 1.
 1.
 1.
 1.
 1.
 1.
 1.
 1.
 1.
 1.
 1.
 199.998E-9
 199.9932E-9
 199.9929E-9
 199.9928E-9
 199.9927E-9
 196.5993E-9
 181.1035E-9
 119.2997E-9
 78.58716E-9
 51.76831E-9
 34.10173E-9
 22.46409E-9
 14.79794E-9
 9.747958E-9
 6.421346E-9
 4.229982E-9
 2.786448E-9
 1.835538E-9
 1.209138E-9
 796.504E-12
 524.687E-12
 345.631E-12
 227.68E-12
 149.981E-12
 98.798E-12
 65.082E-12
 42.872E-12
 28.241E-12
 18.604E-12
 12.255E-12
 8.073E-12
 5.318E-12
 3.503E-12
 2.308E-12
 1.52E-12
 1.001E-12
 660.E-15
 434.E-15
 286.E-15
 144.E-15
 72.E-15
 36.E-15
 18.E-15
 9.E-15
 5.E-15
 2.E-15
 1.E-15
 1.E-15
 0.
 0.9999998
 0.9999998
 0.9999998
 0.9999998
 0.9999998
 0.9999998
 0.9999998
 0.9999999
 0.9999999
 0.9999999
 1.
 1.
 1.
 1.
 1.
 1.
 1.
 1.
 1.
 1.
 1.
 1.
 1.
 1.
 1.
 1.
 1.
 1.
 1.
 1.
 1.
 1.
 1.
 1.
 1.
 1.
 1.
 1.
 1.
 199.998E-9
 199.9956E-9
 199.9954E-9
 199.9953E-9
 199.9953E-9
 198.9354E-9
 194.2691E-9
 144.8493E-9
 108.0014E-9
 66.98393E-9
 41.54433E-9
 25.76635E-9
 15.98064E-9
 9.911405E-9
 6.147187E-9
 3.812568E-9
 2.364606E-9
 1.46656E-9
 909.58E-12
 564.134E-12
 349.883E-12
 217.002E-12
 134.588E-12
 83.473E-12
 51.771E-12
 32.109E-12
 19.914E-12
 12.351E-12
 7.66E-12
 4.751E-12
 2.947E-12
 1.827E-12
 1.133E-12
 703.E-15
 436.E-15
 270.E-15
 168.E-15
 75.E-15
 33.E-15
 15.E-15
 7.E-15
 3.E-15
 1.E-15
 1.E-15
 0.
 0.
 0.9999998
 0.9999998
 0.9999998
 0.9999998
 0.9999998
 0.9999998
 0.9999998
 0.9999999
 0.9999999
 0.9999999
 1.
 1.
 1.
 1.
 1.
 1.
 1.
 1.
 1.
 1.
 1.
 1.
 1.
 1.
 1.
 1.
 1.
 1.
 1.
 1.
 1.
 1.
 1.
 1.
 1.
 1.
 1.
 1.
 1.
 1.
 199.998E-9
 199.9957E-9
 199.9955E-9
 199.9954E-9
 199.9954E-9
 198.9934E-9
 194.6251E-9
 150.41E-9
 99.624E-9
 65.98589E-9
 43.70571E-9
 28.94845E-9
 19.17399E-9
 12.69988E-9
 8.411755E-9
 5.571521E-9
 3.690293E-9
 2.444263E-9
 1.618956E-9
 1.072315E-9
 710.247E-12
 470.432E-12
 311.59E-12
 206.381E-12
 136.697E-12
 90.541E-12
 59.97E-12
 39.721E-12
 26.309E-12
 17.426E-12
 11.542E-12
 7.645E-12
 5.064E-12
 3.354E-12
 2.221E-12
 1.471E-12
 975.E-15
 646.E-15
 428.E-15
 283.E-15
 142.E-15
 71.E-15
 35.E-15
 18.E-15
 9.E-15
 4.E-15
 2.E-15
 1.E-15
 1.E-15
 0.
 0.9999998
 0.9999998
 0.9999998
 0.9999998
 0.9999998
 0.9999998
 0.9999998
 0.9999999
 0.9999999
 0.9999999
 1.
 1.
 1.
 1.
 1.
 1.
 1.
 1.
 1.
 1.
 1.
 1.
 1.
 1.
 1.
 1.
 1.
 1.
 1.
 1.
 1.
 1.
 1.
 1.
 1.
 1.
 1.
 1.
 1.
 200.958E-9
 199.9958E-9
 199.9956E-9
 199.9955E-9
 199.9955E-9
 199.9943E-9
 198.4653E-9
 179.4806E-9
 119.9242E-9
 80.13018E-9
 53.54087E-9
 35.77459E-9
 23.90364E-9
 15.97178E-9
 10.67192E-9
 7.130695E-9
 4.764542E-9
 3.183541E-9
 2.127158E-9
 1.421311E-9
 949.682E-12
 634.553E-12
 423.991E-12
 283.3E-12
 189.293E-12
 126.481E-12
 84.511E-12
 56.468E-12
 37.73E-12
 25.21E-12
 16.845E-12
 11.255E-12
 7.521E-12
 5.025E-12
 3.358E-12
 2.243E-12
 1.499E-12
 1.002E-12
 669.E-15
 447.E-15
 299.E-15
 158.E-15
 84.E-15
 44.E-15
 19.E-15
 8.E-15
 3.E-15
 1.E-15
 1.E-15
 0.
</dep>
<dep _net1.Vt time>
 0.
 138.8886E-9
 347.2215E-9
 989.3063E-9
 2.004722E-6
 10.06937E-6
 19.98788E-6
 29.90629E-6
 39.82461E-6
 49.74282E-6
 0.01602593
 0.1067914
 0.2650803
 0.4527873
 0.5925518
 0.7396378
 0.8336268
 0.8936864
 0.9484603
 0.9750141
 0.9878871
 0.9941278
 0.9971532
 0.9986199
 0.9993309
 0.9996756
 0.9998428
 0.9999238
 0.999963
 0.9999821
 0.9999913
 0.9999958
 0.999998
 0.999999
 0.9999995
 0.9999998
 0.9999999
 0.9999999
 1.
 1.
 1.
 1.
 1.
 1.
 0.99999
 0.9999613
 0.9999594
 0.999959
 0.9999588
 0.9939017
 0.9715453
 0.7667994
 0.5076729
 0.3361136
 0.2225299
 0.1473298
 0.09754223
 0.06457953
 0.042756
 0.02830735
 0.01874137
 0.01240805
 0.008214967
 0.005438862
 0.003600893
 0.002384034
 0.001578391
 0.001045001
 691.8616E-6
 458.0591E-6
 303.2662E-6
 200.7828E-6
 132.9319E-6
 88.01007E-6
 58.26877E-6
 38.57803E-6
 25.54143E-6
 16.91032E-6
 11.19595E-6
 7.412649E-6
 4.90785E-6
 3.249504E-6
 2.151567E-6
 1.424659E-6
 712.4101E-9
 356.376E-9
 178.4041E-9
 89.44062E-9
 44.97016E-9
 22.74056E-9
 11.62858E-9
 6.073991E-9
 3.297401E-9
 1.826705E-9
 10.00172E-6
 0.006532558
 0.008697269
 0.00941779
 0.01013779
 0.09487199
 0.2428655
 0.4321573
 0.5741242
 0.725898
 0.8235826
 0.8864544
 0.944099
 0.9724787
 0.9864507
 0.9933294
 0.9967159
 0.9983832
 0.999204
 0.9996081
 0.9998071
 0.999905
 0.9999532
 0.999977
 0.9999887
 0.9999944
 0.9999973
 0.9999986
 0.9999993
 0.9999997
 0.9999998
 0.9999999
 1.
 1.
 1.
 1.
 1.
 1.
 0.99999
 0.9999662
 0.9999645
 0.9999641
 0.9999639
 0.9829969
 0.9055176
 0.5964984
 0.3929359
 0.2588416
 0.1705087
 0.1123205
 0.07398971
 0.0487398
 0.03210674
 0.02114991
 0.01393224
 0.00917769
 0.006045689
 0.003982522
 0.002623437
 0.001728156
 0.001138401
 749.9075E-6
 493.9921E-6
 325.411E-6
 214.3604E-6
 141.2071E-6
 93.01832E-6
 61.27455E-6
 40.36375E-6
 26.58901E-6
 17.51508E-6
 11.53773E-6
 7.600234E-6
 5.006456E-6
 3.297836E-6
 2.172305E-6
 1.430875E-6
 717.8163E-9
 360.026E-9
 180.498E-9
 90.4166E-9
 45.21656E-9
 22.53661E-9
 11.15652E-9
 5.446356E-9
 2.581173E-9
 989.159E-12
 10.00089E-6
 0.00671234
 0.008936448
 0.00967671
 0.01041642
 0.09584088
 0.244152
 0.433518
 0.5754414
 0.7266342
 0.8239846
 0.8866668
 0.9440078
 0.972337
 0.9863331
 0.9932479
 0.9966641
 0.9983519
 0.9991858
 0.9995977
 0.9998013
 0.9999018
 0.9999515
 0.999976
 0.9999882
 0.9999942
 0.9999971
 0.9999986
 0.9999993
 0.9999997
 0.9999998
 0.9999999
 1.
 1.
 1.
 1.
 1.
 1.
 1.
 0.99999
 0.9999782
 0.9999773
 0.9999768
 0.9999766
 0.994677
 0.9713455
 0.7242469
 0.5400072
 0.3349197
 0.2077217
 0.1288318
 0.0799032
 0.04955704
 0.03073594
 0.01906284
 0.01182303
 0.007332802
 0.004547902
 0.00282067
 0.001749417
 0.001085012
 672.9386E-6
 417.3654E-6
 258.8554E-6
 160.5454E-6
 99.57223E-6
 61.75584E-6
 38.30161E-6
 23.75498E-6
 14.73297E-6
 9.137391E-6
 5.666941E-6
 3.514521E-6
 2.179561E-6
 1.351602E-6
 838.0897E-9
 374.7716E-9
 167.4338E-9
 74.64879E-9
 33.12691E-9
 14.54561E-9
 6.230353E-9
 2.509224E-9
 843.995E-12
 650.788E-12
 10.00055E-6
 0.003414215
 0.004546375
 0.004923476
 0.005300434
 0.07437224
 0.2139647
 0.400066
 0.5421061
 0.7007836
 0.8044734
 0.8722307
 0.9352853
 0.9672222
 0.9833982
 0.9915912
 0.995741
 0.9978428
 0.9989074
 0.9994466
 0.9997197
 0.999858
 0.9999281
 0.9999636
 0.9999816
 0.9999907
 0.9999953
 0.9999976
 0.9999988
 0.9999994
 0.9999997
 0.9999998
 0.9999999
 1.
 1.
 1.
 1.
 1.
 1.
 1.
 0.99999
 0.9999786
 0.9999777
 0.9999773
 0.999977
 0.9949672
 0.9731256
 0.7520504
 0.4981201
 0.3299295
 0.2185286
 0.1447423
 0.09586995
 0.0634994
 0.04205879
 0.02785761
 0.01845147
 0.01222132
 0.008094782
 0.005361574
 0.003551235
 0.002352158
 0.001557951
 0.001031908
 683.4834E-6
 452.7049E-6
 299.8489E-6
 198.6048E-6
 131.5458E-6
 87.12938E-6
 57.71017E-6
 38.22438E-6
 25.31798E-6
 16.76943E-6
 11.1073E-6
 7.356999E-6
 4.872987E-6
 3.227703E-6
 2.137951E-6
 1.416154E-6
 707.6302E-9
 353.6538E-9
 176.8082E-9
 88.45665E-9
 44.31645E-9
 22.26413E-9
 11.24686E-9
 5.742656E-9
 2.992773E-9
 1.553406E-9
 10.00145E-6
 0.006484494
 0.008633322
 0.009348565
 0.01006329
 0.09447206
 0.241976
 0.4315197
 0.573668
 0.72462
 0.8221241
 0.8851049
 0.9431593
 0.9718799
 0.9860885
 0.9931177
 0.9965952
 0.9983156
 0.9991667
 0.9995877
 0.9997961
 0.9998991
 0.9999501
 0.9999753
 0.9999878
 0.999994
 0.999997
 0.9999985
 0.9999993
 0.9999996
 0.9999998
 0.9999999
 1.
 1.
 1.
 1.
 1.
 1.
 1.
 0.99999
 0.9999791
 0.9999783
 0.9999779
 0.9999777
 0.9999717
 0.9923268
 0.8974032
 0.5996211
 0.400651
 0.2677044
 0.178873
 0.1195182
 0.07985891
 0.05335961
 0.03565348
 0.02382272
 0.01591771
 0.01063579
 0.007106555
 0.004748412
 0.003172764
 0.002119957
 0.001416499
 946.4671E-6
 632.4042E-6
 422.5557E-6
 282.3405E-6
 188.6523E-6
 126.0524E-6
 84.22482E-6
 56.27671E-6
 37.60252E-6
 25.12493E-6
 16.78773E-6
 11.21703E-6
 7.494837E-6
 5.007766E-6
 3.345971E-6
 2.235604E-6
 1.493685E-6
 791.1363E-9
 418.9712E-9
 221.8222E-9
 92.69383E-9
 38.64679E-9
 16.02524E-9
 6.556933E-9
 2.593944E-9
 935.223E-12
</dep>
<dep Pr1.Vt time>
 0.
 138.8886E-9
 347.2215E-9
 989.3063E-9
 2.004722E-6
 10.06937E-6
 19.98788E-6
 29.90629E-6
 39.82461E-6
 49.74282E-6
 0.01602593
 0.1067914
 0.2650803
 0.4527873
 0.5925518
 0.7396378
 0.8336268
 0.8936864
 0.9484603
 0.9750141
 0.9878871
 0.9941278
 0.9971532
 0.9986199
 0.9993309
 0.9996756
 0.9998428
 0.9999238
 0.999963
 0.9999821
 0.9999913
 0.9999958
 0.999998
 0.999999
 0.9999995
 0.9999998
 0.9999999
 0.9999999
 1.
 1.
 1.
 1.
 1.
 1.
 0.99999
 0.9999613
 0.9999594
 0.999959
 0.9999588
 0.9939017
 0.9715453
 0.7667994
 0.5076729
 0.3361136
 0.2225299
 0.1473298
 0.09754223
 0.06457953
 0.042756
 0.02830735
 0.01874137
 0.01240805
 0.008214967
 0.005438862
 0.003600893
 0.002384034
 0.001578391
 0.001045001
 691.8616E-6
 458.0591E-6
 303.2662E-6
 200.7828E-6
 132.9319E-6
 88.01007E-6
 58.26877E-6
 38.57803E-6
 25.54143E-6
 16.91032E-6
 11.19595E-6
 7.412649E-6
 4.90785E-6
 3.249504E-6
 2.151567E-6
 1.424659E-6
 712.4101E-9
 356.376E-9
 178.4041E-9
 89.44063E-9
 44.97016E-9
 22.74056E-9
 11.62858E-9
 6.073991E-9
 3.297401E-9
 1.826705E-9
 10.00172E-6
 0.006532558
 0.008697269
 0.00941779
 0.01013779
 0.09487199
 0.2428655
 0.4321573
 0.5741242
 0.725898
 0.8235826
 0.8864544
 0.944099
 0.9724787
 0.9864507
 0.9933294
 0.9967159
 0.9983832
 0.999204
 0.9996081
 0.9998071
 0.999905
 0.9999532
 0.999977
 0.9999887
 0.9999944
 0.9999973
 0.9999986
 0.9999993
 0.9999997
 0.9999998
 0.9999999
 1.
 1.
 1.
 1.
 1.
 1.
 0.99999
 0.9999662
 0.9999645
 0.9999641
 0.9999639
 0.9829969
 0.9055176
 0.5964984
 0.3929359
 0.2588416
 0.1705087
 0.1123205
 0.07398971
 0.0487398
 0.03210674
 0.02114991
 0.01393224
 0.00917769
 0.006045689
 0.003982522
 0.002623437
 0.001728156
 0.001138401
 749.9075E-6
 493.9921E-6
 325.411E-6
 214.3604E-6
 141.2071E-6
 93.01832E-6
 61.27455E-6
 40.36375E-6
 26.58901E-6
 17.51508E-6
 11.53773E-6
 7.600234E-6
 5.006456E-6
 3.297836E-6
 2.172305E-6
 1.430875E-6
 717.8163E-9
 360.026E-9
 180.498E-9
 90.4166E-9
 45.21656E-9
 22.53661E-9
 11.15652E-9
 5.446356E-9
 2.581173E-9
 989.159E-12
 10.00089E-6
 0.00671234
 0.008936448
 0.00967671
 0.01041642
 0.09584088
 0.244152
 0.433518
 0.5754414
 0.7266342
 0.8239846
 0.8866668
 0.9440078
 0.972337
 0.9863331
 0.9932479
 0.9966641
 0.9983519
 0.9991858
 0.9995977
 0.9998013
 0.9999018
 0.9999515
 0.999976
 0.9999882
 0.9999942
 0.9999971
 0.9999986
 0.9999993
 0.9999997
 0.9999998
 0.9999999
 1.
 1.
 1.
 1.
 1.
 1.
 1.
 0.99999
 0.9999782
 0.9999773
 0.9999768
 0.9999766
 0.994677
 0.9713455
 0.7242469
 0.5400072
 0.3349197
 0.2077217
 0.1288318
 0.0799032
 0.04955704
 0.03073594
 0.01906284
 0.01182303
 0.007332802
 0.004547902
 0.00282067
 0.001749417
 0.001085012
 672.9386E-6
 417.3654E-6
 258.8554E-6
 160.5454E-6
 99.57223E-6
 61.75584E-6
 38.30161E-6
 23.75498E-6
 14.73297E-6
 9.137391E-6
 5.666941E-6
 3.514521E-6
 2.179561E-6
 1.351602E-6
 838.0897E-9
 374.7716E-9
 167.4338E-9
 74.64879E-9
 33.12691E-9
 14.54561E-9
 6.230353E-9
 2.509224E-9
 843.995E-12
 650.788E-12
 10.00055E-6
 0.003414215
 0.004546375
 0.004923476
 0.005300434
 0.07437224
 0.2139647
 0.400066
 0.5421061
 0.7007836
 0.8044734
 0.8722307
 0.9352853
 0.9672222
 0.9833982
 0.9915912
 0.995741
 0.9978428
 0.9989074
 0.9994466
 0.9997197
 0.999858
 0.9999281
 0.9999636
 0.9999816
 0.9999907
 0.9999953
 0.9999976
 0.9999988
 0.9999994
 0.9999997
 0.9999998
 0.9999999
 1.
 1.
 1.
 1.
 1.
 1.
 1.
 0.99999
 0.9999786
 0.9999777
 0.9999773
 0.999977
 0.9949672
 0.9731256
 0.7520504
 0.4981201
 0.3299295
 0.2185286
 0.1447423
 0.09586995
 0.0634994
 0.04205879
 0.02785761
 0.01845147
 0.01222132
 0.008094782
 0.005361574
 0.003551235
 0.002352158
 0.001557951
 0.001031908
 683.4834E-6
 452.7049E-6
 299.8489E-6
 198.6048E-6
 131.5458E-6
 87.12938E-6
 57.71017E-6
 38.22438E-6
 25.31798E-6
 16.76943E-6
 11.1073E-6
 7.356999E-6
 4.872987E-6
 3.227703E-6
 2.137951E-6
 1.416154E-6
 707.6302E-9
 353.6538E-9
 176.8082E-9
 88.45665E-9
 44.31645E-9
 22.26413E-9
 11.24686E-9
 5.742656E-9
 2.992773E-9
 1.553406E-9
 10.00145E-6
 0.006484494
 0.008633322
 0.009348565
 0.01006329
 0.09447206
 0.241976
 0.4315197
 0.573668
 0.72462
 0.8221241
 0.8851049
 0.9431593
 0.9718799
 0.9860885
