<Qucs Dataset>
default plugins: ignored
C:C1 _net1 gnd C="1u" V="" 
                      ^ ? C1: V has no value?
Gnucap   System status
iterations: op=0, dc=0, tran=853, fourier=0, total=1153
transient timesteps: accepted=279, rejected=21, total=300
transient timesteps: accepted=0, rejected=0, total=0
nodes: user=2, subckt=0, model=2, total=4
dctran density=50.0%, ac density=50.0%

<indep time 279>
 0.
 80.E-12
 160.E-12
 450.E-12
 740.E-12
 1.01E-9
 1.43E-9
 1.85E-9
 2.27E-9
 2.69E-9
 774.3E-9
 5.53253E-6
 15.18757E-6
 29.67013E-6
 44.15269E-6
 65.87652E-6
 87.60035E-6
 109.3242E-6
 143.581E-6
 177.8378E-6
 229.223E-6
 280.6082E-6
 352.5475E-6
 460.4564E-6
 640.3046E-6
 820.1528E-6
 0.001000001
 0.002000002
 0.003000003
 0.003000004
 0.003000006
 0.003000006
 0.003000006
 0.003000006
 0.003001841
 0.003021413
 0.003040985
 0.003060556
 0.003080128
 0.0030997
 0.003119272
 0.003138844
 0.003158416
 0.003177987
 0.003197559
 0.003217131
 0.003236703
 0.003256275
 0.003275847
 0.003295418
 0.00331499
 0.003334562
 0.003354134
 0.003373706
 0.003393278
 0.003412849
 0.003432421
 0.003451993
 0.003471565
 0.003491137
 0.003510709
 0.00353028
 0.003549852
 0.003569424
 0.003588996
 0.003608568
 0.003628139
 0.003647711
 0.003677069
 0.003706427
 0.003735785
 0.003779821
 0.003823858
 0.003882573
 0.003941289
 0.004000004
 0.004000005
 0.004000465
 0.004000659
 0.004000721
 0.004000782
 0.004005907
 0.004015285
 0.004030205
 0.004045125
 0.004060045
 0.004084781
 0.004109517
 0.004134252
 0.004173605
 0.004212957
 0.004273499
 0.004334041
 0.004445035
 0.004556029
 0.004778017
 0.005000005
 0.005000006
 0.005000007
 0.005000007
 0.005000007
 0.005000007
 0.005001484
 0.005021454
 0.005041425
 0.005061395
 0.005081366
 0.005101336
 0.005121307
 0.005141277
 0.005161248
 0.005181218
 0.005201188
 0.005221159
 0.005241129
 0.0052611
 0.00528107
 0.005301041
 0.005321011
 0.005340982
 0.005360952
 0.005380922
 0.005400893
 0.005420863
 0.005440834
 0.005460804
 0.005480775
 0.005500745
 0.005520716
 0.005540686
 0.005560657
 0.005580627
 0.005600597
 0.005620568
 0.005640538
 0.005660509
 0.005691372
 0.005722236
 0.005768531
 0.005814826
 0.005876552
 0.005938279
 0.006000006
 0.006000007
 0.006000483
 0.006000682
 0.006000746
 0.006000809
 0.006005986
 0.006015453
 0.00603037
 0.006045288
 0.006060205
 0.006084937
 0.006109669
 0.0061344
 0.006172035
 0.00620967
 0.006266123
 0.006322576
 0.006419351
 0.006564515
 0.006782261
 0.007000007
 0.007000008
 0.007000009
 0.007000009
 0.007000009
 0.007000009
 0.007001448
 0.007021027
 0.007040607
 0.007060187
 0.007079766
 0.007099346
 0.007118925
 0.007138505
 0.007158085
 0.007177664
 0.007197244
 0.007216823
 0.007236403
 0.007255983
 0.007275562
 0.007295142
 0.007314722
 0.007334301
 0.007353881
 0.00737346
 0.00739304
 0.00741262
 0.007432199
 0.007451779
 0.007471359
 0.007490938
 0.007510518
 0.007530097
 0.007549677
 0.007569257
 0.007588836
 0.007608416
 0.007627996
 0.007647575
 0.007676945
 0.007706314
 0.007735683
 0.007779737
 0.007823792
 0.00788253
 0.007941269
 0.008000008
 0.008000009
 0.008000469
 0.008000663
 0.008000725
 0.008000786
 0.008005911
 0.008015289
 0.008030209
 0.008045129
 0.008060049
 0.008084785
 0.008109521
 0.008134256
 0.008173609
 0.008212961
 0.008273503
 0.008334045
 0.008445039
 0.008556033
 0.008778021
 0.009000009
 0.00900001
 0.009000011
 0.009000011
 0.009000011
 0.009000011
 0.009001941
 0.009021135
 0.009040328
 0.009059522
 0.009078715
 0.009097909
 0.009117102
 0.009136295
 0.009155489
 0.009174682
 0.009193876
 0.009213069
 0.009232263
 0.009251456
 0.009270649
 0.009289843
 0.009309036
 0.00932823
 0.009347423
 0.009366617
 0.00938581
 0.009405004
 0.009424197
 0.00944339
 0.009462584
 0.009481777
 0.009500971
 0.009520164
 0.009539358
 0.009558551
 0.009577745
 0.009596938
 0.009616131
 0.009635325
 0.009654518
 0.009685926
 0.009717333
 0.009748741
 0.009798992
 0.009849244
 0.009924622
 0.01
</indep>
<dep _net0.Vt time>
 0.
 0.07999998
 0.16
 0.4499999
 0.7399999
 0.9999998
 0.9999998
 0.9999998
 0.9999998
 0.9999998
 0.9999998
 0.9999998
 0.9999999
 0.9999999
 0.9999999
 0.9999999
 1.
 1.
 1.
 1.
 1.
 1.
 1.
 1.
 1.
 1.
 1.
 1.
 1.
 199.9979E-9
 199.99E-9
 199.9898E-9
 199.9897E-9
 199.9896E-9
 192.7828E-9
 129.6724E-9
 87.2222E-9
 58.66869E-9
 39.4626E-9
 26.54392E-9
 17.85437E-9
 12.00947E-9
 8.077986E-9
 5.433535E-9
 3.654785E-9
 2.458336E-9
 1.653562E-9
 1.112243E-9
 748.134E-12
 503.221E-12
 338.484E-12
 227.676E-12
 153.143E-12
 103.009E-12
 69.288E-12
 46.605E-12
 31.348E-12
 21.086E-12
 14.183E-12
 9.54E-12
 6.417E-12
 4.316E-12
 2.903E-12
 1.953E-12
 1.314E-12
 884.E-15
 594.E-15
 400.E-15
 218.E-15
 119.E-15
 65.E-15
 25.E-15
 10.E-15
 3.E-15
 1.E-15
 0.
 0.9999998
 0.9999998
 0.9999998
 0.9999998
 0.9999998
 0.9999998
 0.9999999
 0.9999999
 0.9999999
 0.9999999
 1.
 1.
 1.
 1.
 1.
 1.
 1.
 1.
 1.
 1.
 1.
 199.9979E-9
 199.9949E-9
 199.9948E-9
 199.9947E-9
 199.9946E-9
 194.1724E-9
 129.528E-9
 86.40516E-9
 57.63891E-9
 38.44961E-9
 25.64886E-9
 17.10977E-9
 11.41354E-9
 7.613711E-9
 5.078933E-9
 3.388041E-9
 2.260085E-9
 1.507651E-9
 1.00572E-9
 670.893E-12
 447.537E-12
 298.542E-12
 199.15E-12
 132.849E-12
 88.62E-12
 59.117E-12
 39.435E-12
 26.306E-12
 17.548E-12
 11.706E-12
 7.809E-12
 5.209E-12
 3.475E-12
 2.318E-12
 1.546E-12
 1.031E-12
 688.E-15
 459.E-15
 306.E-15
 162.E-15
 85.E-15
 31.E-15
 11.E-15
 3.E-15
 1.E-15
 0.
 0.9999998
 0.9999998
 0.9999998
 0.9999998
 0.9999998
 0.9999998
 0.9999999
 0.9999999
 0.9999999
 0.9999999
 1.
 1.
 1.
 1.
 1.
 1.
 1.
 1.
 1.
 1.
 1.
 199.998E-9
 199.9951E-9
 199.9949E-9
 199.9948E-9
 199.9948E-9
 194.3212E-9
 130.686E-9
 87.88972E-9
 59.10811E-9
 39.75173E-9
 26.73407E-9
 17.97935E-9
 12.09158E-9
 8.1319E-9
 5.468913E-9
 3.677985E-9
 2.47354E-9
 1.66352E-9
 1.11876E-9
 752.395E-12
 506.005E-12
 340.302E-12
 228.862E-12
 153.915E-12
 103.512E-12
 69.615E-12
 46.818E-12
 31.486E-12
 21.175E-12
 14.241E-12
 9.577E-12
 6.441E-12
 4.332E-12
 2.913E-12
 1.959E-12
 1.318E-12
 886.E-15
 596.E-15
 401.E-15
 219.E-15
 120.E-15
 65.E-15
 25.E-15
 10.E-15
 3.E-15
 1.E-15
 0.
 0.9999998
 0.9999998
 0.9999998
 0.9999998
 0.9999998
 0.9999998
 0.9999999
 0.9999999
 0.9999999
 0.9999999
 1.
 1.
 1.
 1.
 1.
 1.
 1.
 1.
 1.
 1.
 1.
 199.9979E-9
 199.9949E-9
 199.9948E-9
 199.9947E-9
 199.9946E-9
 192.4191E-9
 130.4495E-9
 88.43758E-9
 59.95579E-9
 40.64671E-9
 27.55623E-9
 18.6816E-9
 12.66509E-9
 8.586233E-9
 5.820991E-9
 3.946311E-9
 2.675381E-9
 1.81376E-9
 1.229629E-9
 833.621E-12
 565.149E-12
 383.14E-12
 259.748E-12
 176.094E-12
 119.382E-12
 80.935E-12
 54.869E-12
 37.198E-12
 25.218E-12
 17.097E-12
 11.591E-12
 7.858E-12
 5.327E-12
 3.612E-12
 2.448E-12
 1.66E-12
 1.125E-12
 763.E-15
 517.E-15
 351.E-15
 183.E-15
 96.E-15
 50.E-15
 17.E-15
 6.E-15
 1.E-15
 0.
</dep>
<dep _net1.Vt time>
 0.
 127.9998E-9
 319.9994E-9
 2.088992E-6
 5.539969E-6
 10.23793E-6
 18.6378E-6
 27.03761E-6
 35.43735E-6
 43.83701E-6
 0.0153572
 0.1048042
 0.2624468
 0.4490543
 0.5884485
 0.7353462
 0.8298107
 0.8905575
 0.9464079
 0.9737569
 0.9915725
 0.9972936
 0.9995583
 1.000017
 0.9999952
 1.000001
 0.9999996
 1.
 0.9999997
 0.9999896
 0.99995
 0.999949
 0.9999486
 0.9999484
 0.9639143
 0.6483623
 0.4361111
 0.2933435
 0.1973131
 0.1327196
 0.08927184
 0.06004735
 0.04038994
 0.02716768
 0.01827393
 0.01229168
 0.008267812
 0.005561218
 0.003740669
 0.002516104
 0.001692419
 0.00113838
 765.7142E-6
 515.0461E-6
 346.438E-6
 233.0263E-6
 156.7416E-6
 105.4299E-6
 70.91586E-6
 47.70051E-6
 32.08506E-6
 21.58156E-6
 14.51654E-6
 9.764368E-6
 6.567888E-6
 4.417825E-6
 2.971617E-6
 1.998847E-6
 1.091618E-6
 596.1806E-9
 325.6219E-9
 126.5799E-9
 49.24492E-9
 12.88694E-9
 3.429615E-9
 969.604E-12
 10.10087E-6
 0.009171844
 0.01300526
 0.01422266
 0.01543855
 0.1114223
 0.2637988
 0.45496
 0.5964846
 0.701261
 0.8197441
 0.8912356
 0.9343727
 0.9714383
 0.9875697
 0.9969449
 0.9992491
 1.000039
 0.999998
 1.000001
 0.9999997
 0.9999896
 0.9999748
 0.9999742
 0.9999736
 0.9999734
 0.970862
 0.6476399
 0.4320259
 0.2881946
 0.1922481
 0.1282443
 0.08554886
 0.0570677
 0.03806856
 0.02539467
 0.01694021
 0.01130043
 0.007538257
 0.0050286
 0.003354464
 0.002237687
 0.00149271
 995.7525E-6
 664.2437E-6
 443.1017E-6
 295.5829E-6
 197.1765E-6
 131.5318E-6
 87.74175E-6
 58.53038E-6
 39.04415E-6
 26.04532E-6
 17.3741E-6
 11.58973E-6
 7.731107E-6
 5.157107E-6
 3.44005E-6
 2.29464E-6
 1.530564E-6
 808.4178E-9
 426.8999E-9
 156.4514E-9
 57.16979E-9
 13.21159E-9
 2.80871E-9
 346.829E-12
 10.10024E-6
 0.009479751
 0.01342485
 0.01467148
 0.01591655
 0.1127968
 0.2662503
 0.456747
 0.5977868
 0.7022097
 0.8203007
 0.8915618
 0.9345637
 0.9703497
 0.9865649
 0.9962604
 0.9989591
 0.9999829
 1.000003
 0.9999988
 1.
 0.9999903
 0.9999755
 0.9999749
 0.9999743
 0.9999741
 0.9716061
 0.6534302
 0.4394487
 0.2955406
 0.1987587
 0.1336704
 0.08989678
 0.06045791
 0.04065951
 0.02734457
 0.01838993
 0.0123677
 0.008317601
 0.005593802
 0.003761976
 0.002530027
 0.001701508
 0.001144308
 769.5772E-6
 517.5607E-6
 348.073E-6
 234.0882E-6
 157.4305E-6
 105.8762E-6
 71.2046E-6
 47.88705E-6
 32.20539E-6
 21.65907E-6
 14.5664E-6
 9.796395E-6
 6.588443E-6
 4.431012E-6
 2.980084E-6
 2.004298E-6
 1.094426E-6
 597.6712E-9
 326.463E-9
 127.0004E-9
 49.53569E-9
 13.13347E-9
 3.671389E-9
 1.211897E-9
 10.10111E-6
 0.009171844
 0.01300565
 0.01422305
 0.01543895
 0.1114227
 0.263799
 0.4549603
 0.5964847
 0.7012611
 0.8197442
 0.8912356
 0.9343728
 0.9714383
 0.9875697
 0.9969449
 0.9992491
 1.000039
 0.999998
 1.000001
 0.9999997
 0.9999896
 0.9999748
 0.9999742
 0.9999736
 0.9999734
 0.9620959
 0.6522478
 0.442188
 0.299779
 0.2032336
 0.1377812
 0.09340802
 0.06332547
 0.04293117
 0.02910496
 0.01973156
 0.01337691
 0.009068803
 0.006148147
 0.004168104
 0.002825744
 0.001915699
 0.001298738
 880.4726E-6
 596.9119E-6
 404.6733E-6
 274.3462E-6
 185.9917E-6
 126.0921E-6
 85.48358E-6
 57.95322E-6
 39.28916E-6
 26.63595E-6
 18.05778E-6
 12.24225E-6
 8.299647E-6
 5.626778E-6
 3.81472E-6
 2.586245E-6
 1.753407E-6
 915.3626E-9
 477.9169E-9
 249.5772E-9
 82.79158E-9
 27.56918E-9
 4.072388E-9
 773.553E-12
</dep>
<dep Pr1.Vt time>
 0.
 127.9998E-9
 319.9994E-9
 2.088992E-6
 5.539969E-6
 10.23793E-6
 18.6378E-6
 27.03761E-6
 35.43735E-6
 43.83701E-6
 0.0153572
 0.1048042
 0.2624468
 0.4490543
 0.5884485
 0.7353462
 0.8298107
 0.8905575
 0.9464079
 0.9737569
 0.9915725
 0.9972936
 0.9995583
 1.000017
 0.9999952
 1.000001
 0.9999996
 1.
 0.9999997
 0.9999896
 0.99995
 0.999949
 0.9999486
 0.9999484
 0.9639143
 0.6483623
 0.4361111
 0.2933435
 0.1973131
 0.1327196
 0.08927184
 0.06004735
 0.04038994
 0.02716768
 0.01827393
 0.01229168
 0.008267812
 0.005561218
 0.003740669
 0.002516104
 0.001692419
 0.00113838
 765.7142E-6
 515.0461E-6
 346.438E-6
 233.0263E-6
 156.7416E-6
 105.4299E-6
 70.91586E-6
 47.70051E-6
 32.08506E-6
 21.58156E-6
 14.51654E-6
 9.764368E-6
 6.567888E-6
 4.417825E-6
 2.971617E-6
 1.998847E-6
 1.091618E-6
 596.1806E-9
 325.6219E-9
 126.5799E-9
 49.24492E-9
 12.88694E-9
 3.429615E-9
 969.604E-12
 10.10087E-6
 0.009171844
 0.01300526
 0.01422266
 0.01543855
 0.1114223
 0.2637988
 0.45496
 0.5964846
 0.701261
 0.8197441
 0.8912356
 0.9343727
 0.9714383
 0.9875697
 0.9969449
 0.9992491
 1.000039
 0.999998
 1.000001
 0.9999997
 0.9999896
 0.9999748
 0.9999742
 0.9999736
 0.9999734
 0.970862
 0.6476399
 0.4320259
 0.2881946
 0.1922481
 0.1282443
 0.08554886
 0.0570677
 0.03806856
 0.02539467
 0.01694021
 0.01130043
 0.007538257
 0.0050286
 0.003354464
 0.002237687
 0.00149271
 995.7525E-6
 664.2437E-6
 443.1017E-6
 295.5829E-6
 197.1765E-6
 131.5318E-6
 87.74175E-6
 58.53038E-6
 39.04415E-6
 26.04532E-6
 17.3741E-6
 11.58973E-6
 7.731107E-6
 5.157107E-6
 3.44005E-6
 2.29464E-6
 1.530564E-6
 808.4178E-9
 426.8999E-9
 156.4514E-9
 57.16979E-9
 13.21159E-9
 2.80871E-9
 346.829E-12
 10.10024E-6
 0.009479751
 0.01342485
 0.01467148
 0.01591655
 0.1127968
 0.2662503
 0.456747
 0.5977868
 0.7022097
 0.8203007
 0.8915618
 0.9345637
 0.9703497
 0.9865649
 0.9962604
 0.9989591
 0.9999829
 1.000003
 0.9999988
 1.
 0.9999903
 0.9999755
 0.9999749
 0.9999743
 0.9999741
 0.9716061
 0.6534302
 0.4394487
 0.2955406
 0.1987587
 0.1336704
 0.08989678
 0.06045791
 0.04065951
 0.02734457
 0.01838993
 0.0123677
 0.008317601
 0.005593802
 0.003761976
 0.002530027
 0.001701508
 0.001144308
 769.5772E-6
 517.5607E-6
 348.073E-6
 234.0882E-6
 157.4305E-6
 105.8762E-6
 71.2046E-6
 47.88705E-6
 32.20539E-6
 21.65907E-6
 14.5664E-6
 9.796395E-6
 6.588443E-6
 4.431012E-6
 2.980084E-6
 2.004298E-6
 1.094426E-6
 597.6712E-9
 326.463E-9
 127.0004E-9
 49.53569E-9
 13.13347E-9
 3.671389E-9
 1.211897E-9
 10.10111E-6
 0.009171844
 0.01300565
 0.01422305
 0.01543895
 0.1114227
 0.263799
 0.4549603
 0.5964847
 0.7012611
 0.8197442
 0.8912356
 0.9343728
 0.9714383
 0.9875697
 0.9969449
 0.9992491
 1.000039
 0.999998
 1.000001
 0.9999997
 0.9999896
 0.9999748
 0.9999742
 0.9999736
 0.9999734
 0.9620959
 0.6522478
 0.442188
 0.299779
 0.2032336
 0.1377812
 0.09340802
 0.06332547
 0.04293117
 0.02910496
 0.01973156
 0.01337691
 0.009068803
 0.006148147
 0.004168104
 0.002825744
 0.001915699
 0.001298738
 880.4726E-6
 596.9119E-6
 404.6733E-6
 274.3462E-6
 185.9917E-6
 126.0921E-6
 85.48358E-6
 57.95322E-6
 39.28916E-6
 26.63595E-6
 18.05778E-6
 12.24225E-6
 8.299647E-6
 5.626778E-6
 3.81472E-6
 2.586245E-6
 1.753407E-6
 915.3626E-9
 477.9169E-9
 249.5772E-9
 82.79159E-9
 27.56918E-9
 4.072388E-9
 773.553E-12
</dep>
