<Qucs Dataset>
default plugins: ignored
;: already installed, replacing
stashing as ;:0
*: already installed, replacing
stashing as *:0
': already installed, replacing
stashing as ':0
": already installed, replacing
stashing as ":0
d: already installed, replacing
stashing as d:0
diode: already installed, replacing
stashing as diode:0
npn: already installed, replacing
stashing as npn:0
pnp: already installed, replacing
stashing as pnp:0
npn1: already installed, replacing
stashing as npn1:0
pnp1: already installed, replacing
stashing as pnp1:0
Q: already installed, replacing
stashing as Q:0
bjt: already installed, replacing
stashing as bjt:0
C:C1 gnd OUT C="680 pF" V="" 
                        ^ ? C1: V has no value?
parameter Z_Diodes_1N4728A not specified, using default
parameter Z_Diodes_1N4728A value is "NOT_INPUT"
parameter Z_Diodes_1N4728A not specified, using default
parameter Z_Diodes_1N4728A value is "NOT_INPUT"
parameter Z_Diodes_1N4728A not specified, using default
parameter Z_Diodes_1N4728A value is "NOT_INPUT"
parameter Z_Diodes_1N4728A not specified, using default
parameter Z_Diodes_1N4728A value is "NOT_INPUT"
parameter Z_Diodes_1N4728A not specified, using default
parameter Z_Diodes_1N4728A value is "NOT_INPUT"
parameter Z_Diodes_1N4728A not specified, using default
parameter Z_Diodes_1N4728A value is "NOT_INPUT"
parameter Z_Diodes_1N4728A not specified, using default
parameter Z_Diodes_1N4728A value is "NOT_INPUT"
Gnucap   System status
iterations: op=0, dc=0, tran=2936, fourier=0, total=3141
transient timesteps: accepted=200, rejected=72, total=272
transient timesteps: accepted=0, rejected=0, total=0
nodes: user=7, subckt=1, model=8, total=16
dctran density=39.8%, ac density=39.8%

<indep time 200>
 0.
 1.E-9
 2.E-9
 3.E-9
 4.E-9
 7.154817E-9
 9.560982E-9
 11.96715E-9
 16.58851E-9
 49.32149E-9
 124.764E-9
 143.6246E-9
 161.2286E-9
 163.4891E-9
 164.2086E-9
 164.5283E-9
 165.2236E-9
 166.9258E-9
 167.3514E-9
 168.5181E-9
 169.1015E-9
 169.296E-9
 169.4904E-9
 169.6849E-9
 169.7914E-9
 169.8655E-9
 169.9395E-9
 170.0136E-9
 170.0876E-9
 170.1427E-9
 170.1977E-9
 170.2528E-9
 170.3078E-9
 170.3629E-9
 170.4179E-9
 170.5107E-9
 170.6035E-9
 170.7656E-9
 170.9277E-9
 171.2688E-9
 171.6099E-9
 171.951E-9
 172.2921E-9
 172.6331E-9
 172.9742E-9
 173.3153E-9
 173.9055E-9
 174.4958E-9
 175.4009E-9
 176.3061E-9
 177.2113E-9
 178.7687E-9
 180.3261E-9
 183.0504E-9
 185.7746E-9
 190.9328E-9
 196.091E-9
 208.0748E-9
 220.0587E-9
 257.9467E-9
 328.4255E-9
 446.6389E-9
 624.6712E-9
 1.098467E-6
 1.459736E-6
 1.671145E-6
 1.741615E-6
 1.79575E-6
 1.836804E-6
 1.877858E-6
 1.918913E-6
 1.959967E-6
 2.001021E-6
 2.042075E-6
 2.08313E-6
 2.124184E-6
 2.165238E-6
 2.229373E-6
 2.293509E-6
 2.357644E-6
 2.458529E-6
 2.559413E-6
 2.660298E-6
 2.828026E-6
 2.995754E-6
 3.163482E-6
 3.443029E-6
 3.722577E-6
 4.002124E-6
 4.474812E-6
 4.947501E-6
 5.42019E-6
 6.213087E-6
 7.005984E-6
 7.798881E-6
 9.104829E-6
 10.41078E-6
 11.71673E-6
 13.7482E-6
 15.77968E-6
 17.81115E-6
 18.19205E-6
 18.31505E-6
 18.33939E-6
 18.36797E-6
 18.37883E-6
 18.38435E-6
 18.38852E-6
 18.38891E-6
 18.38978E-6
 18.39034E-6
 18.39079E-6
 18.39193E-6
 18.39306E-6
 18.39335E-6
 18.3938E-6
 18.39414E-6
 18.39431E-6
 18.39442E-6
 18.39453E-6
 18.39463E-6
 18.39474E-6
 18.39485E-6
 18.39492E-6
 18.39499E-6
 18.39505E-6
 18.3951E-6
 18.39516E-6
 18.39521E-6
 18.39527E-6
 18.39532E-6
 18.39538E-6
 18.39543E-6
 18.39554E-6
 18.39564E-6
 18.39582E-6
 18.39599E-6
 18.39638E-6
 18.39677E-6
 18.39716E-6
 18.39746E-6
 18.39776E-6
 18.39806E-6
 18.39857E-6
 18.39909E-6
 18.39989E-6
 18.40069E-6
 18.40149E-6
 18.40284E-6
 18.4042E-6
 18.40648E-6
 18.40876E-6
 18.41281E-6
 18.41686E-6
 18.42593E-6
 18.435E-6
 18.45945E-6
 18.50251E-6
 18.59676E-6
 18.691E-6
 19.01411E-6
 19.33723E-6
 19.57956E-6
 19.88605E-6
 20.03929E-6
 20.11897E-6
 20.19866E-6
 20.24791E-6
 20.3247E-6
 20.377E-6
 20.46216E-6
 20.54732E-6
 20.63248E-6
 20.71764E-6
 20.80279E-6
 20.88795E-6
 20.97311E-6
 21.05827E-6
 21.14343E-6
 21.27179E-6
 21.40014E-6
 21.5285E-6
 21.65686E-6
 21.8555E-6
 22.05415E-6
 22.2528E-6
 22.45144E-6
 22.76596E-6
 23.08049E-6
 23.39501E-6
 23.70953E-6
 24.19342E-6
 24.6773E-6
 25.16118E-6
 25.85244E-6
 26.5437E-6
 27.23496E-6
 28.15664E-6
 29.07832E-6
 30.E-6
</indep>
<dep OUT.Vt time>
 3.716178
 3.716178
 3.716249
 3.71639
 3.716458
 3.716451
 3.716445
 3.716438
 3.716425
 3.716277
 3.713975
 3.713504
 3.701927
 3.697962
 3.69722
 3.697955
 3.704013
 3.681096
 3.667482
 3.542508
 3.388539
 3.310075
 3.213639
 3.093345
 3.01566
 2.956084
 2.89158
 2.821834
 2.746606
 2.687005
 2.624893
 2.560651
 2.496643
 2.433509
 2.371335
 2.269993
 2.173195
 2.02165
 1.888235
 1.662653
 1.492496
 1.365469
 1.268262
 1.192563
 1.132687
 1.084664
 1.021207
 0.9763262
 0.9284659
 0.8980387
 0.87711
 0.8539813
 0.841266
 0.8287089
 0.823253
 0.8182399
 0.8164272
 0.8137656
 0.8123373
 0.8094909
 0.8083642
 0.806861
 0.8051068
 0.802792
 0.805539
 0.8186937
 0.8372029
 0.8631469
 0.8837583
 0.9035236
 0.916337
 0.9244764
 0.9326108
 0.9403045
 0.947921
 0.955367
 0.9628559
 0.9743852
 0.985949
 0.9974052
 1.015476
 1.033449
 1.051469
 1.081315
 1.111213
 1.141035
 1.190812
 1.240519
 1.290284
 1.374329
 1.458432
 1.542455
 1.683448
 1.824349
 1.965275
 2.197162
 2.429038
 2.660655
 3.020521
 3.379733
 3.733831
 3.789538
 3.798416
 3.797599
 3.793126
 3.790054
 3.785771
 3.776795
 3.775821
 3.780781
 3.776708
 3.77815
 3.753183
 3.671925
 3.634131
 3.532124
 3.425826
 3.349703
 3.29543
 3.234068
 3.164882
 3.08695
 2.999301
 2.934646
 2.864958
 2.807526
 2.746928
 2.683357
 2.617553
 2.551075
 2.485622
 2.421108
 2.357836
 2.246087
 2.140977
 1.979594
 1.839985
 1.601572
 1.428492
 1.303337
 1.228987
 1.168812
 1.11961
 1.053382
 1.005104
 0.9520814
 0.9172691
 0.8928507
 0.8655898
 0.8499535
 0.8344999
 0.8272305
 0.8206853
 0.8182225
 0.8153167
 0.8139144
 0.8110565
 0.8093448
 0.8078324
 0.8068022
 0.8039125
 0.8026725
 0.8037649
 0.8134683
 0.8551034
 0.8933214
 0.9186886
 0.9284647
 0.9429834
 0.952589
 0.9680917
 0.9833466
 0.9986835
 1.013833
 1.029107
 1.044223
 1.059468
 1.074571
 1.089801
 1.112588
 1.135497
 1.15828
 1.18118
 1.216466
 1.251866
 1.287147
 1.32254
 1.378426
 1.434421
 1.490297
 1.546279
 1.632247
 1.71832
 1.804261
 1.927141
 2.049878
 2.172696
 2.336231
 2.499835
 2.663207
</dep>
<dep UCON.Vt time>
 13.43631
 13.43631
 13.43631
 13.43631
 13.43631
 13.43631
 13.43631
 13.43631
 13.43631
 13.43631
 13.43631
 13.43631
 13.43631
 13.43631
 13.43631
 13.43631
 13.43631
 13.43631
 13.43631
 13.43631
 13.43631
 13.43631
 13.43631
 13.43631
 13.43631
 13.43631
 13.43631
 13.43631
 13.43631
 13.43631
 13.43631
 13.43631
 13.43631
 13.43631
 13.43631
 13.43631
 13.43631
 13.43631
 13.43631
 13.43631
 13.43631
 13.43631
 13.43631
 13.43631
 13.43631
 13.43631
 13.43631
 13.43631
 13.43631
 13.43631
 13.43631
 13.43631
 13.43631
 13.43631
 13.43631
 13.43631
 13.43631
 13.43631
 13.43631
 13.43631
 13.43631
 13.43631
 13.43631
 13.43631
 13.43631
 13.43631
 13.43631
 13.43631
 13.43631
 13.43631
 13.43631
 13.43631
 13.43631
 13.43631
 13.43631
 13.43631
 13.43631
 13.43631
 13.43631
 13.43631
 13.43631
 13.43631
 13.43631
 13.43631
 13.43631
 13.43631
 13.43631
 13.43631
 13.43631
 13.43631
 13.43631
 13.43631
 13.43631
 13.43631
 13.43631
 13.43631
 13.43631
 13.43631
 13.43631
 13.43631
 13.43631
 13.43631
 13.43631
 13.43631
 13.43631
 13.43631
 13.43631
 13.43631
 13.43631
 13.43631
 13.43631
 13.43631
 13.43631
 13.43631
 13.43631
 13.43631
 13.43631
 13.43631
 13.43631
 13.43631
 13.43631
 13.43631
 13.43631
 13.43631
 13.43631
 13.43631
 13.43631
 13.43631
 13.43631
 13.43631
 13.43631
 13.43631
 13.43631
 13.43631
 13.43631
 13.43631
 13.43631
 13.43631
 13.43631
 13.43631
 13.43631
 13.43631
 13.43631
 13.43631
 13.43631
 13.43631
 13.43631
 13.43631
 13.43631
 13.43631
 13.43631
 13.43631
 13.43631
 13.43631
 13.43631
 13.43631
 13.43631
 13.43631
 13.43631
 13.43631
 13.43631
 13.43631
 13.43631
 13.43631
 13.43631
 13.43631
 13.43631
 13.43631
 13.43631
 13.43631
 13.43631
 13.43631
 13.43631
 13.43631
 13.43631
 13.43631
 13.43631
 13.43631
 13.43631
 13.43631
 13.43631
 13.43631
 13.43631
 13.43631
 13.43631
 13.43631
 13.43631
 13.43631
 13.43631
 13.43631
 13.43631
 13.43631
 13.43631
 13.43631
 13.43631
 13.43631
 13.43631
 13.43631
 13.43631
 13.43631
</dep>
<dep UTOP.Vt time>
 3.125251
 3.125251
 3.125256
 3.125261
 3.125253
 3.125218
 3.125195
 3.12517
 3.125119
 3.124583
 3.116763
 3.11145
 3.06172
 3.045881
 3.038956
 3.036069
 3.027894
 2.961803
 2.932167
 2.718381
 2.486336
 2.374261
 2.23752
 2.070242
 1.963634
 1.882597
 1.795486
 1.702176
 1.602825
 1.525427
 1.450086
 1.380836
 1.315363
 1.25304
 1.195359
 1.108341
 1.030531
 0.9131919
 0.8133576
 0.648426
 0.527476
 0.4385617
 0.3718687
 0.320946
 0.2814413
 0.2503519
 0.2103247
 0.1829061
 0.1551332
 0.1385823
 0.1280894
 0.1176628
 0.1125784
 0.10825
 0.1066262
 0.1053522
 0.1050632
 0.1048408
 0.1049806
 0.1057551
 0.1081349
 0.1123684
 0.1195507
 0.1451127
 0.1762799
 0.227739
 0.5214721
 1.229948
 1.976773
 2.726555
 3.065723
 3.111348
 3.150321
 3.166095
 3.185638
 3.193177
 3.205185
 3.212239
 3.222005
 3.224487
 3.23221
 3.233172
 3.237452
 3.237246
 3.240373
 3.238836
 3.241397
 3.239599
 3.241771
 3.239898
 3.241976
 3.240034
 3.242063
 3.240118
 3.242104
 3.240163
 3.242133
 3.240189
 3.242148
 3.240208
 3.24182
 3.229966
 3.210865
 3.199607
 3.179931
 3.160379
 3.143518
 3.113313
 3.109312
 3.099753
 3.088352
 3.079134
 3.025492
 2.881442
 2.819708
 2.668141
 2.509689
 2.400532
 2.32386
 2.23807
 2.142138
 2.035085
 1.915814
 1.82869
 1.735545
 1.659668
 1.580579
 1.500989
 1.428401
 1.359952
 1.294608
 1.233747
 1.177894
 1.085322
 1.002782
 0.8798484
 0.7765868
 0.603979
 0.4820815
 0.395432
 0.3449895
 0.3048765
 0.272616
 0.2301538
 0.2000275
 0.1682968
 0.1485124
 0.1355418
 0.122324
 0.1155323
 0.1097014
 0.1073306
 0.1054547
 0.10492
 0.1044715
 0.1045009
 0.1047487
 0.1059968
 0.1091419
 0.1126579
 0.1265835
 0.1445409
 0.1624696
 0.2100155
 1.083919
 2.411161
 3.101359
 3.134596
 3.182492
 3.190363
 3.213579
 3.217587
 3.229714
 3.228536
 3.236481
 3.233435
 3.239485
 3.235812
 3.240881
 3.237249
 3.241876
 3.238061
 3.242279
 3.238553
 3.24258
 3.238848
 3.242695
 3.239042
 3.242795
 3.239169
 3.24283
 3.239258
 3.242864
 3.23932
 3.242882
 3.239366
 3.24289
 3.239399
 3.242897
 3.239423
</dep>
<dep _net0.Vt time>
 14.15651
 14.15651
 14.15651
 14.15651
 14.15651
 14.15651
 14.15651
 14.15651
 14.15651
 14.15651
 14.15651
 14.15651
 14.15651
 14.15651
 14.15651
 14.15651
 14.15651
 14.15651
 14.15651
 14.15651
 14.15651
 14.15651
 14.15651
 14.15651
 14.15651
 14.15651
 14.15651
 14.15651
 14.15651
 14.15651
 14.15651
 14.15651
 14.15651
 14.15651
 14.15651
 14.15651
 14.15651
 14.15651
 14.15651
 14.15651
 14.15651
 14.15651
 14.15651
 14.15651
 14.15651
 14.15651
 14.15651
 14.15651
 14.15651
 14.15651
 14.15651
 14.15651
 14.15651
 14.15651
 14.15651
 14.15651
 14.15651
 14.15651
 14.15651
 14.15651
 14.15651
 14.15651
 14.15651
 14.15651
 14.15651
 14.15651
 14.15651
 14.15651
 14.15651
 14.15651
 14.15651
 14.15651
 14.15651
 14.15651
 14.15651
 14.15651
 14.15651
 14.15651
 14.15651
 14.15651
 14.15651
 14.15651
 14.15651
 14.15651
 14.15651
 14.15651
 14.15651
 14.15651
 14.15651
 14.15651
 14.15651
 14.15651
 14.15651
 14.15651
 14.15651
 14.15651
 14.15651
 14.15651
 14.15651
 14.15651
 14.15651
 14.15651
 14.15651
 14.15651
 14.15651
 14.15651
 14.15651
 14.15651
 14.15651
 14.15651
 14.15651
 14.15651
 14.15651
 14.15651
 14.15651
 14.15651
 14.15651
 14.15651
 14.15651
 14.15651
 14.15651
 14.15651
 14.15651
 14.15651
 14.15651
 14.15651
 14.15651
 14.15651
 14.15651
 14.15651
 14.15651
 14.15651
 14.15651
 14.15651
 14.15651
 14.15651
 14.15651
 14.15651
 14.15651
 14.15651
 14.15651
 14.15651
 14.15651
 14.15651
 14.15651
 14.15651
 14.15651
 14.15651
 14.15651
 14.15651
 14.15651
 14.15651
 14.15651
 14.15651
 14.15651
 14.15651
 14.15651
 14.15651
 14.15651
 14.15651
 14.15651
 14.15651
 14.15651
 14.15651
 14.15651
 14.15651
 14.15651
 14.15651
 14.15651
 14.15651
 14.15651
 14.15651
 14.15651
 14.15651
 14.15651
 14.15651
 14.15651
 14.15651
 14.15651
 14.15651
 14.15651
 14.15651
 14.15651
 14.15651
 14.15651
 14.15651
 14.15651
 14.15651
 14.15651
 14.15651
 14.15651
 14.15651
 14.15651
 14.15651
 14.15651
 14.15651
 14.15651
 14.15651
 14.15651
 14.15651
</dep>
<dep _net1.Vt time>
 15.
 15.
 15.
 15.
 15.
 15.
 15.
 15.
 15.
 15.
 15.
 15.
 15.
 15.
 15.
 15.
 15.
 15.
 15.
 15.
 15.
 15.
 15.
 15.
 15.
 15.
 15.
 15.
 15.
 15.
 15.
 15.
 15.
 15.
 15.
 15.
 15.
 15.
 15.
 15.
 15.
 15.
 15.
 15.
 15.
 15.
 15.
 15.
 15.
 15.
 15.
 15.
 15.
 15.
 15.
 15.
 15.
 15.
 15.
 15.
 15.
 15.
 15.
 15.
 15.
 15.
 15.
 15.
 15.
 15.
 15.
 15.
 15.
 15.
 15.
 15.
 15.
 15.
 15.
 15.
 15.
 15.
 15.
 15.
 15.
 15.
 15.
 15.
 15.
 15.
 15.
 15.
 15.
 15.
 15.
 15.
 15.
 15.
 15.
 15.
 15.
 15.
 15.
 15.
 15.
 15.
 15.
 15.
 15.
 15.
 15.
 15.
 15.
 15.
 15.
 15.
 15.
 15.
 15.
 15.
 15.
 15.
 15.
 15.
 15.
 15.
 15.
 15.
 15.
 15.
 15.
 15.
 15.
 15.
 15.
 15.
 15.
 15.
 15.
 15.
 15.
 15.
 15.
 15.
 15.
 15.
 15.
 15.
 15.
 15.
 15.
 15.
 15.
 15.
 15.
 15.
 15.
 15.
 15.
 15.
 15.
 15.
 15.
 15.
 15.
 15.
 15.
 15.
 15.
 15.
 15.
 15.
 15.
 15.
 15.
 15.
 15.
 15.
 15.
 15.
 15.
 15.
 15.
 15.
 15.
 15.
 15.
 15.
 15.
 15.
 15.
 15.
 15.
 15.
 15.
 15.
 15.
 15.
 15.
 15.
</dep>
<dep _net2.Vt time>
 0.7545044
 0.7545044
 0.7545052
 0.7545072
 0.7545099
 0.7545193
 0.7545269
 0.7545348
 0.754551
 0.7547208
 0.7571088
 0.7587168
 0.7712404
 0.7752483
 0.7771704
 0.7782844
 0.782116
 0.8109825
 0.8253699
 0.9451071
 1.074738
 1.135348
 1.208889
 1.296933
 1.352151
 1.393486
 1.437311
 1.483203
 1.530201
 1.564712
 1.586316
 1.586561
 1.579959
 1.569879
 1.553639
 1.515832
 1.473029
 1.400854
 1.335302
 1.222022
 1.136137
 1.071566
 1.022169
 0.9837568
 0.9534406
 0.9291985
 0.8973939
 0.8751718
 0.8522607
 0.8384344
 0.8296054
 0.8208053
 0.8165258
 0.8129039
 0.8115643
 0.8104986
 0.8102127
 0.8097798
 0.8095363
 0.8087668
 0.8078665
 0.8064088
 0.8045593
 0.8008602
 0.799244
 0.7982331
 0.7936141
 0.7866444
 0.7831404
 0.7785752
 0.7688794
 0.7568299
 0.7465517
 0.7371453
 0.7289511
 0.7212281
 0.7143741
 0.7042107
 0.6952646
 0.6867273
 0.6748504
 0.6638515
 0.6545098
 0.6403309
 0.6294868
 0.619901
 0.6082284
 0.5984809
 0.5916303
 0.5812202
 0.5741559
 0.5673888
 0.5595606
 0.5523051
 0.5473441
 0.5392392
 0.5337236
 0.5279898
 0.5218709
 0.5157037
 0.5863872
 0.6751492
 0.708933
 0.7174716
 0.7326248
 0.7424464
 0.7509002
 0.7633881
 0.7651724
 0.7711813
 0.776537
 0.7827454
 0.8111262
 0.8925825
 0.9277262
 1.010596
 1.098418
 1.158025
 1.199348
 1.244933
 1.295397
 1.350938
 1.411886
 1.455525
 1.501268
 1.537245
 1.573167
 1.602205
 1.606421
 1.600318
 1.591207
 1.576187
 1.555046
 1.508522
 1.45997
 1.38152
 1.312216
 1.191854
 1.104207
 1.040471
 1.002662
 0.9721246
 0.9472038
 0.9138125
 0.8896486
 0.8637057
 0.8472787
 0.8364049
 0.8252574
 0.8195256
 0.8146192
 0.8126491
 0.811094
 0.8106412
 0.8101468
 0.8099597
 0.8093561
 0.808713
 0.8074332
 0.8063644
 0.8031278
 0.8009438
 0.7997318
 0.7985442
 0.7893446
 0.7797342
 0.7624679
 0.7491433
 0.7319913
 0.7219745
 0.7078758
 0.6953297
 0.6844843
 0.6742082
 0.6654415
 0.6567649
 0.6497327
 0.6424238
 0.6368839
 0.6280806
 0.6217735
 0.6149525
 0.6104162
 0.6025224
 0.5973995
 0.5914083
 0.5877935
 0.5807813
 0.5764869
 0.5710817
 0.5680204
 0.5617823
 0.5581161
 0.5531723
 0.5490753
 0.5437941
 0.540876
 0.5354246
 0.5323804
 0.5279017
</dep>
<dep _net3.Vt time>
 14.21815
 14.21815
 14.21815
 14.21815
 14.21815
 14.21815
 14.21815
 14.21815
 14.21815
 14.21815
 14.21815
 14.21815
 14.21815
 14.21815
 14.21815
 14.21815
 14.21815
 14.21815
 14.21815
 14.21815
 14.21815
 14.21815
 14.21815
 14.21815
 14.21815
 14.21815
 14.21815
 14.21815
 14.21815
 14.21815
 14.21815
 14.21815
 14.21815
 14.21815
 14.21815
 14.21815
 14.21815
 14.21815
 14.21815
 14.21815
 14.21815
 14.21815
 14.21815
 14.21815
 14.21815
 14.21815
 14.21815
 14.21815
 14.21815
 14.21815
 14.21815
 14.21815
 14.21815
 14.21815
 14.21815
 14.21815
 14.21815
 14.21815
 14.21815
 14.21815
 14.21815
 14.21815
 14.21815
 14.21815
 14.21815
 14.21815
 14.21815
 14.21815
 14.21815
 14.21815
 14.21815
 14.21815
 14.21815
 14.21815
 14.21815
 14.21815
 14.21815
 14.21815
 14.21815
 14.21815
 14.21815
 14.21815
 14.21815
 14.21815
 14.21815
 14.21815
 14.21815
 14.21815
 14.21815
 14.21815
 14.21815
 14.21815
 14.21815
 14.21815
 14.21815
 14.21815
 14.21815
 14.21815
 14.21815
 14.21815
 14.21815
 14.21815
 14.21815
 14.21815
 14.21815
 14.21815
 14.21815
 14.21815
 14.21815
 14.21815
 14.21815
 14.21815
 14.21815
 14.21815
 14.21815
 14.21815
 14.21815
 14.21815
 14.21815
 14.21815
 14.21815
 14.21815
 14.21815
 14.21815
 14.21815
 14.21815
 14.21815
 14.21815
 14.21815
 14.21815
 14.21815
 14.21815
 14.21815
 14.21815
 14.21815
 14.21815
 14.21815
 14.21815
 14.21815
 14.21815
 14.21815
 14.21815
 14.21815
 14.21815
 14.21815
 14.21815
 14.21815
 14.21815
 14.21815
 14.21815
 14.21815
 14.21815
 14.21815
 14.21815
 14.21815
 14.21815
 14.21815
 14.21815
 14.21815
 14.21815
 14.21815
 14.21815
 14.21815
 14.21815
 14.21815
 14.21815
 14.21815
 14.21815
 14.21815
 14.21815
 14.21815
 14.21815
 14.21815
 14.21815
 14.21815
 14.21815
 14.21815
 14.21815
 14.21815
 14.21815
 14.21815
 14.21815
 14.21815
 14.21815
 14.21815
 14.21815
 14.21815
 14.21815
 14.21815
 14.21815
 14.21815
 14.21815
 14.21815
 14.21815
 14.21815
 14.21815
 14.21815
 14.21815
 14.21815
 14.21815
</dep>
