<Qucs Dataset>
default plugins: ignored
clear: already installed, replacing
stashing as clear:0
;: already installed, replacing
stashing as ;:0
*: already installed, replacing
stashing as *:0
': already installed, replacing
stashing as ':0
": already installed, replacing
stashing as ":0
T: already installed, replacing
stashing as T:0
tline: already installed, replacing
stashing as tline:0
C:C1 gnd OUT C="680 pF" V="" 
                        ^ ? C1: V has no value?
parameter Z_Diodes_1N4728A not specified, using default
parameter Z_Diodes_1N4728A value is "NOT_INPUT"
parameter Z_Diodes_1N4728A not specified, using default
parameter Z_Diodes_1N4728A value is "NOT_INPUT"
parameter Z_Diodes_1N4728A not specified, using default
parameter Z_Diodes_1N4728A value is "NOT_INPUT"
parameter Z_Diodes_1N4728A not specified, using default
parameter Z_Diodes_1N4728A value is "NOT_INPUT"
parameter Z_Diodes_1N4728A not specified, using default
parameter Z_Diodes_1N4728A value is "NOT_INPUT"
parameter Z_Diodes_1N4728A not specified, using default
parameter Z_Diodes_1N4728A value is "NOT_INPUT"
parameter Z_Diodes_1N4728A not specified, using default
parameter Z_Diodes_1N4728A value is "NOT_INPUT"
parameter Z_Diodes_1N4728A not specified, using default
parameter Z_Diodes_1N4728A value is "NOT_INPUT"
open circuit: internal node 6
open circuit: internal node 6
open circuit: internal node 6
Gnucap   System status
iterations: op=0, dc=0, tran=3296, fourier=0, total=3549
transient timesteps: accepted=246, rejected=78, total=324
transient timesteps: accepted=0, rejected=0, total=0
nodes: user=7, subckt=1, model=8, total=16
dctran density=39.8%, ac density=39.8%

<indep time 246>
 0.
 1.E-9
 2.E-9
 3.E-9
 4.E-9
 7.154817E-9
 9.560982E-9
 11.96715E-9
 16.58851E-9
 49.32149E-9
 124.764E-9
 143.6246E-9
 161.146E-9
 163.401E-9
 164.1358E-9
 164.7231E-9
 165.27E-9
 167.0382E-9
 167.4803E-9
 168.2179E-9
 168.2779E-9
 169.1044E-9
 169.7384E-9
 169.8776E-9
 170.0169E-9
 170.1409E-9
 170.265E-9
 170.389E-9
 170.4803E-9
 170.5717E-9
 170.6364E-9
 170.7011E-9
 170.7657E-9
 170.8174E-9
 170.869E-9
 170.9206E-9
 170.9722E-9
 171.0238E-9
 171.1077E-9
 171.1916E-9
 171.3359E-9
 171.4803E-9
 171.7668E-9
 172.0533E-9
 172.3398E-9
 172.6263E-9
 172.9129E-9
 173.1994E-9
 173.4859E-9
 173.9594E-9
 174.4328E-9
 175.1606E-9
 175.8884E-9
 176.6162E-9
 177.8475E-9
 179.0788E-9
 181.1139E-9
 183.149E-9
 186.6177E-9
 190.0864E-9
 197.4889E-9
 204.8914E-9
 223.4207E-9
 253.4072E-9
 330.6711E-9
 407.935E-9
 591.7366E-9
 954.8016E-9
 1.586219E-6
 1.819119E-6
 1.962899E-6
 2.106679E-6
 2.214792E-6
 2.322906E-6
 2.508658E-6
 2.694411E-6
 2.880163E-6
 3.065915E-6
 3.251668E-6
 3.43742E-6
 3.623172E-6
 3.808925E-6
 3.994677E-6
 4.180429E-6
 4.366182E-6
 4.551934E-6
 4.737686E-6
 4.923438E-6
 5.109191E-6
 5.294943E-6
 5.480695E-6
 5.666448E-6
 5.8522E-6
 6.037952E-6
 6.223705E-6
 6.409457E-6
 6.595209E-6
 6.873838E-6
 7.152466E-6
 7.431095E-6
 7.709723E-6
 8.130294E-6
 8.550866E-6
 8.971437E-6
 9.392008E-6
 10.03601E-6
 10.68001E-6
 11.32401E-6
 11.96801E-6
 12.91706E-6
 13.86611E-6
 14.81516E-6
 15.76422E-6
 17.18779E-6
 17.89958E-6
 17.94685E-6
 18.14774E-6
 18.24991E-6
 18.27871E-6
 18.3158E-6
 18.31771E-6
 18.31799E-6
 18.32142E-6
 18.32186E-6
 18.32355E-6
 18.32423E-6
 18.32483E-6
 18.32542E-6
 18.32558E-6
 18.32656E-6
 18.32682E-6
 18.32698E-6
 18.32713E-6
 18.32729E-6
 18.32739E-6
 18.32746E-6
 18.32754E-6
 18.32761E-6
 18.32767E-6
 18.32772E-6
 18.32778E-6
 18.32784E-6
 18.32789E-6
 18.32793E-6
 18.32798E-6
 18.32806E-6
 18.32813E-6
 18.32827E-6
 18.3284E-6
 18.32865E-6
 18.32903E-6
 18.32941E-6
 18.3298E-6
 18.33018E-6
 18.33045E-6
 18.33072E-6
 18.33116E-6
 18.3316E-6
 18.33232E-6
 18.33304E-6
 18.33377E-6
 18.33496E-6
 18.33615E-6
 18.3381E-6
 18.34004E-6
 18.34331E-6
 18.34657E-6
 18.3533E-6
 18.36002E-6
 18.37697E-6
 18.40451E-6
 18.47436E-6
 18.54421E-6
 18.71268E-6
 19.02622E-6
 19.63587E-6
 19.83909E-6
 20.04231E-6
 20.14824E-6
 20.21436E-6
 20.28048E-6
 20.3466E-6
 20.41272E-6
 20.47884E-6
 20.54496E-6
 20.61108E-6
 20.6772E-6
 20.74331E-6
 20.80943E-6
 20.87555E-6
 20.94167E-6
 21.00779E-6
 21.07391E-6
 21.14003E-6
 21.20615E-6
 21.27227E-6
 21.33839E-6
 21.40451E-6
 21.47063E-6
 21.53675E-6
 21.60286E-6
 21.66898E-6
 21.7351E-6
 21.80122E-6
 21.86734E-6
 21.93346E-6
 21.99958E-6
 22.0657E-6
 22.13182E-6
 22.19794E-6
 22.26406E-6
 22.33018E-6
 22.39629E-6
 22.46241E-6
 22.52853E-6
 22.59465E-6
 22.66077E-6
 22.72689E-6
 22.79301E-6
 22.85913E-6
 22.92525E-6
 22.99137E-6
 23.05749E-6
 23.12361E-6
 23.18972E-6
 23.28842E-6
 23.38712E-6
 23.48582E-6
 23.58452E-6
 23.73727E-6
 23.89002E-6
 24.04277E-6
 24.19552E-6
 24.43737E-6
 24.67923E-6
 24.92108E-6
 25.28386E-6
 25.64664E-6
 26.00942E-6
 26.50824E-6
 27.00707E-6
 27.50589E-6
 28.12942E-6
 28.75294E-6
 29.37647E-6
 30.E-6
</indep>
<dep OUT.Vt time>
 3.715852
 3.715852
 3.715923
 3.716064
 3.716133
 3.716125
 3.716119
 3.716113
 3.7161
 3.715951
 3.713644
 3.713174
 3.701634
 3.694518
 3.693107
 3.696653
 3.696344
 3.681069
 3.671199
 3.641235
 3.639115
 3.548073
 3.38317
 3.333103
 3.269751
 3.204427
 3.129341
 3.043146
 2.971774
 2.893009
 2.832425
 2.767726
 2.698765
 2.640889
 2.581189
 2.521009
 2.461569
 2.402836
 2.309771
 2.219916
 2.078889
 1.952466
 1.744925
 1.581261
 1.453933
 1.353136
 1.272345
 1.206842
 1.153155
 1.083375
 1.031571
 0.9739722
 0.935261
 0.9076973
 0.876419
 0.858
 0.8396985
 0.8306557
 0.8224969
 0.8192208
 0.8158089
 0.8143949
 0.8116629
 0.8097501
 0.807898
 0.8073067
 0.8051302
 0.8028825
 0.8150198
 0.8812523
 0.9237904
 0.9513152
 0.9711477
 0.9904837
 1.023781
 1.056822
 1.090011
 1.122996
 1.156159
 1.189131
 1.222282
 1.25525
 1.288393
 1.321357
 1.354494
 1.387456
 1.420586
 1.453545
 1.486669
 1.519625
 1.552743
 1.585696
 1.618807
 1.651758
 1.684862
 1.717809
 1.750906
 1.800357
 1.849955
 1.899396
 1.948982
 2.023625
 2.09841
 2.173027
 2.247781
 2.362011
 2.476375
 2.590527
 2.704794
 2.872848
 3.040989
 3.208754
 3.376504
 3.627056
 3.75023
 3.757963
 3.790222
 3.802449
 3.804024
 3.779729
 3.773852
 3.77357
 3.764398
 3.763295
 3.75404
 3.743794
 3.724775
 3.694226
 3.683393
 3.485727
 3.393102
 3.321178
 3.235099
 3.132559
 3.057574
 2.996306
 2.929999
 2.858338
 2.798307
 2.734837
 2.668306
 2.59937
 2.54463
 2.490813
 2.437527
 2.347621
 2.260556
 2.127091
 2.0062
 1.811725
 1.582157
 1.416363
 1.295521
 1.204949
 1.154823
 1.112677
 1.056473
 1.013546
 0.9620892
 0.9271177
 0.9019737
 0.8737328
 0.8566688
 0.8396038
 0.8308909
 0.8230345
 0.8197324
 0.8163846
 0.8149745
 0.8122767
 0.8102241
 0.8082095
 0.8076769
 0.8055821
 0.8033154
 0.8065357
 0.8280762
 0.9164341
 0.9394792
 0.9511894
 0.9637729
 0.9754514
 0.9878124
 0.9993422
 1.011592
 1.023089
 1.035269
 1.046764
 1.058896
 1.0704
 1.082493
 1.094011
 1.106073
 1.117605
 1.12964
 1.141188
 1.153199
 1.164762
 1.176751
 1.188328
 1.200298
 1.211888
 1.22384
 1.235444
 1.247379
 1.258994
 1.270915
 1.282541
 1.294448
 1.306084
 1.317979
 1.329624
 1.341508
 1.353162
 1.365035
 1.376697
 1.38856
 1.400229
 1.412084
 1.423759
 1.435606
 1.447287
 1.459127
 1.470814
 1.482646
 1.500132
 1.517754
 1.535242
 1.552859
 1.57996
 1.607184
 1.634284
 1.661503
 1.704441
 1.747496
 1.790428
 1.854964
 1.919375
 1.983895
 2.072448
 2.161107
 2.24962
 2.360364
 2.470949
 2.58162
 2.692108
</dep>
<dep UCON.Vt time>
 13.43631
 13.43631
 13.43631
 13.43631
 13.43631
 13.43631
 13.43631
 13.43631
 13.43631
 13.43631
 13.43631
 13.43631
 13.43631
 13.43631
 13.43631
 13.43631
 13.43631
 13.43631
 13.43631
 13.43631
 13.43631
 13.43631
 13.43631
 13.43631
 13.43631
 13.43631
 13.43631
 13.43631
 13.43631
 13.43631
 13.43631
 13.43631
 13.43631
 13.43631
 13.43631
 13.43631
 13.43631
 13.43631
 13.43631
 13.43631
 13.43631
 13.43631
 13.43631
 13.43631
 13.43631
 13.43631
 13.43631
 13.43631
 13.43631
 13.43631
 13.43631
 13.43631
 13.43631
 13.43631
 13.43631
 13.43631
 13.43631
 13.43631
 13.43631
 13.43631
 13.43631
 13.43631
 13.43631
 13.43631
 13.43631
 13.43631
 13.43631
 13.43631
 13.43631
 13.43631
 13.43631
 13.43631
 13.43631
 13.43631
 13.43631
 13.43631
 13.43631
 13.43631
 13.43631
 13.43631
 13.43631
 13.43631
 13.43631
 13.43631
 13.43631
 13.43631
 13.43631
 13.43631
 13.43631
 13.43631
 13.43631
 13.43631
 13.43631
 13.43631
 13.43631
 13.43631
 13.43631
 13.43631
 13.43631
 13.43631
 13.43631
 13.43631
 13.43631
 13.43631
 13.43631
 13.43631
 13.43631
 13.43631
 13.43631
 13.43631
 13.43631
 13.43631
 13.43631
 13.43631
 13.43631
 13.43631
 13.43631
 13.43631
 13.43631
 13.43631
 13.43631
 13.43631
 13.43631
 13.43631
 13.43631
 13.43631
 13.43631
 13.43631
 13.43631
 13.43631
 13.43631
 13.43631
 13.43631
 13.43631
 13.43631
 13.43631
 13.43631
 13.43631
 13.43631
 13.43631
 13.43631
 13.43631
 13.43631
 13.43631
 13.43631
 13.43631
 13.43631
 13.43631
 13.43631
 13.43631
 13.43631
 13.43631
 13.43631
 13.43631
 13.43631
 13.43631
 13.43631
 13.43631
 13.43631
 13.43631
 13.43631
 13.43631
 13.43631
 13.43631
 13.43631
 13.43631
 13.43631
 13.43631
 13.43631
 13.43631
 13.43631
 13.43631
 13.43631
 13.43631
 13.43631
 13.43631
 13.43631
 13.43631
 13.43631
 13.43631
 13.43631
 13.43631
 13.43631
 13.43631
 13.43631
 13.43631
 13.43631
 13.43631
 13.43631
 13.43631
 13.43631
 13.43631
 13.43631
 13.43631
 13.43631
 13.43631
 13.43631
 13.43631
 13.43631
 13.43631
 13.43631
 13.43631
 13.43631
 13.43631
 13.43631
 13.43631
 13.43631
 13.43631
 13.43631
 13.43631
 13.43631
 13.43631
 13.43631
 13.43631
 13.43631
 13.43631
 13.43631
 13.43631
 13.43631
 13.43631
 13.43631
 13.43631
 13.43631
 13.43631
 13.43631
 13.43631
 13.43631
 13.43631
 13.43631
 13.43631
 13.43631
 13.43631
 13.43631
 13.43631
 13.43631
 13.43631
 13.43631
 13.43631
 13.43631
 13.43631
 13.43631
 13.43631
 13.43631
 13.43631
 13.43631
 13.43631
</dep>
<dep UTOP.Vt time>
 3.12521
 3.12521
 3.125215
 3.12522
 3.125212
 3.125177
 3.125154
 3.125129
 3.125078
 3.124542
 3.1167
 3.111366
 3.061563
 3.045847
 3.039385
 3.034413
 3.027803
 2.974117
 2.950708
 2.890049
 2.884692
 2.728994
 2.480962
 2.405715
 2.316051
 2.224296
 2.119864
 2.001184
 1.903866
 1.797412
 1.716339
 1.630608
 1.540578
 1.468544
 1.402541
 1.340193
 1.280434
 1.224218
 1.141707
 1.067894
 0.956934
 0.8613087
 0.7080721
 0.5905169
 0.5003289
 0.4301152
 0.3747583
 0.3306059
 0.2949956
 0.2496748
 0.2168554
 0.1816724
 0.1590415
 0.1438322
 0.1279097
 0.1194396
 0.1120957
 0.1089632
 0.1064735
 0.1056649
 0.1049811
 0.1049366
 0.1049734
 0.1057042
 0.1081376
 0.1109901
 0.1180964
 0.1358525
 0.2090247
 2.062757
 3.140539
 3.193309
 3.219277
 3.222059
 3.237279
 3.234195
 3.242114
 3.236595
 3.243208
 3.237367
 3.243542
 3.23774
 3.243652
 3.237975
 3.243676
 3.238148
 3.243661
 3.238289
 3.243625
 3.238411
 3.243578
 3.238519
 3.243525
 3.238619
 3.243468
 3.238711
 3.24341
 3.238789
 3.243379
 3.238852
 3.243346
 3.238905
 3.24333
 3.238947
 3.243311
 3.238984
 3.243303
 3.239013
 3.243292
 3.239037
 3.243287
 3.239058
 3.243281
 3.239075
 3.243094
 3.238963
 3.239102
 3.222413
 3.219222
 3.136026
 3.128757
 3.127445
 3.097883
 3.09245
 3.054376
 3.027028
 2.988386
 2.927503
 2.907212
 2.601387
 2.46438
 2.362186
 2.24147
 2.099552
 1.996868
 1.913657
 1.824237
 1.728521
 1.649272
 1.5666
 1.484885
 1.410317
 1.354305
 1.300499
 1.24955
 1.169459
 1.097588
 0.9921078
 0.900206
 0.7558995
 0.590534
 0.4737692
 0.3902575
 0.3290509
 0.2957941
 0.2682761
 0.2322681
 0.205403
 0.1743354
 0.1541513
 0.1404636
 0.1262711
 0.1184974
 0.111665
 0.1086277
 0.1062065
 0.1053657
 0.1046679
 0.1045859
 0.1045689
 0.1051689
 0.1072837
 0.1098147
 0.1161573
 0.1305618
 0.1814926
 0.2957048
 2.962932
 3.180777
 3.164469
 3.217908
 3.196369
 3.23396
 3.211556
 3.241568
 3.219707
 3.245199
 3.224442
 3.246842
 3.227413
 3.247474
 3.229434
 3.247587
 3.230918
 3.247436
 3.232079
 3.247153
 3.233029
 3.246809
 3.233835
 3.246442
 3.234532
 3.246072
 3.235145
 3.245711
 3.23569
 3.245366
 3.236177
 3.245039
 3.236616
 3.244733
 3.237013
 3.244447
 3.237372
 3.24418
 3.237698
 3.243934
 3.237995
 3.243705
 3.238265
 3.243495
 3.238511
 3.2433
 3.238736
 3.243121
 3.238914
 3.24302
 3.239053
 3.242923
 3.239166
 3.242874
 3.239256
 3.242824
 3.239332
 3.242804
 3.239392
 3.242789
 3.239439
 3.24278
 3.239479
 3.242776
 3.239511
 3.242772
 3.239538
 3.242766
 3.239561
</dep>
<dep _net0.Vt time>
 14.15628
 14.15628
 14.15628
 14.15628
 14.15628
 14.15628
 14.15628
 14.15628
 14.15628
 14.15628
 14.15628
 14.15628
 14.15628
 14.15628
 14.15628
 14.15628
 14.15628
 14.15628
 14.15628
 14.15628
 14.15628
 14.15628
 14.15628
 14.15628
 14.15628
 14.15628
 14.15628
 14.15628
 14.15628
 14.15628
 14.15628
 14.15628
 14.15628
 14.15628
 14.15628
 14.15628
 14.15628
 14.15628
 14.15628
 14.15628
 14.15628
 14.15628
 14.15628
 14.15628
 14.15628
 14.15628
 14.15628
 14.15628
 14.15628
 14.15628
 14.15628
 14.15628
 14.15628
 14.15628
 14.15628
 14.15628
 14.15628
 14.15628
 14.15628
 14.15628
 14.15628
 14.15628
 14.15628
 14.15628
 14.15628
 14.15628
 14.15628
 14.15628
 14.15628
 14.15628
 14.15628
 14.15628
 14.15628
 14.15628
 14.15628
 14.15628
 14.15628
 14.15628
 14.15628
 14.15628
 14.15628
 14.15628
 14.15628
 14.15628
 14.15628
 14.15628
 14.15628
 14.15628
 14.15628
 14.15628
 14.15628
 14.15628
 14.15628
 14.15628
 14.15628
 14.15628
 14.15628
 14.15628
 14.15628
 14.15628
 14.15628
 14.15628
 14.15628
 14.15628
 14.15628
 14.15628
 14.15628
 14.15628
 14.15628
 14.15628
 14.15628
 14.15628
 14.15628
 14.15628
 14.15628
 14.15628
 14.15628
 14.15628
 14.15628
 14.15628
 14.15628
 14.15628
 14.15628
 14.15628
 14.15628
 14.15628
 14.15628
 14.15628
 14.15628
 14.15628
 14.15628
 14.15628
 14.15628
 14.15628
 14.15628
 14.15628
 14.15628
 14.15628
 14.15628
 14.15628
 14.15628
 14.15628
 14.15628
 14.15628
 14.15628
 14.15628
 14.15628
 14.15628
 14.15628
 14.15628
 14.15628
 14.15628
 14.15628
 14.15628
 14.15628
 14.15628
 14.15628
 14.15628
 14.15628
 14.15628
 14.15628
 14.15628
 14.15628
 14.15628
 14.15628
 14.15628
 14.15628
 14.15628
 14.15628
 14.15628
 14.15628
 14.15628
 14.15628
 14.15628
 14.15628
 14.15628
 14.15628
 14.15628
 14.15628
 14.15628
 14.15628
 14.15628
 14.15628
 14.15628
 14.15628
 14.15628
 14.15628
 14.15628
 14.15628
 14.15628
 14.15628
 14.15628
 14.15628
 14.15628
 14.15628
 14.15628
 14.15628
 14.15628
 14.15628
 14.15628
 14.15628
 14.15628
 14.15628
 14.15628
 14.15628
 14.15628
 14.15628
 14.15628
 14.15628
 14.15628
 14.15628
 14.15628
 14.15628
 14.15628
 14.15628
 14.15628
 14.15628
 14.15628
 14.15628
 14.15628
 14.15628
 14.15628
 14.15628
 14.15628
 14.15628
 14.15628
 14.15628
 14.15628
 14.15628
 14.15628
 14.15628
 14.15628
 14.15628
 14.15628
 14.15628
 14.15628
 14.15628
 14.15628
 14.15628
 14.15628
 14.15628
 14.15628
 14.15628
 14.15628
 14.15628
 14.15628
</dep>
<dep _net1.Vt time>
 15.
 15.
 15.
 15.
 15.
 15.
 15.
 15.
 15.
 15.
 15.
 15.
 15.
 15.
 15.
 15.
 15.
 15.
 15.
 15.
 15.
 15.
 15.
 15.
 15.
 15.
 15.
 15.
 15.
 15.
 15.
 15.
 15.
 15.
 15.
 15.
 15.
 15.
 15.
 15.
 15.
 15.
 15.
 15.
 15.
 15.
 15.
 15.
 15.
 15.
 15.
 15.
 15.
 15.
 15.
 15.
 15.
 15.
 15.
 15.
 15.
 15.
 15.
 15.
 15.
 15.
 15.
 15.
 15.
 15.
 15.
 15.
 15.
 15.
 15.
 15.
 15.
 15.
 15.
 15.
 15.
 15.
 15.
 15.
 15.
 15.
 15.
 15.
 15.
 15.
 15.
 15.
 15.
 15.
 15.
 15.
 15.
 15.
 15.
 15.
 15.
 15.
 15.
 15.
 15.
 15.
 15.
 15.
 15.
 15.
 15.
 15.
 15.
 15.
 15.
 15.
 15.
 15.
 15.
 15.
 15.
 15.
 15.
 15.
 15.
 15.
 15.
 15.
 15.
 15.
 15.
 15.
 15.
 15.
 15.
 15.
 15.
 15.
 15.
 15.
 15.
 15.
 15.
 15.
 15.
 15.
 15.
 15.
 15.
 15.
 15.
 15.
 15.
 15.
 15.
 15.
 15.
 15.
 15.
 15.
 15.
 15.
 15.
 15.
 15.
 15.
 15.
 15.
 15.
 15.
 15.
 15.
 15.
 15.
 15.
 15.
 15.
 15.
 15.
 15.
 15.
 15.
 15.
 15.
 15.
 15.
 15.
 15.
 15.
 15.
 15.
 15.
 15.
 15.
 15.
 15.
 15.
 15.
 15.
 15.
 15.
 15.
 15.
 15.
 15.
 15.
 15.
 15.
 15.
 15.
 15.
 15.
 15.
 15.
 15.
 15.
 15.
 15.
 15.
 15.
 15.
 15.
 15.
 15.
 15.
 15.
 15.
 15.
 15.
 15.
 15.
 15.
 15.
 15.
 15.
 15.
 15.
 15.
 15.
 15.
 15.
 15.
 15.
 15.
 15.
 15.
</dep>
<dep _net2.Vt time>
 0.7542923
 0.7542923
 0.7542931
 0.7542952
 0.7542979
 0.7543072
 0.7543148
 0.7543227
 0.7543389
 0.7545088
 0.7569032
 0.7585172
 0.7710596
 0.7746299
 0.7762559
 0.7782367
 0.7805514
 0.8014424
 0.8119757
 0.8438392
 0.847545
 0.935929
 1.075297
 1.117765
 1.166624
 1.215867
 1.271061
 1.332895
 1.382777
 1.436449
 1.476356
 1.517352
 1.558264
 1.583495
 1.58755
 1.582674
 1.574944
 1.562535
 1.531905
 1.494051
 1.42832
 1.366921
 1.263339
 1.180984
 1.116381
 1.065164
 1.024122
 0.9908822
 0.9636809
 0.9284454
 0.9024151
 0.8739373
 0.8552919
 0.842613
 0.8292277
 0.8220842
 0.8158941
 0.8132803
 0.811213
 0.8105458
 0.80991
 0.8097356
 0.8092161
 0.8087084
 0.8075784
 0.8067167
 0.8046453
 0.8016441
 0.7983166
 0.7821261
 0.7509016
 0.7191253
 0.7017884
 0.6868249
 0.6651096
 0.6470202
 0.6339596
 0.6220188
 0.614264
 0.6057946
 0.6008782
 0.5943354
 0.5910092
 0.5856333
 0.5832765
 0.5786725
 0.5769504
 0.5728942
 0.5716107
 0.567965
 0.566997
 0.5636724
 0.5629383
 0.5598733
 0.5593169
 0.5564674
 0.5560484
 0.5526439
 0.5516887
 0.5485694
 0.5478346
 0.5440738
 0.5427576
 0.5393677
 0.5383558
 0.5342303
 0.5325789
 0.5289218
 0.5276602
 0.5233446
 0.5215226
 0.517728
 0.5163408
 0.5129984
 0.5713616
 0.5796995
 0.6495928
 0.6894545
 0.6998947
 0.7523202
 0.7558441
 0.7565135
 0.7678553
 0.77021
 0.7880024
 0.8020888
 0.8224306
 0.8581764
 0.8709624
 1.044419
 1.120592
 1.176069
 1.240612
 1.315048
 1.368083
 1.410448
 1.455326
 1.502251
 1.53973
 1.577022
 1.603106
 1.604061
 1.598455
 1.591032
 1.579761
 1.550911
 1.51469
 1.452964
 1.39449
 1.297698
 1.181972
 1.097862
 1.03634
 0.9903077
 0.9648729
 0.9435527
 0.9152229
 0.8937218
 0.8684125
 0.8517108
 0.8402678
 0.8283177
 0.8217553
 0.8159925
 0.8134546
 0.8114424
 0.8107494
 0.8101188
 0.8099403
 0.8094564
 0.8089611
 0.807898
 0.807096
 0.8051349
 0.8023451
 0.7988495
 0.7972909
 0.7693565
 0.7420837
 0.7273403
 0.7164084
 0.7048561
 0.6965277
 0.6865015
 0.6799648
 0.6707867
 0.6657524
 0.6571767
 0.6534983
 0.6454672
 0.6429714
 0.6354848
 0.6339482
 0.6270035
 0.6261937
 0.6197721
 0.6194855
 0.6135559
 0.613631
 0.6081566
 0.6084723
 0.6034153
 0.6038839
 0.599208
 0.5997669
 0.5954383
 0.5960431
 0.5920311
 0.5926509
 0.5889275
 0.5895408
 0.5860807
 0.586673
 0.5834534
 0.5840152
 0.5810155
 0.5815408
 0.5787423
 0.5792276
 0.5766134
 0.5770572
 0.574612
 0.575014
 0.5727238
 0.5730846
 0.5704914
 0.5704275
 0.5679873
 0.5679618
 0.5650362
 0.5644895
 0.5617634
 0.5613417
 0.5579557
 0.5569057
 0.5538122
 0.5520842
 0.5484231
 0.5470948
 0.5429872
 0.5412701
 0.5376401
 0.535749
 0.5319786
 0.5305306
 0.527146
</dep>
<dep _net3.Vt time>
 14.21815
 14.21815
 14.21815
 14.21815
 14.21815
 14.21815
 14.21815
 14.21815
 14.21815
 14.21815
 14.21815
 14.21815
 14.21815
 14.21815
 14.21815
 14.21815
 14.21815
 14.21815
 14.21815
 14.21815
 14.21815
 14.21815
 14.21815
 14.21815
 14.21815
 14.21815
 14.21815
 14.21815
 14.21815
 14.21815
 14.21815
 14.21815
 14.21815
 14.21815
 14.21815
 14.21815
 14.21815
 14.21815
 14.21815
 14.21815
 14.21815
 14.21815
 14.21815
 14.21815
 14.21815
 14.21815
 14.21815
 14.21815
 14.21815
 14.21815
 14.21815
 14.21815
 14.21815
 14.21815
 14.21815
 14.21815
 14.21815
 14.21815
 14.21815
 14.21815
 14.21815
 14.21815
 14.21815
 14.21815
 14.21815
 14.21815
 14.21815
 14.21815
 14.21815
 14.21815
 14.21815
 14.21815
 14.21815
 14.21815
 14.21815
 14.21815
 14.21815
 14.21815
 14.21815
 14.21815
 14.21815
 14.21815
 14.21815
 14.21815
 14.21815
 14.21815
 14.21815
 14.21815
 14.21815
 14.21815
 14.21815
 14.21815
 14.21815
 14.21815
 14.21815
 14.21815
 14.21815
 14.21815
 14.21815
 14.21815
 14.21815
 14.21815
 14.21815
 14.21815
 14.21815
 14.21815
 14.21815
 14.21815
 14.21815
 14.21815
 14.21815
 14.21815
 14.21815
 14.21815
 14.21815
 14.21815
 14.21815
 14.21815
 14.21815
 14.21815
 14.21815
 14.21815
 14.21815
