<Qucs Dataset>
default plugins: ignored
;: already installed, replacing
stashing as ;:0
*: already installed, replacing
stashing as *:0
': already installed, replacing
stashing as ':0
": already installed, replacing
stashing as ":0
store: already installed, replacing
stashing as store:0
alarm: already installed, replacing
stashing as alarm:0
iplot: already installed, replacing
stashing as iplot:0
plot: already installed, replacing
stashing as plot:0
iprint: already installed, replacing
stashing as iprint:0
print: already installed, replacing
stashing as print:0
probe: already installed, replacing
stashing as probe:0
d: already installed, replacing
stashing as d:0
diode: already installed, replacing
stashing as diode:0
npn: already installed, replacing
stashing as npn:0
pnp: already installed, replacing
stashing as pnp:0
npn1: already installed, replacing
stashing as npn1:0
pnp1: already installed, replacing
stashing as pnp1:0
Q: already installed, replacing
stashing as Q:0
bjt: already installed, replacing
stashing as bjt:0
L: already installed, replacing
stashing as L:0
C:C1 gnd OUT C="680 pF" V="" 
                        ^ ? C1: V has no value?
parameter Z_Diodes_1N4728A not specified, using default
parameter Z_Diodes_1N4728A value is "NOT_INPUT"
parameter Z_Diodes_1N4728A not specified, using default
parameter Z_Diodes_1N4728A value is "NOT_INPUT"
parameter Z_Diodes_1N4728A not specified, using default
parameter Z_Diodes_1N4728A value is "NOT_INPUT"
parameter Z_Diodes_1N4728A not specified, using default
parameter Z_Diodes_1N4728A value is "NOT_INPUT"
parameter Z_Diodes_1N4728A not specified, using default
parameter Z_Diodes_1N4728A value is "NOT_INPUT"
parameter Z_Diodes_1N4728A not specified, using default
parameter Z_Diodes_1N4728A value is "NOT_INPUT"
parameter Z_Diodes_1N4728A not specified, using default
parameter Z_Diodes_1N4728A value is "NOT_INPUT"
open circuit: internal node 9
open circuit: internal node 6
Gnucap   System status
iterations: op=0, dc=0, tran=3068, fourier=0, total=3282
transient timesteps: accepted=206, rejected=80, total=286
transient timesteps: accepted=0, rejected=0, total=0
nodes: user=7, subckt=1, model=8, total=16
dctran density=39.8%, ac density=39.8%

<indep time 206>
 0.
 1.E-9
 2.E-9
 3.E-9
 4.E-9
 7.154817E-9
 9.560982E-9
 11.96715E-9
 16.58851E-9
 49.32149E-9
 124.764E-9
 143.6246E-9
 161.2286E-9
 168.6145E-9
 174.5334E-9
 177.08E-9
 179.2651E-9
 179.4E-9
 182.6288E-9
 183.0323E-9
 183.3001E-9
 183.765E-9
 184.78E-9
 185.4925E-9
 186.2051E-9
 186.7656E-9
 187.0789E-9
 187.3923E-9
 187.7056E-9
 187.7672E-9
 187.8289E-9
 187.8905E-9
 187.9521E-9
 188.0138E-9
 188.0754E-9
 188.137E-9
 188.1987E-9
 188.2603E-9
 188.3096E-9
 188.3589E-9
 188.4082E-9
 188.4574E-9
 188.5358E-9
 188.6142E-9
 188.7478E-9
 188.8815E-9
 189.1372E-9
 189.3929E-9
 189.7875E-9
 190.1821E-9
 190.5767E-9
 190.9712E-9
 191.3658E-9
 191.7604E-9
 192.4344E-9
 193.1085E-9
 194.1503E-9
 195.1921E-9
 196.2339E-9
 198.0574E-9
 199.8809E-9
 203.2467E-9
 206.6124E-9
 213.482E-9
 220.3516E-9
 237.0442E-9
 263.6658E-9
 329.4541E-9
 430.0323E-9
 597.0942E-9
 1.023223E-6
 1.376599E-6
 1.57E-6
 1.703474E-6
 1.747966E-6
 1.792457E-6
 1.814915E-6
 1.864889E-6
 1.895077E-6
 1.925265E-6
 1.955452E-6
 1.98564E-6
 2.015828E-6
 2.046016E-6
 2.076204E-6
 2.106392E-6
 2.13658E-6
 2.166768E-6
 2.213625E-6
 2.260482E-6
 2.307339E-6
 2.38321E-6
 2.45908E-6
 2.53495E-6
 2.665117E-6
 2.795283E-6
 2.925449E-6
 3.156855E-6
 3.388262E-6
 3.619668E-6
 4.025519E-6
 4.431371E-6
 4.837222E-6
 5.556158E-6
 6.275095E-6
 6.994031E-6
 8.272141E-6
 9.55025E-6
 10.82836E-6
 12.95854E-6
 15.08872E-6
 18.07098E-6
 18.25737E-6
 18.40415E-6
 18.42227E-6
 18.42353E-6
 18.42434E-6
 18.42494E-6
 18.42571E-6
 18.4271E-6
 18.42728E-6
 18.42787E-6
 18.42832E-6
 18.42843E-6
 18.42855E-6
 18.42862E-6
 18.42869E-6
 18.42877E-6
 18.42884E-6
 18.4289E-6
 18.42895E-6
 18.42901E-6
 18.42907E-6
 18.42912E-6
 18.42918E-6
 18.42924E-6
 18.42933E-6
 18.42943E-6
 18.42959E-6
 18.42976E-6
 18.43011E-6
 18.43047E-6
 18.43082E-6
 18.43118E-6
 18.43153E-6
 18.43189E-6
 18.43224E-6
 18.43286E-6
 18.43347E-6
 18.43441E-6
 18.43535E-6
 18.43629E-6
 18.43791E-6
 18.43954E-6
 18.44241E-6
 18.44529E-6
 18.45083E-6
 18.45638E-6
 18.46944E-6
 18.4825E-6
 18.5268E-6
 18.60703E-6
 18.73223E-6
 18.92991E-6
 19.35568E-6
 19.68831E-6
 19.84943E-6
 19.96611E-6
 20.005E-6
 20.04389E-6
 20.06606E-6
 20.09974E-6
 20.13341E-6
 20.16709E-6
 20.20076E-6
 20.23443E-6
 20.26811E-6
 20.30178E-6
 20.33546E-6
 20.36913E-6
 20.40281E-6
 20.43648E-6
 20.47016E-6
 20.52167E-6
 20.57318E-6
 20.62469E-6
 20.70482E-6
 20.78495E-6
 20.86509E-6
 20.99748E-6
 21.12987E-6
 21.26226E-6
 21.4807E-6
 21.69914E-6
 21.91759E-6
 22.28497E-6
 22.65235E-6
 23.01973E-6
 23.60142E-6
 24.18311E-6
 24.7648E-6
 25.63733E-6
 26.50987E-6
 27.67324E-6
 28.83662E-6
 30.E-6
</indep>
<dep OUT.Vt time>
 3.716178
 3.716178
 3.716249
 3.71639
 3.716458
 3.716451
 3.716445
 3.716438
 3.716425
 3.716277
 3.713975
 3.713504
 3.710504
 3.708729
 3.705496
 3.703433
 3.700128
 3.700454
 3.692115
 3.690974
 3.689461
 3.693436
 3.683359
 3.661774
 3.607173
 3.519195
 3.438099
 3.317959
 3.145907
 3.104739
 3.060432
 3.013031
 2.96235
 2.908206
 2.850422
 2.788849
 2.723391
 2.654262
 2.596796
 2.538959
 2.481743
 2.425118
 2.337053
 2.251636
 2.117236
 1.995453
 1.799433
 1.640881
 1.455512
 1.320862
 1.22167
 1.14671
 1.088909
 1.043576
 0.9857618
 0.9460881
 0.9044977
 0.8790535
 0.8619331
 0.8432746
 0.833537
 0.8239192
 0.820169
 0.8164949
 0.8150392
 0.8123596
 0.810354
 0.8083874
 0.8074899
 0.805344
 0.803199
 0.8033248
 0.8083301
 0.8174473
 0.826086
 0.8447033
 0.8565968
 0.8818315
 0.8967521
 0.9093422
 0.9167581
 0.922556
 0.92852
 0.9341949
 0.9398662
 0.9453707
 0.9509327
 0.9563791
 0.9648933
 0.9733071
 0.9817597
 0.9953293
 1.008927
 1.022449
 1.04569
 1.068859
 1.092065
 1.133232
 1.17444
 1.21559
 1.287817
 1.359987
 1.432196
 1.56001
 1.687859
 1.815619
 2.042712
 2.269678
 2.496551
 2.874085
 3.251215
 3.758413
 3.786305
 3.794483
 3.765197
 3.758296
 3.752722
 3.748749
 3.734882
 3.621968
 3.596687
 3.442157
 3.240427
 3.169291
 3.087348
 3.029988
 2.967933
 2.90086
 2.828492
 2.767772
 2.703711
 2.637053
 2.568276
 2.500545
 2.433816
 2.368312
 2.264898
 2.166915
 2.012369
 1.877035
 1.646104
 1.474081
 1.346928
 1.250438
 1.17583
 1.117179
 1.070393
 1.009117
 0.966112
 0.9204736
 0.8917438
 0.8720999
 0.8505086
 0.8387937
 0.8272521
 0.8223822
 0.817877
 0.8162274
 0.8135965
 0.8121618
 0.8092809
 0.8082868
 0.8066525
 0.8048244
 0.8027541
 0.8046702
 0.8092455
 0.8195167
 0.8285333
 0.8452617
 0.8563744
 0.8735227
 0.8902703
 0.9058152
 0.9160247
 0.9229656
 0.9296557
 0.9359968
 0.9423174
 0.9484398
 0.9546372
 0.9606802
 0.9668136
 0.9760495
 0.9853415
 0.9945369
 1.008902
 1.02318
 1.037507
 1.061071
 1.084683
 1.108224
 1.147134
 1.185977
 1.224874
 1.290201
 1.355583
 1.420896
 1.524365
 1.627761
 1.731195
 1.886217
 2.041269
 2.247816
 2.454342
 2.660649
</dep>
<dep UCON.Vt time>
 13.43631
 13.43631
 13.43631
 13.43631
 13.43631
 13.43631
 13.43631
 13.43631
 13.43631
 13.43631
 13.43631
 13.43631
 13.43631
 13.43631
 13.43631
 13.43631
 13.43631
 13.43631
 13.43631
 13.43631
 13.43631
 13.43631
 13.43631
 13.43631
 13.43631
 13.43631
 13.43631
 13.43631
 13.43631
 13.43631
 13.43631
 13.43631
 13.43631
 13.43631
 13.43631
 13.43631
 13.43631
 13.43631
 13.43631
 13.43631
 13.43631
 13.43631
 13.43631
 13.43631
 13.43631
 13.43631
 13.43631
 13.43631
 13.43631
 13.43631
 13.43631
 13.43631
 13.43631
 13.43631
 13.43631
 13.43631
 13.43631
 13.43631
 13.43631
 13.43631
 13.43631
 13.43631
 13.43631
 13.43631
 13.43631
 13.43631
 13.43631
 13.43631
 13.43631
 13.43631
 13.43631
 13.43631
 13.43631
 13.43631
 13.43631
 13.43631
 13.43631
 13.43631
 13.43631
 13.43631
 13.43631
 13.43631
 13.43631
 13.43631
 13.43631
 13.43631
 13.43631
 13.43631
 13.43631
 13.43631
 13.43631
 13.43631
 13.43631
 13.43631
 13.43631
 13.43631
 13.43631
 13.43631
 13.43631
 13.43631
 13.43631
 13.43631
 13.43631
 13.43631
 13.43631
 13.43631
 13.43631
 13.43631
 13.43631
 13.43631
 13.43631
 13.43631
 13.43631
 13.43631
 13.43631
 13.43631
 13.43631
 13.43631
 13.43631
 13.43631
 13.43631
 13.43631
 13.43631
 13.43631
 13.43631
 13.43631
 13.43631
 13.43631
 13.43631
 13.43631
 13.43631
 13.43631
 13.43631
 13.43631
 13.43631
 13.43631
 13.43631
 13.43631
 13.43631
 13.43631
 13.43631
 13.43631
 13.43631
 13.43631
 13.43631
 13.43631
 13.43631
 13.43631
 13.43631
 13.43631
 13.43631
 13.43631
 13.43631
 13.43631
 13.43631
 13.43631
 13.43631
 13.43631
 13.43631
 13.43631
 13.43631
 13.43631
 13.43631
 13.43631
 13.43631
 13.43631
 13.43631
 13.43631
 13.43631
 13.43631
 13.43631
 13.43631
 13.43631
 13.43631
 13.43631
 13.43631
 13.43631
 13.43631
 13.43631
 13.43631
 13.43631
 13.43631
 13.43631
 13.43631
 13.43631
 13.43631
 13.43631
 13.43631
 13.43631
 13.43631
 13.43631
 13.43631
 13.43631
 13.43631
 13.43631
 13.43631
 13.43631
 13.43631
 13.43631
 13.43631
 13.43631
 13.43631
 13.43631
 13.43631
 13.43631
 13.43631
</dep>
<dep UTOP.Vt time>
 3.125251
 3.125251
 3.125256
 3.125261
 3.125253
 3.125218
 3.125195
 3.12517
 3.125119
 3.124583
 3.116763
 3.11145
 3.099312
 3.089831
 3.074962
 3.064427
 3.050003
 3.049085
 3.031646
 3.02275
 3.015636
 3.008888
 2.9676
 2.916235
 2.816991
 2.673875
 2.55093
 2.377508
 2.135872
 2.078928
 2.018099
 1.953364
 1.884542
 1.811472
 1.734071
 1.652382
 1.566715
 1.479654
 1.415793
 1.355667
 1.297797
 1.242999
 1.163611
 1.092538
 0.9858326
 0.8930723
 0.7474463
 0.6328299
 0.5011261
 0.4077168
 0.3403199
 0.2905306
 0.2529796
 0.2241713
 0.1885424
 0.1650293
 0.1419253
 0.1289043
 0.1209461
 0.113251
 0.1096969
 0.1066865
 0.1056805
 0.1049227
 0.1048079
 0.1048101
 0.105362
 0.10737
 0.1109943
 0.11745
 0.1388983
 0.1644632
 0.1878853
 0.2280086
 0.3154802
 0.7337016
 1.085809
 1.939754
 2.5016
 2.961493
 3.079972
 3.106352
 3.141161
 3.153279
 3.172642
 3.179567
 3.192132
 3.196434
 3.208161
 3.212632
 3.220153
 3.224429
 3.230647
 3.231811
 3.236787
 3.236895
 3.239601
 3.238975
 3.241053
 3.23973
 3.241544
 3.24011
 3.241731
 3.240267
 3.241842
 3.240341
 3.241892
 3.24039
 3.241916
 3.240416
 3.241934
 3.236482
 3.232856
 3.198299
 3.09942
 3.081505
 3.064763
 3.050767
 3.018195
 2.816745
 2.775279
 2.542575
 2.252411
 2.153348
 2.040785
 1.962671
 1.878595
 1.788469
 1.692155
 1.612454
 1.529752
 1.452077
 1.379748
 1.311337
 1.246995
 1.188065
 1.101264
 1.023484
 0.9047278
 0.8040506
 0.6359618
 0.5141059
 0.425436
 0.3595213
 0.3095781
 0.2710915
 0.2409854
 0.2026087
 0.1765658
 0.1504032
 0.1350348
 0.1253882
 0.1158861
 0.1113151
 0.1074314
 0.1060159
 0.1049194
 0.1046922
 0.1045316
 0.1047092
 0.1057157
 0.1084732
 0.1129968
 0.1211232
 0.1439471
 0.1707314
 0.1928934
 0.2376681
 0.3551795
 0.7498085
 1.092077
 1.657379
 2.270443
 2.866938
 3.072438
 3.103145
 3.143102
 3.15528
 3.176662
 3.182892
 3.196585
 3.200007
 3.209491
 3.213611
 3.221941
 3.223481
 3.230661
 3.231509
 3.23596
 3.236082
 3.239507
 3.23821
 3.240969
 3.239331
 3.24154
 3.239781
 3.241851
 3.239982
 3.241979
 3.240101
 3.242038
 3.240163
 3.242077
 3.240202
 3.242098
 3.240225
</dep>
<dep _net0.Vt time>
 14.15651
 14.15651
 14.15651
 14.15651
 14.15651
 14.15651
 14.15651
 14.15651
 14.15651
 14.15651
 14.15651
 14.15651
 14.15651
 14.15651
 14.15651
 14.15651
 14.15651
 14.15651
 14.15651
 14.15651
 14.15651
 14.15651
 14.15651
 14.15651
 14.15651
 14.15651
 14.15651
 14.15651
 14.15651
 14.15651
 14.15651
 14.15651
 14.15651
 14.15651
 14.15651
 14.15651
 14.15651
 14.15651
 14.15651
 14.15651
 14.15651
 14.15651
 14.15651
 14.15651
 14.15651
 14.15651
 14.15651
 14.15651
 14.15651
 14.15651
 14.15651
 14.15651
 14.15651
 14.15651
 14.15651
 14.15651
 14.15651
 14.15651
 14.15651
 14.15651
 14.15651
 14.15651
 14.15651
 14.15651
 14.15651
 14.15651
 14.15651
 14.15651
 14.15651
 14.15651
 14.15651
 14.15651
 14.15651
 14.15651
 14.15651
 14.15651
 14.15651
 14.15651
 14.15651
 14.15651
 14.15651
 14.15651
 14.15651
 14.15651
 14.15651
 14.15651
 14.15651
 14.15651
 14.15651
 14.15651
 14.15651
 14.15651
 14.15651
 14.15651
 14.15651
 14.15651
 14.15651
 14.15651
 14.15651
 14.15651
 14.15651
 14.15651
 14.15651
 14.15651
 14.15651
 14.15651
 14.15651
 14.15651
 14.15651
 14.15651
 14.15651
 14.15651
 14.15651
 14.15651
 14.15651
 14.15651
 14.15651
 14.15651
 14.15651
 14.15651
 14.15651
 14.15651
 14.15651
 14.15651
 14.15651
 14.15651
 14.15651
 14.15651
 14.15651
 14.15651
 14.15651
 14.15651
 14.15651
 14.15651
 14.15651
 14.15651
 14.15651
 14.15651
 14.15651
 14.15651
 14.15651
 14.15651
 14.15651
 14.15651
 14.15651
 14.15651
 14.15651
 14.15651
 14.15651
 14.15651
 14.15651
 14.15651
 14.15651
 14.15651
 14.15651
 14.15651
 14.15651
 14.15651
 14.15651
 14.15651
 14.15651
 14.15651
 14.15651
 14.15651
 14.15651
 14.15651
 14.15651
 14.15651
 14.15651
 14.15651
 14.15651
 14.15651
 14.15651
 14.15651
 14.15651
 14.15651
 14.15651
 14.15651
 14.15651
 14.15651
 14.15651
 14.15651
 14.15651
 14.15651
 14.15651
 14.15651
 14.15651
 14.15651
 14.15651
 14.15651
 14.15651
 14.15651
 14.15651
 14.15651
 14.15651
 14.15651
 14.15651
 14.15651
 14.15651
 14.15651
 14.15651
 14.15651
 14.15651
 14.15651
 14.15651
 14.15651
</dep>
<dep _net1.Vt time>
 15.
 15.
 15.
 15.
 15.
 15.
 15.
 15.
 15.
 15.
 15.
 15.
 15.
 15.
 15.
 15.
 15.
 15.
 15.
 15.
 15.
 15.
 15.
 15.
 15.
 15.
 15.
 15.
 15.
 15.
 15.
 15.
 15.
 15.
 15.
 15.
 15.
 15.
 15.
 15.
 15.
 15.
 15.
 15.
 15.
 15.
 15.
 15.
 15.
 15.
 15.
 15.
 15.
 15.
 15.
 15.
 15.
 15.
 15.
 15.
 15.
 15.
 15.
 15.
 15.
 15.
 15.
 15.
 15.
 15.
 15.
 15.
 15.
 15.
 15.
 15.
 15.
 15.
 15.
 15.
 15.
 15.
 15.
 15.
 15.
 15.
 15.
 15.
 15.
 15.
 15.
 15.
 15.
 15.
 15.
 15.
 15.
 15.
 15.
 15.
 15.
 15.
 15.
 15.
 15.
 15.
 15.
 15.
 15.
 15.
 15.
 15.
 15.
 15.
 15.
 15.
 15.
 15.
 15.
 15.
 15.
 15.
 15.
 15.
 15.
 15.
 15.
 15.
 15.
 15.
 15.
 15.
 15.
 15.
 15.
 15.
 15.
 15.
 15.
 15.
 15.
 15.
 15.
 15.
 15.
 15.
 15.
 15.
 15.
 15.
 15.
 15.
 15.
 15.
 15.
 15.
 15.
 15.
 15.
 15.
 15.
 15.
 15.
 15.
 15.
 15.
 15.
 15.
 15.
 15.
 15.
 15.
 15.
 15.
 15.
 15.
 15.
 15.
 15.
 15.
 15.
 15.
 15.
 15.
 15.
 15.
 15.
 15.
 15.
 15.
 15.
 15.
 15.
 15.
 15.
 15.
 15.
 15.
 15.
 15.
 15.
 15.
 15.
 15.
 15.
 15.
</dep>
<dep _net2.Vt time>
 0.7545044
 0.7545044
 0.7545052
 0.7545072
 0.7545099
 0.7545193
 0.7545269
 0.7545348
 0.754551
 0.7547208
 0.7571088
 0.7587168
 0.7619654
 0.7644862
 0.7681429
 0.7707556
 0.7743616
 0.7746841
 0.7828709
 0.7843027
 0.7859668
 0.7897384
 0.8073432
 0.8352922
 0.8923174
 0.9766317
 1.046972
 1.142719
 1.27172
 1.301476
 1.333081
 1.366393
 1.401443
 1.438177
 1.476398
 1.51564
 1.554935
 1.587882
 1.592602
 1.588294
 1.581433
 1.570495
 1.543698
 1.508863
 1.447198
 1.388488
 1.291051
 1.211428
 1.117397
 1.049033
 0.9986293
 0.9606275
 0.9314207
 0.9086315
 0.8799145
 0.860617
 0.8413729
 0.830433
 0.8237177
 0.817227
 0.814248
 0.8117453
 0.8109157
 0.81024
 0.8100298
 0.8095703
 0.8090659
 0.8080828
 0.8068893
 0.8050062
 0.8014992
 0.7996421
 0.7989329
 0.7982008
 0.7964229
 0.7898794
 0.7883509
 0.7830189
 0.7801146
 0.7753502
 0.7667852
 0.757819
 0.7502207
 0.7427804
 0.7364035
 0.730048
 0.7245599
 0.7189751
 0.7114345
 0.7040319
 0.6975694
 0.6872653
 0.6783301
 0.6696167
 0.6568188
 0.6452587
 0.6360522
 0.6216946
 0.611516
 0.6026561
 0.5916845
 0.5825755
 0.576211
 0.566087
 0.5591892
 0.5526266
 0.5445047
 0.5371568
 0.5320442
 0.5237983
 0.5180895
 0.6489704
 0.6719997
 0.7185365
 0.7675037
 0.7742482
 0.7812984
 0.7884833
 0.8038334
 0.915593
 0.9400949
 1.069811
 1.228934
 1.281357
 1.340339
 1.380384
 1.423124
 1.468047
 1.514837
 1.551827
 1.587756
 1.602566
 1.599034
 1.590831
 1.577715
 1.557634
 1.51619
 1.471766
 1.397299
 1.330485
 1.214232
 1.127249
 1.062536
 1.013466
 0.9755889
 0.9458868
 0.9222762
 0.8916133
 0.8704031
 0.8487373
 0.8358662
 0.8277362
 0.8197118
 0.815866
 0.8126205
 0.811454
 0.8105295
 0.8102818
 0.8098573
 0.8095961
 0.8087502
 0.807747
 0.8062224
 0.8042129
 0.8009636
 0.7994259
 0.7988007
 0.7980674
 0.7954427
 0.7900558
 0.7882453
 0.7847615
 0.7813375
 0.777321
 0.7683768
 0.7583923
 0.7497613
 0.7416788
 0.7345452
 0.7277638
 0.721681
 0.7157835
 0.7104455
 0.7025397
 0.695422
 0.6885266
 0.6789147
 0.6697865
 0.6617871
 0.6493998
 0.6393449
 0.6302236
 0.6186528
 0.6088773
 0.601758
 0.5911475
 0.5837821
 0.5768977
 0.5692117
 0.5621346
 0.5571842
 0.5498294
 0.5447095
 0.5378881
 0.5331439
 0.5280671
</dep>
<dep _net3.Vt time>
 14.21815
 14.21815
 14.21815
 14.21815
 14.21815
 14.21815
 14.21815
 14.21815
 14.21815
 14.21815
 14.21815
 14.21815
 14.21815
 14.21815
 14.21815
 14.21815
 14.21815
 14.21815
 14.21815
 14.21815
 14.21815
 14.21815
 14.21815
 14.21815
 14.21815
 14.21815
 14.21815
 14.21815
 14.21815
 14.21815
 14.21815
 14.21815
 14.21815
 14.21815
 14.21815
 14.21815
 14.21815
 14.21815
 14.21815
 14.21815
 14.21815
 14.21815
 14.21815
 14.21815
 14.21815
 14.21815
 14.21815
 14.21815
 14.21815
 14.21815
 14.21815
 14.21815
 14.21815
 14.21815
 14.21815
 14.21815
 14.21815
 14.21815
 14.21815
 14.21815
 14.21815
 14.21815
 14.21815
 14.21815
 14.21815
 14.21815
 14.21815
 14.21815
 14.21815
 14.21815
 14.21815
 14.21815
 14.21815
 14.21815
 14.21815
 14.21815
 14.21815
 14.21815
 14.21815
 14.21815
 14.21815
 14.21815
 14.21815
 14.21815
 14.21815
 14.21815
 14.21815
 14.21815
 14.21815
 14.21815
 14.21815
 14.21815
 14.21815
 14.21815
 14.21815
 14.21815
 14.21815
 14.21815
 14.21815
 14.21815
 14.21815
 14.21815
 14.21815
 14.21815
 14.21815
 14.21815
 14.21815
 14.21815
 14.21815
 14.21815
 14.21815
 14.21815
 14.21815
 14.21815
 14.21815
 14.21815
 14.21815
 14.21815
 14.21815
 14.21815
 14.21815
 14.21815
 14.21815
 14.21815
 14.21815
 14.21815
 14.21815
 14.21815
 14.21815
 14.21815
 14.21815
 14.21815
 14.21815
 14.21815
 14.21815
 14.21815
 14.21815
 14.21815
 14.21815
 14.21815
 14.21815
 14.21815
 14.21815
 14.21815
 14.21815
 14.21815
 14.21815
 14.21815
 14.21815
 14.21815
 14.21815
 14.21815
 14.21815
 14.21815
 14.21815
 14.21815
 14.21815
 14.21815
 14.21815
 14.21815
 14.21815
 14.21815
 14.21815
 14.21815
 14.21815
 14.21815
 14.21815
 14.21815
 14.21815
 14.21815
 14.21815
 14.21815
 14.21815
 14.21815
 14.21815
 14.21815
 14.21815
 14.21815
 14.21815
 14.21815
 14.21815
 14.21815
 14.21815
 14.21815
 14.21815
 14.21815
 14.21815
 14.21815
 14.21815
 14.21815
 14.21815
 14.21815
 14.21815
 14.21815
 14.21815
 14.21815
 14.21815
 14.21815
 14.21815
 14.21815
 14.21815
 14.21815
 14.21815
 14.21815
 14.21815
 14.21815
</dep>
