<Qucs Dataset>
default plugins: ignored
C:C1 gnd OUT C="680 pF" V="" 
                        ^ ? C1: V has no value?
parameter Z_Diodes_1N4728A not specified, using default
parameter Z_Diodes_1N4728A value is "NOT_INPUT"
parameter Z_Diodes_1N4728A not specified, using default
parameter Z_Diodes_1N4728A value is "NOT_INPUT"
parameter Z_Diodes_1N4728A not specified, using default
parameter Z_Diodes_1N4728A value is "NOT_INPUT"
parameter Z_Diodes_1N4728A not specified, using default
parameter Z_Diodes_1N4728A value is "NOT_INPUT"
parameter Z_Diodes_1N4728A not specified, using default
parameter Z_Diodes_1N4728A value is "NOT_INPUT"
parameter Z_Diodes_1N4728A not specified, using default
parameter Z_Diodes_1N4728A value is "NOT_INPUT"
parameter Z_Diodes_1N4728A not specified, using default
parameter Z_Diodes_1N4728A value is "NOT_INPUT"
parameter Z_Diodes_1N4728A not specified, using default
parameter Z_Diodes_1N4728A value is "NOT_INPUT"
open circuit: internal node 6
open circuit: internal node 9
open circuit: internal node 6
open circuit: internal node 6
open circuit: internal node 6
Gnucap   System status
iterations: op=0, dc=0, tran=3546, fourier=0, total=3755
transient timesteps: accepted=201, rejected=99, total=300
transient timesteps: accepted=0, rejected=0, total=0
nodes: user=7, subckt=1, model=8, total=16
dctran density=39.8%, ac density=39.8%

<indep time 201>
 0.
 1.E-9
 2.E-9
 3.E-9
 4.E-9
 7.403466E-9
 9.852841E-9
 12.30222E-9
 17.08647E-9
 50.36384E-9
 123.0571E-9
 153.6688E-9
 168.1292E-9
 176.8215E-9
 181.2021E-9
 183.4076E-9
 184.7297E-9
 185.1508E-9
 185.9534E-9
 186.9372E-9
 187.0797E-9
 188.1864E-9
 188.1885E-9
 188.3273E-9
 188.3969E-9
 188.4378E-9
 188.4648E-9
 188.688E-9
 188.9112E-9
 189.1344E-9
 189.5566E-9
 189.7075E-9
 189.8585E-9
 189.962E-9
 190.0369E-9
 190.1118E-9
 190.1867E-9
 190.2615E-9
 190.317E-9
 190.3726E-9
 190.4281E-9
 190.4836E-9
 190.5392E-9
 190.5947E-9
 190.6502E-9
 190.7572E-9
 190.8642E-9
 191.0512E-9
 191.2382E-9
 191.6301E-9
 192.0221E-9
 192.414E-9
 192.6877E-9
 192.9613E-9
 193.3848E-9
 193.8084E-9
 194.4922E-9
 195.176E-9
 195.8598E-9
 197.0059E-9
 198.152E-9
 200.0294E-9
 201.9068E-9
 205.0212E-9
 208.1355E-9
 214.5479E-9
 220.9602E-9
 236.5188E-9
 260.5604E-9
 323.3018E-9
 420.2845E-9
 578.4648E-9
 965.5902E-9
 1.212827E-6
 1.479375E-6
 1.729556E-6
 1.838446E-6
 1.903635E-6
 1.968824E-6
 2.010537E-6
 2.078638E-6
 2.125802E-6
 2.281524E-6
 2.437246E-6
 2.592967E-6
 2.894144E-6
 3.19532E-6
 3.818684E-6
 4.442049E-6
 5.603774E-6
 6.765499E-6
 8.701708E-6
 10.63792E-6
 13.86493E-6
 17.09194E-6
 18.16762E-6
 18.26006E-6
 18.35177E-6
 18.35969E-6
 18.3634E-6
 18.36817E-6
 18.37046E-6
 18.37157E-6
 18.37264E-6
 18.37347E-6
 18.37409E-6
 18.37409E-6
 18.37452E-6
 18.3748E-6
 18.37502E-6
 18.37523E-6
 18.37576E-6
 18.37629E-6
 18.3767E-6
 18.37697E-6
 18.37702E-6
 18.37708E-6
 18.37714E-6
 18.3772E-6
 18.37725E-6
 18.37731E-6
 18.37737E-6
 18.37743E-6
 18.37748E-6
 18.37753E-6
 18.37757E-6
 18.37762E-6
 18.37769E-6
 18.37777E-6
 18.37789E-6
 18.37801E-6
 18.37823E-6
 18.37857E-6
 18.37891E-6
 18.37925E-6
 18.37958E-6
 18.37985E-6
 18.38011E-6
 18.38054E-6
 18.38097E-6
 18.38166E-6
 18.38235E-6
 18.38304E-6
 18.38418E-6
 18.38533E-6
 18.38721E-6
 18.38908E-6
 18.39219E-6
 18.3953E-6
 18.40167E-6
 18.40804E-6
 18.42372E-6
 18.44804E-6
 18.51117E-6
 18.60691E-6
 18.76967E-6
 19.05043E-6
 19.57183E-6
 19.83254E-6
 19.84883E-6
 19.90607E-6
 19.9265E-6
 19.94693E-6
 19.96033E-6
 19.98969E-6
 20.00829E-6
 20.04095E-6
 20.0736E-6
 20.10625E-6
 20.1389E-6
 20.17156E-6
 20.20421E-6
 20.23686E-6
 20.26951E-6
 20.30217E-6
 20.33482E-6
 20.36747E-6
 20.40013E-6
 20.45012E-6
 20.50012E-6
 20.55012E-6
 20.62758E-6
 20.70504E-6
 20.7825E-6
 20.91052E-6
 21.03854E-6
 21.16656E-6
 21.38201E-6
 21.59746E-6
 21.81291E-6
 22.16887E-6
 22.52483E-6
 22.88079E-6
 23.47406E-6
 24.06733E-6
 24.66059E-6
 25.55049E-6
 26.4404E-6
 27.62693E-6
 28.81347E-6
 30.E-6
</indep>
<dep OUT.Vt time>
 3.715852
 3.715852
 3.715923
 3.716064
 3.716133
 3.716125
 3.716118
 3.716112
 3.716098
 3.715945
 3.714195
 3.712403
 3.710378
 3.712202
 3.71224
 3.710277
 3.706402
 3.708794
 3.708405
 3.694707
 3.693458
 3.632514
 3.633123
 3.628116
 3.618393
 3.612557
 3.608616
 3.572184
 3.526827
 3.468411
 3.304203
 3.225492
 3.130928
 3.056317
 2.996863
 2.932402
 2.862606
 2.787195
 2.7275
 2.664894
 2.600058
 2.534295
 2.469564
 2.405749
 2.343143
 2.227982
 2.119802
 1.95412
 1.81184
 1.579139
 1.410684
 1.288958
 1.223265
 1.168976
 1.101894
 1.050708
 0.9898818
 0.948461
 0.9186897
 0.8848192
 0.8644663
 0.8441191
 0.8337724
 0.824457
 0.8205384
 0.8166732
 0.8151926
 0.812518
 0.8104939
 0.8083157
 0.8074432
 0.8053842
 0.8030614
 0.8024316
 0.8052994
 0.823449
 0.8650777
 0.8986683
 0.9201406
 0.9284948
 0.941624
 0.9504221
 0.9786748
 1.006645
 1.034482
 1.088151
 1.141804
 1.252739
 1.363687
 1.570323
 1.776952
 2.121031
 2.464967
 3.037001
 3.607405
 3.779674
 3.793798
 3.781402
 3.774551
 3.772174
 3.769961
 3.764563
 3.764426
 3.756824
 3.747898
 3.735928
 3.737453
 3.721604
 3.707121
 3.69247
 3.673973
 3.601249
 3.468656
 3.292066
 3.121179
 3.077841
 3.031701
 2.982609
 2.93042
 2.874988
 2.816197
 2.753974
 2.68848
 2.620591
 2.565557
 2.51162
 2.458157
 2.374238
 2.292553
 2.165683
 2.049486
 1.866951
 1.646764
 1.481954
 1.358168
 1.263121
 1.204545
 1.155578
 1.090459
 1.040918
 0.9828392
 0.9432109
 0.9146859
 0.8823131
 0.8627844
 0.8432734
 0.8332998
 0.8243274
 0.820535
 0.8167949
 0.815332
 0.8126435
 0.8105936
 0.808394
 0.8075292
 0.8055519
 0.8034062
 0.8039671
 0.8115297
 0.8128196
 0.8178554
 0.8215023
 0.8281871
 0.834515
 0.8491906
 0.8586406
 0.8751442
 0.891212
 0.9052564
 0.9137177
 0.9199869
 0.9264194
 0.9325393
 0.9386619
 0.9445973
 0.950606
 0.9564821
 0.96243
 0.9714003
 0.9804216
 0.9893531
 1.003246
 1.017055
 1.030909
 1.053706
 1.076545
 1.099318
 1.137704
 1.17603
 1.214402
 1.277719
 1.341084
 1.404387
 1.509943
 1.615433
 1.720954
 1.879112
 2.037292
 2.248013
 2.458704
 2.669176
</dep>
<dep UCON.Vt time>
 13.43631
 13.43631
 13.43631
 13.43631
 13.43631
 13.43631
 13.43631
 13.43631
 13.43631
 13.43631
 13.43631
 13.43631
 13.43631
 13.43631
 13.43631
 13.43631
 13.43631
 13.43631
 13.43631
 13.43631
 13.43631
 13.43631
 13.43631
 13.43631
 13.43631
 13.43631
 13.43631
 13.43631
 13.43631
 13.43631
 13.43631
 13.43631
 13.43631
 13.43631
 13.43631
 13.43631
 13.43631
 13.43631
 13.43631
 13.43631
 13.43631
 13.43631
 13.43631
 13.43631
 13.43631
 13.43631
 13.43631
 13.43631
 13.43631
 13.43631
 13.43631
 13.43631
 13.43631
 13.43631
 13.43631
 13.43631
 13.43631
 13.43631
 13.43631
 13.43631
 13.43631
 13.43631
 13.43631
 13.43631
 13.43631
 13.43631
 13.43631
 13.43631
 13.43631
 13.43631
 13.43631
 13.43631
 13.43631
 13.43631
 13.43631
 13.43631
 13.43631
 13.43631
 13.43631
 13.43631
 13.43631
 13.43631
 13.43631
 13.43631
 13.43631
 13.43631
 13.43631
 13.43631
 13.43631
 13.43631
 13.43631
 13.43631
 13.43631
 13.43631
 13.43631
 13.43631
 13.43631
 13.43631
 13.43631
 13.43631
 13.43631
 13.43631
 13.43631
 13.43631
 13.43631
 13.43631
 13.43631
 13.43631
 13.43631
 13.43631
 13.43631
 13.43631
 13.43631
 13.43631
 13.43631
 13.43631
 13.43631
 13.43631
 13.43631
 13.43631
 13.43631
 13.43631
 13.43631
 13.43631
 13.43631
 13.43631
 13.43631
 13.43631
 13.43631
 13.43631
 13.43631
 13.43631
 13.43631
 13.43631
 13.43631
 13.43631
 13.43631
 13.43631
 13.43631
 13.43631
 13.43631
 13.43631
 13.43631
 13.43631
 13.43631
 13.43631
 13.43631
 13.43631
 13.43631
 13.43631
 13.43631
 13.43631
 13.43631
 13.43631
 13.43631
 13.43631
 13.43631
 13.43631
 13.43631
 13.43631
 13.43631
 13.43631
 13.43631
 13.43631
 13.43631
 13.43631
 13.43631
 13.43631
 13.43631
 13.43631
 13.43631
 13.43631
 13.43631
 13.43631
 13.43631
 13.43631
 13.43631
 13.43631
 13.43631
 13.43631
 13.43631
 13.43631
 13.43631
 13.43631
 13.43631
 13.43631
 13.43631
 13.43631
 13.43631
 13.43631
 13.43631
 13.43631
 13.43631
 13.43631
 13.43631
 13.43631
 13.43631
 13.43631
 13.43631
 13.43631
 13.43631
</dep>
<dep UTOP.Vt time>
 3.12521
 3.12521
 3.125215
 3.12522
 3.125212
 3.125174
 3.125151
 3.125125
 3.125072
 3.124518
 3.118615
 3.110114
 3.100927
 3.087443
 3.070963
 3.054792
 3.038628
 3.032971
 3.017837
 2.980244
 2.973423
 2.855451
 2.85526
 2.828047
 2.814795
 2.806552
 2.800791
 2.746256
 2.677172
 2.590032
 2.353064
 2.241618
 2.110379
 2.007953
 1.926921
 1.839737
 1.746108
 1.646148
 1.568205
 1.489262
 1.417096
 1.349116
 1.284261
 1.223803
 1.16829
 1.072724
 0.9878281
 0.8617697
 0.7567073
 0.5884934
 0.4700347
 0.385962
 0.3414703
 0.3053093
 0.261461
 0.2287531
 0.1911087
 0.1664724
 0.1496473
 0.1318623
 0.1221199
 0.1135785
 0.1098082
 0.1068354
 0.1057884
 0.1049187
 0.1048028
 0.1047285
 0.1052079
 0.1070283
 0.1105292
 0.1165331
 0.1352511
 0.1503691
 0.173717
 0.2476887
 1.250394
 2.474132
 3.075606
 3.122917
 3.1674
 3.183592
 3.21665
 3.228294
 3.23505
 3.238295
 3.240468
 3.240218
 3.2414
 3.24056
 3.24159
 3.240654
 3.241647
 3.240689
 3.241672
 3.231667
 3.22608
 3.162384
 3.150028
 3.140772
 3.120747
 3.101936
 3.088656
 3.066463
 3.039883
 3.00909
 3.010445
 2.979456
 2.951253
 2.925475
 2.89326
 2.776201
 2.574389
 2.320349
 2.08248
 2.023464
 1.960503
 1.89413
 1.823779
 1.749753
 1.671822
 1.590528
 1.507669
 1.432158
 1.375198
 1.32065
 1.268669
 1.192167
 1.123384
 1.021927
 0.9328175
 0.7963826
 0.6366316
 0.519672
 0.4332436
 0.3681877
 0.3287499
 0.2963026
 0.2539223
 0.2224269
 0.1866738
 0.1632673
 0.1472596
 0.1304171
 0.1211437
 0.1130258
 0.1094011
 0.1065558
 0.1055342
 0.1047081
 0.1045831
 0.1045218
 0.1049925
 0.1068288
 0.1102585
 0.1164285
 0.1291538
 0.1655676
 0.2049156
 0.2098334
 0.2457073
 0.2904754
 0.425513
 0.568599
 0.9627007
 1.257855
 1.822808
 2.423822
 2.945528
 3.082549
 3.108751
 3.145775
 3.156941
 3.17736
 3.183283
 3.196506
 3.199868
 3.209078
 3.213236
 3.221389
 3.223066
 3.230151
 3.23118
 3.235554
 3.235899
 3.239258
 3.238144
 3.24083
 3.239353
 3.241444
 3.239827
 3.24177
 3.240036
 3.241908
 3.240163
 3.241973
 3.240227
 3.242013
 3.240266
 3.242035
 3.240289
</dep>
<dep _net0.Vt time>
 14.15628
 14.15628
 14.15628
 14.15628
 14.15628
 14.15628
 14.15628
 14.15628
 14.15628
 14.15628
 14.15628
 14.15628
 14.15628
 14.15628
 14.15628
 14.15628
 14.15628
 14.15628
 14.15628
 14.15628
 14.15628
 14.15628
 14.15628
 14.15628
 14.15628
 14.15628
 14.15628
 14.15628
 14.15628
 14.15628
 14.15628
 14.15628
 14.15628
 14.15628
 14.15628
 14.15628
 14.15628
 14.15628
 14.15628
 14.15628
 14.15628
 14.15628
 14.15628
 14.15628
 14.15628
 14.15628
 14.15628
 14.15628
 14.15628
 14.15628
 14.15628
 14.15628
 14.15628
 14.15628
 14.15628
 14.15628
 14.15628
 14.15628
 14.15628
 14.15628
 14.15628
 14.15628
 14.15628
 14.15628
 14.15628
 14.15628
 14.15628
 14.15628
 14.15628
 14.15628
 14.15628
 14.15628
 14.15628
 14.15628
 14.15628
 14.15628
 14.15628
 14.15628
 14.15628
 14.15628
 14.15628
 14.15628
 14.15628
 14.15628
 14.15628
 14.15628
 14.15628
 14.15628
 14.15628
 14.15628
 14.15628
 14.15628
 14.15628
 14.15628
 14.15628
 14.15628
 14.15628
 14.15628
 14.15628
 14.15628
 14.15628
 14.15628
 14.15628
 14.15628
 14.15628
 14.15628
 14.15628
 14.15628
 14.15628
 14.15628
 14.15628
 14.15628
 14.15628
 14.15628
 14.15628
 14.15628
 14.15628
 14.15628
 14.15628
 14.15628
 14.15628
 14.15628
 14.15628
 14.15628
 14.15628
 14.15628
 14.15628
 14.15628
 14.15628
 14.15628
 14.15628
 14.15628
 14.15628
 14.15628
 14.15628
 14.15628
 14.15628
 14.15628
 14.15628
 14.15628
 14.15628
 14.15628
 14.15628
 14.15628
 14.15628
 14.15628
 14.15628
 14.15628
 14.15628
 14.15628
 14.15628
 14.15628
 14.15628
 14.15628
 14.15628
 14.15628
 14.15628
 14.15628
 14.15628
 14.15628
 14.15628
 14.15628
 14.15628
 14.15628
 14.15628
 14.15628
 14.15628
 14.15628
 14.15628
 14.15628
 14.15628
 14.15628
 14.15628
 14.15628
 14.15628
 14.15628
 14.15628
 14.15628
 14.15628
 14.15628
 14.15628
 14.15628
 14.15628
 14.15628
 14.15628
 14.15628
 14.15628
 14.15628
 14.15628
 14.15628
 14.15628
 14.15628
 14.15628
 14.15628
 14.15628
 14.15628
 14.15628
 14.15628
 14.15628
 14.15628
 14.15628
</dep>
<dep _net1.Vt time>
 15.
 15.
 15.
 15.
 15.
 15.
 15.
 15.
 15.
 15.
 15.
 15.
 15.
 15.
 15.
 15.
 15.
 15.
 15.
 15.
 15.
 15.
 15.
 15.
 15.
 15.
 15.
 15.
 15.
 15.
 15.
 15.
 15.
 15.
 15.
 15.
 15.
 15.
 15.
 15.
 15.
 15.
 15.
 15.
 15.
 15.
 15.
 15.
 15.
 15.
 15.
 15.
 15.
 15.
 15.
 15.
 15.
 15.
 15.
 15.
 15.
 15.
 15.
 15.
 15.
 15.
 15.
 15.
 15.
 15.
 15.
 15.
 15.
 15.
 15.
 15.
 15.
 15.
 15.
 15.
 15.
 15.
 15.
 15.
 15.
 15.
 15.
 15.
 15.
 15.
 15.
 15.
 15.
 15.
 15.
 15.
 15.
 15.
 15.
 15.
 15.
 15.
 15.
 15.
 15.
 15.
 15.
 15.
 15.
 15.
 15.
 15.
 15.
 15.
 15.
 15.
 15.
 15.
 15.
 15.
 15.
 15.
 15.
 15.
 15.
 15.
 15.
 15.
 15.
 15.
 15.
 15.
 15.
 15.
 15.
 15.
 15.
 15.
 15.
 15.
 15.
 15.
 15.
 15.
 15.
 15.
 15.
 15.
 15.
 15.
 15.
 15.
 15.
 15.
 15.
 15.
 15.
 15.
 15.
 15.
 15.
 15.
 15.
 15.
 15.
 15.
 15.
 15.
 15.
 15.
 15.
 15.
 15.
 15.
 15.
 15.
 15.
 15.
 15.
 15.
 15.
 15.
 15.
 15.
 15.
 15.
 15.
 15.
 15.
 15.
 15.
 15.
 15.
 15.
 15.
 15.
 15.
 15.
 15.
 15.
 15.
</dep>
<dep _net2.Vt time>
 0.7542923
 0.7542923
 0.7542931
 0.7542952
 0.7542979
 0.754308
 0.7543157
 0.7543238
 0.7543408
 0.7545162
 0.756333
 0.7588235
 0.7613374
 0.7650804
 0.769617
 0.77421
 0.7790058
 0.7815443
 0.7888258
 0.8059514
 0.8098204
 0.8763603
 0.8767137
 0.8917918
 0.9015434
 0.9070727
 0.9108316
 0.9439569
 0.9835925
 1.032584
 1.162428
 1.222293
 1.291584
 1.344711
 1.386245
 1.430289
 1.476686
 1.524609
 1.560068
 1.59015
 1.595779
 1.590184
 1.581483
 1.567021
 1.54645
 1.498725
 1.44874
 1.368137
 1.297472
 1.179994
 1.094709
 1.032774
 0.9993907
 0.9718686
 0.9379358
 0.9121488
 0.8818668
 0.8616697
 0.8476962
 0.8327767
 0.8245637
 0.8173536
 0.8141974
 0.8117207
 0.8108613
 0.8101001
 0.8099118
 0.8094395
 0.8089947
 0.8079937
 0.8068611
 0.8050157
 0.8017312
 0.8002074
 0.7991491
 0.7977665
 0.7858872
 0.7803428
 0.7659927
 0.7542781
 0.7378876
 0.7282856
 0.7011488
 0.6800947
 0.6627684
 0.6354565
 0.6178691
 0.5940543
 0.580645
 0.5638234
 0.553272
 0.5403373
 0.5315369
 0.5201113
 0.5131262
 0.6713697
 0.6871231
 0.7407364
 0.7468602
 0.7505689
 0.758885
 0.7661199
 0.7721562
 0.7817234
 0.7946876
 0.8116042
 0.8126598
 0.8286409
 0.8454426
 0.8591899
 0.8783026
 0.9446562
 1.059907
 1.198987
 1.32535
 1.355434
 1.387914
 1.421477
 1.456783
 1.493127
 1.530464
 1.567614
 1.599832
 1.605787
 1.601187
 1.594806
 1.584921
 1.56096
 1.528536
 1.471266
 1.415678
 1.325378
 1.21469
 1.131227
 1.068217
 1.01988
 0.9901072
 0.9652868
 0.9323447
 0.9074084
 0.8785442
 0.8593031
 0.8459838
 0.8318368
 0.824015
 0.8171597
 0.814126
 0.8117548
 0.8109168
 0.8101917
 0.8099984
 0.8095358
 0.8090773
 0.8080767
 0.8069432
 0.8050736
 0.8025514
 0.7993863
 0.7984062
 0.7982032
 0.7976904
 0.7963191
 0.7933341
 0.7918907
 0.7888348
 0.7869702
 0.7836229
 0.7802385
 0.7756169
 0.7662611
 0.7567957
 0.7484958
 0.740787
 0.7338653
 0.7273637
 0.7214184
 0.7157535
 0.7105072
 0.7028556
 0.6958473
 0.689163
 0.6796865
 0.6708249
 0.6629154
 0.6507785
 0.6407358
 0.631714
 0.6198187
 0.6099299
 0.6025974
 0.5920565
 0.5846043
 0.5777784
 0.5696097
 0.5623435
 0.5571425
 0.5496715
 0.5443542
 0.5374852
 0.5325875
 0.5275196
</dep>
<dep _net3.Vt time>
 14.21815
 14.21815
 14.21815
 14.21815
 14.21815
 14.21815
 14.21815
 14.21815
 14.21815
 14.21815
 14.21815
 14.21815
 14.21815
 14.21815
 14.21815
 14.21815
 14.21815
 14.21815
 14.21815
 14.21815
 14.21815
 14.21815
 14.21815
 14.21815
 14.21815
 14.21815
 14.21815
 14.21815
 14.21815
 14.21815
 14.21815
 14.21815
 14.21815
 14.21815
 14.21815
 14.21815
 14.21815
 14.21815
 14.21815
 14.21815
 14.21815
 14.21815
 14.21815
 14.21815
 14.21815
 14.21815
 14.21815
 14.21815
 14.21815
 14.21815
 14.21815
 14.21815
 14.21815
 14.21815
 14.21815
 14.21815
 14.21815
 14.21815
 14.21815
 14.21815
 14.21815
 14.21815
 14.21815
 14.21815
 14.21815
 14.21815
 14.21815
 14.21815
 14.21815
 14.21815
 14.21815
 14.21815
 14.21815
 14.21815
 14.21815
 14.21815
 14.21815
 14.21815
 14.21815
 14.21815
 14.21815
 14.21815
 14.21815
 14.21815
 14.21815
 14.21815
 14.21815
 14.21815
 14.21815
 14.21815
 14.21815
 14.21815
 14.21815
 14.21815
 14.21815
 14.21815
 14.21815
 14.21815
 14.21815
 14.21815
 14.21815
 14.21815
 14.21815
 14.21815
 14.21815
 14.21815
 14.21815
 14.21815
 14.21815
 14.21815
 14.21815
 14.21815
 14.21815
 14.21815
 14.21815
 14.21815
 14.21815
 14.21815
 14.21815
 14.21815
 14.21815
 14.21815
 14.21815
 14.21815
 14.21815
 14.21815
 14.21815
 14.21815
 14.21815
 14.21815
 14.21815
 14.21815
 14.21815
 14.21815
 14.21815
 14.21815
 14.21815
 14.21815
 14.21815
 14.21815
 14.21815
 14.21815
 14.21815
 14.21815
 14.21815
 14.21815
 14.21815
 14.21815
 14.21815
 14.21815
 14.21815
 14.21815
 14.21815
 14.21815
 14.21815
 14.21815
 14.21815
 14.21815
 14.21815
 14.21815
 14.21815
 14.21815
 14.21815
 14.21815
 14.21815
 14.21815
 14.21815
 14.21815
 14.21815
 14.21815
 14.21815
 14.21815
 14.21815
 14.21815
 14.21815
 14.21815
 14.21815
 14.21815
 14.21815
 14.21815
 14.21815
 14.21815
 14.21815
 14.21815
 14.21815
 14.21815
 14.21815
 14.21815
 14.21815
 14.21815
 14.21815
 14.21815
 14.21815
 14.21815
 14.21815
 14.21815
 14.21815
 14.21815
 14.21815
 14.21815
 14.21815
</dep>
