<Qucs Dataset>
default plugins: ignored
Gnucap   System status
iterations: op=0, dc=0, tran=83, fourier=0, total=93
transient timesteps: accepted=10, rejected=0, total=10
transient timesteps: accepted=0, rejected=0, total=0
nodes: user=5, subckt=0, model=0, total=5
dctran density=68.0%, ac density=68.0%

<indep time 10>
 0.
 2.1E-6
 4.2E-6
 14.49E-6
 100.E-6
 110.E-6
 135.E-6
 172.5E-6
 191.25E-6
 210.E-6
</indep>
<dep Input.Vt time>
-5.
-4.79
-4.58
-3.551
 5.
 5.
 2.5
-1.25
-3.125
-5.
</dep>
<dep Output.Vt time>
 0.03693491
 0.03695093
 0.03696727
 0.03704723
 4.616418
 4.617223
 4.616164
 4.616519
 0.03708901
 0.03692731
</dep>
<dep _net0.Vt time>
 0.8071334
 0.8071495
 0.8071651
 0.8072414
 0.05887702
 0.05886135
 0.0664411
 0.09614632
 0.8072629
 0.8071419
</dep>
<dep _net1.Vt time>
 5.
 5.
 5.
 5.
 5.
 5.
 5.
 5.
 5.
 5.
</dep>
<dep _net2.Vt time>
-2.481532
-2.377199
-2.272207
-1.75769
 0.7850267
 0.785027
 0.7822218
 0.7772607
-1.538056
-2.48602
</dep>
