<Qucs Dataset>
default plugins: ignored
Gnucap   System status
iterations: op=0, dc=0, tran=81, fourier=0, total=91
transient timesteps: accepted=10, rejected=0, total=10
transient timesteps: accepted=0, rejected=0, total=0
nodes: user=5, subckt=0, model=0, total=5
dctran density=68.0%, ac density=68.0%

<indep time 10>
 0.
 2.079208E-6
 4.158416E-6
 14.99218E-6
 100.E-6
 110.E-6
 143.3333E-6
 176.6667E-6
 193.3333E-6
 210.E-6
</indep>
<dep Input.Vt time>
-5.
-4.792079
-4.584158
-3.500782
 5.
 5.
 1.666667
-1.666667
-3.333333
-5.
</dep>
<dep Output.Vt time>
 0.03693491
 0.03695077
 0.03696694
 0.03705113
 4.616415
 4.617226
 4.61607
 4.616464
 0.03707419
 0.03692599
</dep>
<dep _net0.Vt time>
 0.8071334
 0.8071493
 0.8071648
 0.8072451
 0.05887703
 0.05886134
 0.07007354
 0.1052193
 0.807246
 0.8071434
</dep>
<dep _net1.Vt time>
 5.
 5.
 5.
 5.
 5.
 5.
 5.
 5.
 5.
 5.
</dep>
<dep _net2.Vt time>
-2.481532
-2.378239
-2.274286
-1.73258
 0.7850268
 0.785027
 0.7812105
 0.7766179
-1.641259
-2.486988
</dep>
