<Qucs Dataset>
default plugins: ignored
;: already installed, replacing
stashing as ;:0
*: already installed, replacing
stashing as *:0
': already installed, replacing
stashing as ':0
": already installed, replacing
stashing as ":0
store: already installed, replacing
stashing as store:0
alarm: already installed, replacing
stashing as alarm:0
iplot: already installed, replacing
stashing as iplot:0
plot: already installed, replacing
stashing as plot:0
iprint: already installed, replacing
stashing as iprint:0
print: already installed, replacing
stashing as print:0
probe: already installed, replacing
stashing as probe:0
d: already installed, replacing
stashing as d:0
diode: already installed, replacing
stashing as diode:0
npn: already installed, replacing
stashing as npn:0
pnp: already installed, replacing
stashing as pnp:0
npn1: already installed, replacing
stashing as npn1:0
pnp1: already installed, replacing
stashing as pnp1:0
Q: already installed, replacing
stashing as Q:0
bjt: already installed, replacing
stashing as bjt:0
L: already installed, replacing
stashing as L:0
Eqn:Eqn1 Vout="pos.Vt-neg.Vt" Spectrum="dB(Time2Freq(Vout,time))" Expo
^ ? Eqn: no match
T3.mynmos: rsh - rs - rd conflict: using rsh
T3.mynmos: is - js conflict
T3.mynmos: nsub < ni, treating as if not input
T3.mypmos: rsh - rs - rd conflict: using rsh
T3.mypmos: is - js conflict
T3.mypmos: nsub < ni, treating as if not input
T1.mynmos: rsh - rs - rd conflict: using rsh
T1.mynmos: is - js conflict
T1.mynmos: nsub < ni, treating as if not input
T1.mypmos: rsh - rs - rd conflict: using rsh
T1.mypmos: is - js conflict
T1.mypmos: nsub < ni, treating as if not input
T2.mynmos: rsh - rs - rd conflict: using rsh
T2.mynmos: is - js conflict
T2.mynmos: nsub < ni, treating as if not input
T2.mypmos: rsh - rs - rd conflict: using rsh
T2.mypmos: is - js conflict
T2.mypmos: nsub < ni, treating as if not input
Gnucap   System status
iterations: op=0, dc=0, tran=2729, fourier=0, total=3247
transient timesteps: accepted=490, rejected=29, total=519
transient timesteps: accepted=0, rejected=0, total=0
nodes: user=7, subckt=0, model=0, total=7
dctran density=83.7%, ac density=83.7%

<indep time 490>
 0.
 10.E-9
 20.E-9
 21.E-9
 21.78345E-9
 22.5669E-9
 23.35036E-9
 24.13381E-9
 24.91726E-9
 25.70071E-9
 26.48416E-9
 27.26762E-9
 28.05107E-9
 28.83452E-9
 30.03939E-9
 31.24426E-9
 32.44913E-9
 34.83983E-9
 37.23054E-9
 39.62125E-9
 42.01195E-9
 44.40266E-9
 48.1276E-9
 51.85255E-9
 55.5775E-9
 59.30245E-9
 63.02739E-9
 73.61194E-9
 84.19649E-9
 102.2701E-9
 120.3437E-9
 121.4733E-9
 122.6029E-9
 123.7325E-9
 124.8621E-9
 126.8527E-9
 128.8433E-9
 130.8339E-9
 134.933E-9
 139.032E-9
 143.1311E-9
 147.2301E-9
 153.3855E-9
 158.1448E-9
 162.9041E-9
 167.6634E-9
 179.879E-9
 192.0946E-9
 204.3102E-9
 216.5257E-9
 218.5617E-9
 220.5976E-9
 221.7267E-9
 222.8557E-9
 225.2902E-9
 227.7246E-9
 231.5196E-9
 235.3147E-9
 239.1097E-9
 242.9047E-9
 246.6997E-9
 253.341E-9
 257.9496E-9
 262.5582E-9
 267.1668E-9
 280.5996E-9
 294.0324E-9
 307.4653E-9
 320.8981E-9
 322.3332E-9
 323.7683E-9
 325.2035E-9
 326.6386E-9
 329.3246E-9
 333.6981E-9
 338.0716E-9
 342.4451E-9
 346.8185E-9
 351.192E-9
 355.5655E-9
 359.939E-9
 364.3125E-9
 373.6593E-9
 388.311E-9
 402.9628E-9
 417.6145E-9
 419.0796E-9
 420.5448E-9
 421.3903E-9
 422.2359E-9
 424.0329E-9
 425.8299E-9
 427.6269E-9
 431.8087E-9
 435.9906E-9
 440.1724E-9
 444.3542E-9
 448.5361E-9
 452.7179E-9
 456.8998E-9
 461.0816E-9
 465.2635E-9
 480.3099E-9
 495.3563E-9
 510.4028E-9
 514.1644E-9
 515.1048E-9
 516.0452E-9
 516.9856E-9
 517.926E-9
 518.8664E-9
 520.4141E-9
 521.9618E-9
 523.5094E-9
 525.0571E-9
 528.1108E-9
 531.1646E-9
 534.2183E-9
 537.272E-9
 540.3257E-9
 543.3794E-9
 546.4331E-9
 549.4868E-9
 552.5405E-9
 555.5943E-9
 558.648E-9
 564.6536E-9
 575.5274E-9
 586.4013E-9
 604.2949E-9
 622.1886E-9
 622.6998E-9
 623.2111E-9
 623.6133E-9
 624.0155E-9
 624.6887E-9
 625.3619E-9
 626.0351E-9
 627.0589E-9
 628.0827E-9
 629.1065E-9
 630.7444E-9
 632.3822E-9
 634.0201E-9
 637.732E-9
 641.4439E-9
 645.1558E-9
 648.8677E-9
 652.5796E-9
 656.2915E-9
 660.0034E-9
 663.7153E-9
 671.5758E-9
 679.4363E-9
 687.2968E-9
 701.8824E-9
 716.468E-9
 716.9889E-9
 717.5098E-9
 717.8344E-9
 718.159E-9
 718.6724E-9
 719.1857E-9
 719.6991E-9
 720.2124E-9
 720.7258E-9
 721.5349E-9
 722.3441E-9
 723.1533E-9
 724.4352E-9
 725.7172E-9
 726.9992E-9
 729.3137E-9
 731.6283E-9
 735.6294E-9
 739.6306E-9
 743.6318E-9
 747.633E-9
 751.6341E-9
 755.6353E-9
 759.6365E-9
 763.6377E-9
 772.7959E-9
 781.9541E-9
 795.7956E-9
 809.637E-9
 811.6143E-9
 812.2735E-9
 812.9326E-9
 813.5917E-9
 814.2508E-9
 814.9099E-9
 816.1155E-9
 817.0036E-9
 818.5561E-9
 820.1086E-9
 821.6611E-9
 823.2136E-9
 826.2004E-9
 829.1871E-9
 834.1065E-9
 839.0259E-9
 843.9453E-9
 848.8647E-9
 853.784E-9
 858.7034E-9
 863.6228E-9
 868.5422E-9
 881.5474E-9
 894.5527E-9
 907.558E-9
 911.8931E-9
 912.9768E-9
 914.0606E-9
 914.8137E-9
 915.3023E-9
 916.0883E-9
 917.3021E-9
 918.2021E-9
 919.1021E-9
 920.0021E-9
 921.6534E-9
 923.3048E-9
 924.9562E-9
 926.6076E-9
 929.9411E-9
 933.2746E-9
 936.6081E-9
 939.9416E-9
 943.2752E-9
 946.6087E-9
 949.9422E-9
 953.2757E-9
 956.6092E-9
 959.9427E-9
 967.7627E-9
 975.5827E-9
 988.8868E-9
 1.002191E-6
 1.015495E-6
 1.016705E-6
 1.017914E-6
 1.018642E-6
 1.01937E-6
 1.020567E-6
 1.021765E-6
 1.022962E-6
 1.024159E-6
 1.025357E-6
 1.02737E-6
 1.029384E-6
 1.032754E-6
 1.036125E-6
 1.039495E-6
 1.042865E-6
 1.046235E-6
 1.049605E-6
 1.052976E-6
 1.056346E-6
 1.059716E-6
 1.066027E-6
 1.076887E-6
 1.087747E-6
 1.10529E-6
 1.122834E-6
 1.140377E-6
 1.150734E-6
 1.161091E-6
 1.171448E-6
 1.181805E-6
 1.192161E-6
 1.209349E-6
 1.215079E-6
 1.216989E-6
 1.218898E-6
 1.220808E-6
 1.222009E-6
 1.223209E-6
 1.225675E-6
 1.228141E-6
 1.230607E-6
 1.233073E-6
 1.237481E-6
 1.241889E-6
 1.246296E-6
 1.250704E-6
 1.255112E-6
 1.259519E-6
 1.263927E-6
 1.273486E-6
 1.283046E-6
 1.2983E-6
 1.313554E-6
 1.316605E-6
 1.319656E-6
 1.321224E-6
 1.322791E-6
 1.324359E-6
 1.327234E-6
 1.32953E-6
 1.333474E-6
 1.337418E-6
 1.341362E-6
 1.345306E-6
 1.34925E-6
 1.353194E-6
 1.357138E-6
 1.363319E-6
 1.3695E-6
 1.380562E-6
 1.391623E-6
 1.408522E-6
 1.414156E-6
 1.416033E-6
 1.417911E-6
 1.419202E-6
 1.420071E-6
 1.420941E-6
 1.422493E-6
 1.424045E-6
 1.425598E-6
 1.42715E-6
 1.428703E-6
 1.430255E-6
 1.432893E-6
 1.435531E-6
 1.438168E-6
 1.440806E-6
 1.443444E-6
 1.446081E-6
 1.450375E-6
 1.454669E-6
 1.457974E-6
 1.461279E-6
 1.467617E-6
 1.473955E-6
 1.483697E-6
 1.493438E-6
 1.509779E-6
 1.513864E-6
 1.514886E-6
 1.515907E-6
 1.516928E-6
 1.517663E-6
 1.518903E-6
 1.520143E-6
 1.521383E-6
 1.522623E-6
 1.525034E-6
 1.527445E-6
 1.529856E-6
 1.532267E-6
 1.536334E-6
 1.540402E-6
 1.544469E-6
 1.548536E-6
 1.552603E-6
 1.556671E-6
 1.560738E-6
 1.564805E-6
 1.573687E-6
 1.582568E-6
 1.59145E-6
 1.607792E-6
 1.613239E-6
 1.614147E-6
 1.615055E-6
 1.615765E-6
 1.616227E-6
 1.616987E-6
 1.617747E-6
 1.618507E-6
 1.619267E-6
 1.620027E-6
 1.620787E-6
 1.621546E-6
 1.622306E-6
 1.623066E-6
 1.624244E-6
 1.625422E-6
 1.6266E-6
 1.62843E-6
 1.630261E-6
 1.632091E-6
 1.636134E-6
 1.640177E-6
 1.64422E-6
 1.648263E-6
 1.652306E-6
 1.656349E-6
 1.660392E-6
 1.664435E-6
 1.673039E-6
 1.681643E-6
 1.690248E-6
 1.705735E-6
 1.721223E-6
 1.721785E-6
 1.722347E-6
 1.722909E-6
 1.723354E-6
 1.72407E-6
 1.724787E-6
 1.725504E-6
 1.726221E-6
 1.727307E-6
 1.728393E-6
 1.72948E-6
 1.731129E-6
 1.732779E-6
 1.734428E-6
 1.736078E-6
 1.738978E-6
 1.741878E-6
 1.744779E-6
 1.747679E-6
 1.750579E-6
 1.753479E-6
 1.75638E-6
 1.75928E-6
 1.764751E-6
 1.770222E-6
 1.775693E-6
 1.784665E-6
 1.793637E-6
 1.802609E-6
 1.816709E-6
 1.817179E-6
 1.817649E-6
 1.817948E-6
 1.818247E-6
 1.81871E-6
 1.819174E-6
 1.819638E-6
 1.820101E-6
 1.820801E-6
 1.821501E-6
 1.822201E-6
 1.823306E-6
 1.82441E-6
 1.825514E-6
 1.82739E-6
 1.829267E-6
 1.831143E-6
 1.83452E-6
 1.837897E-6
 1.841274E-6
 1.844651E-6
 1.848029E-6
 1.851406E-6
 1.854783E-6
 1.85816E-6
 1.861537E-6
 1.86846E-6
 1.875383E-6
 1.882307E-6
 1.894076E-6
 1.905845E-6
 1.917615E-6
 1.918364E-6
 1.919112E-6
 1.919594E-6
 1.920075E-6
 1.920883E-6
 1.92169E-6
 1.922497E-6
 1.923305E-6
 1.924112E-6
 1.924919E-6
 1.925727E-6
 1.926944E-6
 1.928162E-6
 1.929379E-6
 1.93119E-6
 1.933001E-6
 1.934812E-6
 1.937646E-6
 1.94048E-6
 1.943315E-6
 1.946149E-6
 1.948983E-6
 1.951817E-6
 1.954652E-6
 1.958774E-6
 1.962897E-6
 1.969081E-6
 1.975265E-6
 1.98351E-6
 1.991755E-6
 2.E-6
</indep>
<dep _net0.Vt time>
 5.
 5.
 5.
 5.
 5.
 5.
 5.
 5.
 5.
 5.
 5.
 5.
 5.
 5.
 5.
 5.
 5.
 5.
 5.
 5.
 5.
 5.
 5.
 5.
 5.
 5.
 5.
 5.
 5.
 5.
 5.
 5.
 5.
 5.
 5.
 5.
 5.
 5.
 5.
 5.
 5.
 5.
 5.
 5.
 5.
 5.
 5.
 5.
 5.
 5.
 5.
 5.
 5.
 5.
 5.
 5.
 5.
 5.
 5.
 5.
 5.
 5.
 5.
 5.
 5.
 5.
 5.
 5.
 5.
 5.
 5.
 5.
 5.
 5.
 5.
 5.
 5.
 5.
 5.
 5.
 5.
 5.
 5.
 5.
 5.
 5.
 5.
 5.
 5.
 5.
 5.
 5.
 5.
 5.
 5.
 5.
 5.
 5.
 5.
 5.
 5.
 5.
 5.
 5.
 5.
 5.
 5.
 5.
 5.
 5.
 5.
 5.
 5.
 5.
 5.
 5.
 5.
 5.
 5.
 5.
 5.
 5.
 5.
 5.
 5.
 5.
 5.
 5.
 5.
 5.
 5.
 5.
 5.
 5.
 5.
 5.
 5.
 5.
 5.
 5.
 5.
 5.
 5.
 5.
 5.
 5.
 5.
 5.
 5.
 5.
 5.
 5.
 5.
 5.
 5.
 5.
 5.
 5.
 5.
 5.
 5.
 5.
 5.
 5.
 5.
 5.
 5.
 5.
 5.
 5.
 5.
 5.
 5.
 5.
 5.
 5.
 5.
 5.
 5.
 5.
 5.
 5.
 5.
 5.
 5.
 5.
 5.
 5.
 5.
 5.
 5.
 5.
 5.
 5.
 5.
 5.
 5.
 5.
 5.
 5.
 5.
 5.
 5.
 5.
 5.
 5.
 5.
 5.
 5.
 5.
 5.
 5.
 5.
 5.
 5.
 5.
 5.
 5.
 5.
 5.
 5.
 5.
 5.
 5.
 5.
 5.
 5.
 5.
 5.
 5.
 5.
 5.
 5.
 5.
 5.
 5.
 5.
 5.
 5.
 5.
 5.
 5.
 5.
 5.
 5.
 5.
 5.
 5.
 5.
 5.
 5.
 5.
 5.
 5.
 5.
 5.
 5.
 5.
 5.
 5.
 5.
 5.
 5.
 5.
 5.
 5.
 5.
 5.
 5.
 5.
 5.
 5.
 5.
 5.
 5.
 5.
 5.
 5.
 5.
 5.
 5.
 5.
 5.
 5.
 5.
 5.
 5.
 5.
 5.
 5.
 5.
 5.
 5.
 5.
 5.
 5.
 5.
 5.
 5.
 5.
 5.
 5.
 5.
 5.
 5.
 5.
 5.
 5.
 5.
 5.
 5.
 5.
 5.
 5.
 5.
 5.
 5.
 5.
 5.
 5.
 5.
 5.
 5.
 5.
 5.
 5.
 5.
 5.
 5.
 5.
 5.
 5.
 5.
 5.
 5.
 5.
 5.
 5.
 5.
 5.
 5.
 5.
 5.
 5.
 5.
 5.
 5.
 5.
 5.
 5.
 5.
 5.
 5.
 5.
 5.
 5.
 5.
 5.
 5.
 5.
 5.
 5.
 5.
 5.
 5.
 5.
 5.
 5.
 5.
 5.
 5.
 5.
 5.
 5.
 5.
 5.
 5.
 5.
 5.
 5.
 5.
 5.
 5.
 5.
 5.
 5.
 5.
 5.
 5.
 5.
 5.
 5.
 5.
 5.
 5.
 5.
 5.
 5.
 5.
 5.
 5.
 5.
 5.
 5.
 5.
 5.
 5.
 5.
 5.
 5.
 5.
 5.
 5.
 5.
 5.
 5.
 5.
 5.
 5.
 5.
 5.
 5.
 5.
 5.
 5.
 5.
 5.
 5.
 5.
 5.
 5.
 5.
 5.
 5.
 5.
 5.
 5.
 5.
 5.
 5.
 5.
 5.
 5.
 5.
 5.
 5.
 5.
 5.
 5.
 5.
 5.
 5.
 5.
 5.
 5.
 5.
 5.
 5.
 5.
 5.
 5.
 5.
 5.
 5.
 5.
 5.
 5.
 5.
 5.
 5.
 5.
 5.
 5.
 5.
 5.
 5.
 5.
 5.
 5.
 5.
 5.
 5.
 5.
 5.
 5.
 5.
 5.
 5.
 5.
 5.
</dep>
<dep _net1.Vt time>
 0.
 0.0125581
 0.02506665
 0.02631287
 0.02728851
 0.02826348
 0.02923777
 0.03021135
 0.0311842
 0.03215629
 0.0331276
 0.03409811
 0.03506779
 0.03603663
 0.03752488
 0.03901099
 0.04049486
 0.0434322
 0.04635975
 0.04927683
 0.0521828
 0.05507699
 0.05956141
 0.06401321
 0.06842994
 0.07280919
 0.07714856
 0.0892405
 0.1009379
 0.1198529
 0.137224
 0.1382532
 0.1392754
 0.1402906
 0.1412988
 0.143058
 0.1447949
 0.1465091
 0.1499665
 0.1533244
 0.1565807
 0.1597331
 0.1642672
 0.167605
 0.1707928
 0.173828
 0.1809006
 0.1869081
 0.1918151
 0.1955926
 0.1961107
 0.1965968
 0.1968525
 0.1970982
 0.1975944
 0.1980443
 0.1986532
 0.1991492
 0.199532
 0.1998013
 0.199957
 0.1999559
 0.1997506
 0.1993777
 0.1988377
 0.1963149
 0.1923944
 0.1871042
 0.180482
 0.1796976
 0.1788986
 0.1780851
 0.1772571
 0.1756687
 0.1729755
 0.1701517
 0.1671994
 0.1641208
 0.1609184
 0.1575944
 0.1541515
 0.1505921
 0.1426076
 0.1291129
 0.1145248
 0.09896676
 0.09736261
 0.09575022
 0.09481603
 0.09387916
 0.09187928
 0.08986768
 0.08784463
 0.08309382
 0.07828565
 0.07342343
 0.06851053
 0.06355033
 0.05854625
 0.05350176
 0.04842034
 0.04330548
 0.02468024
 0.00583457
-0.01306321
-0.017776
-0.01895275
-0.02012884
-0.02130423
-0.02247887
-0.02365273
-0.02558281
-0.02751047
-0.02943552
-0.0313578
-0.03514174
-0.03891275
-0.04266943
-0.0464104
-0.05013429
-0.05383972
-0.05752533
-0.06118977
-0.06483168
-0.06844972
-0.07204256
-0.07902989
-0.09138815
-0.10332
-0.1218801
-0.1389013
-0.1393628
-0.1398229
-0.1401838
-0.1405439
-0.1411445
-0.1417425
-0.1423381
-0.1432389
-0.1441339
-0.1450228
-0.1464325
-0.1478266
-0.1492051
-0.1522704
-0.1552529
-0.1581509
-0.160963
-0.1636875
-0.1663229
-0.1688679
-0.171321
-0.1762067
-0.1806627
-0.184678
-0.190929
-0.1955775
-0.1957133
-0.1958471
-0.1959294
-0.1960108
-0.196138
-0.1962631
-0.1963862
-0.1965073
-0.1966263
-0.1968097
-0.1969881
-0.1971613
-0.1974254
-0.1976767
-0.1979151
-0.198313
-0.198669
-0.1991853
-0.1995757
-0.1998399
-0.1999779
-0.1999895
-0.1998746
-0.1996335
-0.1992662
-0.197952
-0.1959825
-0.1917774
-0.1861227
-0.185199
-0.1848847
-0.1845672
-0.1842466
-0.1839228
-0.1835959
-0.1829897
-0.1825364
-0.1817305
-0.1809073
-0.1800668
-0.1792092
-0.1775114
-0.1757512
-0.1727172
-0.1695183
-0.1661575
-0.1626379
-0.1589629
-0.1551361
-0.1511611
-0.1470416
-0.1354854
-0.1230251
-0.1097437
-0.1051493
-0.1039883
-0.1028226
-0.1020097
-0.1014811
-0.1006288
-0.0993077
-0.09832442
-0.09733799
-0.09634845
-0.09452479
-0.09269096
-0.09084715
-0.08899355
-0.08522284
-0.08141475
-0.07757094
-0.0736931
-0.06978293
-0.06584215
-0.06187249
-0.05787569
-0.05385349
-0.04980767
-0.04023413
-0.03056346
-0.01395389
 0.002753124
 0.01944092
 0.020953
 0.02246388
 0.0233727
 0.02428102
 0.02577383
 0.02726517
 0.02875498
 0.03024315
 0.03172961
 0.03422548
 0.03671587
 0.04087046
 0.04500673
 0.04912281
 0.05321687
 0.05728707
 0.06133158
 0.06534859
 0.0693363
 0.07329292
 0.08061186
 0.0929042
 0.1047641
 0.1228694
 0.1394833
 0.1544041
 0.1623437
 0.169596
 0.1761304
 0.1819193
 0.186938
 0.1935117
 0.1952049
 0.1957132
 0.1961933
 0.1966452
 0.1969148
 0.1971732
 0.1976687
 0.1981167
 0.1985172
 0.19887
 0.1993816
 0.1997403
 0.1999458
 0.199998
 0.1998969
 0.1996424
 0.1992348
 0.1978263
 0.1957044
 0.1908606
 0.1842649
 0.1827405
 0.1811491
 0.1803054
 0.1794442
 0.1785657
 0.1769094
 0.1755451
 0.1731167
 0.1705819
 0.1679424
 0.1651998
 0.1623558
 0.159412
 0.1563704
 0.1514108
 0.1462228
 0.136394
 0.1259066
 0.1087284
 0.1027202
 0.1006885
 0.09864274
 0.09722862
 0.09627238
 0.09531326
 0.09359369
 0.09186521
 0.09012798
 0.08838219
 0.08662798
 0.08486554
 0.08185258
 0.07881715
 0.07576006
 0.07268217
 0.06958432
 0.06646735
 0.06135455
 0.05619709
 0.05219936
 0.04817912
 0.04041308
 0.03258297
 0.02045142
 0.008243277
-0.01228098
-0.01740027
-0.01867843
-0.01995583
-0.0212324
-0.02215091
-0.02369879
-0.02524523
-0.02679014
-0.02833343
-0.03132925
-0.03431788
-0.03729864
-0.04027084
-0.04526351
-0.05022662
-0.05515694
-0.06005123
-0.06490631
-0.069719
-0.07448616
-0.07920469
-0.08932443
-0.09916607
-0.108699
-0.1253344
-0.1305944
-0.1314563
-0.132314
-0.1329819
-0.1334149
-0.1341248
-0.1348317
-0.1355354
-0.1362361
-0.1369337
-0.1376282
-0.1383196
-0.1390077
-0.1396928
-0.1407482
-0.141796
-0.142836
-0.1444365
-0.1460179
-0.1475801
-0.150961
-0.1542445
-0.1574285
-0.1605108
-0.1634897
-0.166363
-0.169129
-0.1717858
-0.1770691
-0.181835
-0.1860696
-0.1923144
-0.1967396
-0.1968654
-0.1969887
-0.1971096
-0.1972035
-0.1973516
-0.1974957
-0.1976357
-0.1977718
-0.1979704
-0.1981598
-0.19834
-0.1985958
-0.1988303
-0.1990435
-0.1992353
-0.1995206
-0.1997397
-0.1998924
-0.1999787
-0.1999987
-0.1999522
-0.1998393
-0.1996601
-0.1991416
-0.1983878
-0.1973997
-0.1952748
-0.1925295
-0.1891725
-0.1826876
-0.1824464
-0.1822037
-0.1820484
-0.1818926
-0.1816495
-0.181405
-0.1811589
-0.1809112
-0.1805344
-0.1801541
-0.1797704
-0.1791579
-0.1785367
-0.177907
-0.1768175
-0.1757034
-0.174565
-0.1724547
-0.1702668
-0.1680022
-0.1656619
-0.1632471
-0.1607588
-0.1581981
-0.1555662
-0.1528642
-0.1471114
-0.1410803
-0.1347822
-0.1234969
-0.1115366
-0.09896663
-0.09814768
-0.09732655
-0.09679754
-0.09626764
-0.09537716
-0.09448422
-0.09358885
-0.09269107
-0.09179091
-0.09088838
-0.08998352
-0.08861443
-0.08724016
-0.08586078
-0.08380013
-0.08172863
-0.07964656
-0.07636706
-0.07306334
-0.06973645
-0.06638745
-0.06301739
-0.05962735
-0.0562184
-0.0512284
-0.04620402
-0.03861039
-0.03095849
-0.02068526
-0.01035652
 0.
</dep>
<dep _net2.Vt time>
 5.
 6.763356
 7.85317
 7.905749
 7.938941
 7.965012
 7.983899
 7.995558
 7.999959
 7.997093
 7.986965
 7.969601
 7.945043
 7.913349
 7.850866
 7.772053
 7.677359
 7.444673
 7.15693
 6.82061
 6.443287
 6.033459
 5.352125
 4.65159
 3.970054
 3.344678
 2.809563
 2.011402
 2.487055
 5.426456
 7.872524
 7.92665
 7.966038
 7.990492
 7.999887
 7.979696
 7.912953
 7.800702
 7.434457
 6.907619
 6.254943
 5.519481
 4.366653
 3.530881
 2.825506
 2.313136
 2.139865
 3.570388
 5.802552
 7.584693
 7.75786
 7.88596
 7.936773
 7.972813
 7.999501
 7.956147
 7.751792
 7.391716
 6.896297
 6.293568
 5.617639
 4.374849
 3.563069
 2.870935
 2.356077
 2.183774
 3.901314
 6.356133
 7.900912
 7.957984
 7.991021
 7.999755
 7.984114
 7.889932
 7.563022
 7.043788
 6.371192
 5.595704
 4.775515
 3.972171
 3.245954
 2.651357
 2.010638
 2.989487
 5.555246
 7.682746
 7.794821
 7.883226
 7.923172
 7.954869
 7.994463
 7.995923
 7.95923
 7.729637
 7.312673
 6.736962
 6.04202
 5.275551
 4.490168
 3.739781
 3.075899
 2.544092
 2.165421
 4.137057
 6.824206
 7.331167
 7.438608
 7.537538
 7.62761
 7.708512
 7.77996
 7.876321
 7.945503
 7.986853
 7.999981
 7.942875
 7.777762
 7.510701
 7.151494
 6.713323
 6.212272
 5.666728
 5.096714
 4.523151
 3.967089
 3.448936
 2.611901
 2.001647
 2.737403
 5.799784
 7.953315
 7.968724
 7.981069
 7.98862
 7.994262
 7.999426
 7.999225
 7.993658
 7.974933
 7.943901
 7.900692
 7.806707
 7.683024
 7.530951
 7.090172
 6.536215
 5.899074
 5.213251
 4.51588
 3.844723
 3.236123
 2.723033
 2.069165
 2.115793
 2.851772
 5.353999
 7.57915
 7.627913
 7.67386
 7.701046
 7.727108
 7.766006
 7.802027
 7.835133
 7.865289
 7.892465
 7.92918
 7.958326
 7.979827
 7.998111
 7.996954
 7.976364
 7.89048
 7.743572
 7.355432
 6.819206
 6.168605
 5.444534
 4.692514
 3.959827
 3.292535
 2.732592
 2.028723
 2.281849
 4.216668
 6.707544
 7.000051
 7.090911
 7.178185
 7.261725
 7.341386
 7.417031
 7.544583
 7.62925
 7.757448
 7.85943
 7.934225
 7.981122
 7.991472
 7.896777
 7.52217
 6.908509
 6.113959
 5.213826
 4.293427
 3.439998
 2.734426
 2.243588
 2.2503
 3.993139
 6.371698
 7.0389
 7.183913
 7.318804
 7.406242
 7.460102
 7.541862
 7.655876
 7.73048
 7.796355
 7.85329
 7.933924
 7.982999
 7.999989
 7.98471
 7.856582
 7.603594
 7.236804
 6.772244
 6.230221
 5.634425
 5.010898
 4.386895
 3.789691
 3.245388
 2.304864
 2.00201
 3.071338
 5.411679
 7.480718
 7.601637
 7.707538
 7.763784
 7.814248
 7.884398
 7.938229
 7.975439
 7.995817
 7.999246
 7.966786
 7.886894
 7.650908
 7.296498
 6.839497
 6.300319
 5.703052
 5.074378
 4.44238
 3.835294
 3.280238
 2.464334
 2.021056
 2.911842
 5.978923
 7.972249
 6.705393
 4.861733
 3.074587
 2.07442
 2.270034
 3.581475
 6.662707
 7.435754
 7.627884
 7.782222
 7.896546
 7.947171
 7.981033
 7.997299
 7.941752
 7.815722
 7.622228
 7.12385
 6.463621
 5.691855
 4.867365
 4.052982
 3.310769
 2.697285
 2.013561
 2.375226
 4.680146
 7.257081
 7.592255
 7.832466
 7.915944
 7.971155
 7.997566
 7.970497
 7.879297
 7.584721
 7.132235
 6.549482
 5.872066
 5.141371
 4.40204
 3.699241
 2.772377
 2.177336
 2.181321
 3.4929
 6.530773
 7.330126
 7.536344
 7.707298
 7.8031
 7.857285
 7.902945
 7.96286
 7.994606
 7.997883
 7.972659
 7.919174
 7.837936
 7.638582
 7.36692
 7.030393
 6.638225
 6.201163
 5.731184
 4.929241
 4.132418
 3.55897
 3.047441
 2.317013
 2.006462
 2.436852
 3.7979
 6.729493
 7.295142
 7.414304
 7.523528
 7.622364
 7.686859
 7.782569
 7.861398
 7.922868
 7.966607
 7.999993
 7.964666
 7.861434
 7.692662
 7.27086
 6.701559
 6.021739
 5.275553
 4.511471
 3.779119
 3.126066
 2.59473
 2.01021
 2.332833
 3.464713
 6.410724
 7.217496
 7.329089
 7.433105
 7.508974
 7.555635
 7.627718
 7.69381
 7.753762
 7.807437
 7.854713
 7.89548
 7.929648
 7.957137
 7.977886
 7.996618
 7.998945
 7.984851
 7.930581
 7.837591
 7.707111
 7.29533
 6.736228
 6.065689
 5.326751
 4.566841
 3.834733
 3.177415
 2.637076
 2.02274
 2.25758
 3.274614
 6.057818
 7.91591
 7.938995
 7.958415
 7.974145
 7.983966
 7.994885
