<Qucs Dataset>
default plugins: ignored
T3.n.mynmos: rsh - rs - rd conflict: using rsh
T3.n.mynmos: is - js conflict
T3.n.mynmos: nsub < ni, treating as if not input
T1.n.mynmos: rsh - rs - rd conflict: using rsh
T1.n.mynmos: is - js conflict
T1.n.mynmos: nsub < ni, treating as if not input
T2.n.mynmos: rsh - rs - rd conflict: using rsh
T2.n.mynmos: is - js conflict
T2.n.mynmos: nsub < ni, treating as if not input
parameter pos.Vt-neg.Vt not specified, using default
parameter pos.Vt-neg.Vt value is "NOT_INPUT"
parameter dB(Time2Freq(Vout,time)) not specified, using default
parameter dB(Time2Freq(Vout,time)) value is "NOT_INPUT"
parameter dB(Time2Freq(Vout,time)) not specified, using default
parameter dB(Time2Freq(Vout,time)) value is "NOT_INPUT"
parameter dB(Time2Freq(Vout,time)) not specified, using default
parameter dB(Time2Freq(Vout,time)) value is "NOT_INPUT"
parameter dB(Time2Freq(Vout,time)) not specified, using default
parameter dB(Time2Freq(Vout,time)) value is "NOT_INPUT"
parameter dB(Time2Freq(Vout,time)) not specified, using default
parameter dB(Time2Freq(Vout,time)) value is "NOT_INPUT"
parameter dB(Time2Freq(Vout,time)) not specified, using default
parameter dB(Time2Freq(Vout,time)) value is "NOT_INPUT"
parameter dB(Time2Freq(Vout,time)) not specified, using default
parameter dB(Time2Freq(Vout,time)) value is "NOT_INPUT"
parameter dB(Time2Freq(Vout,time)) not specified, using default
parameter dB(Time2Freq(Vout,time)) value is "NOT_INPUT"
parameter dB(Time2Freq(Vout,time)) not specified, using default
parameter dB(Time2Freq(Vout,time)) value is "NOT_INPUT"
parameter dB(Time2Freq(Vout,time)) not specified, using default
parameter dB(Time2Freq(Vout,time)) value is "NOT_INPUT"
parameter dB(Time2Freq(Vout,time)) not specified, using default
parameter dB(Time2Freq(Vout,time)) value is "NOT_INPUT"
parameter dB(Time2Freq(Vout,time)) not specified, using default
parameter dB(Time2Freq(Vout,time)) value is "NOT_INPUT"
parameter dB(Time2Freq(Vout,time)) not specified, using default
parameter dB(Time2Freq(Vout,time)) value is "NOT_INPUT"
parameter dB(Time2Freq(Vout,time)) not specified, using default
parameter dB(Time2Freq(Vout,time)) value is "NOT_INPUT"
parameter dB(Time2Freq(Vout,time)) not specified, using default
parameter dB(Time2Freq(Vout,time)) value is "NOT_INPUT"
parameter dB(Time2Freq(Vout,time)) not specified, using default
parameter dB(Time2Freq(Vout,time)) value is "NOT_INPUT"
parameter dB(Time2Freq(Vout,time)) not specified, using default
parameter dB(Time2Freq(Vout,time)) value is "NOT_INPUT"
parameter dB(Time2Freq(Vout,time)) not specified, using default
parameter dB(Time2Freq(Vout,time)) value is "NOT_INPUT"
parameter dB(Time2Freq(Vout,time)) not specified, using default
parameter dB(Time2Freq(Vout,time)) value is "NOT_INPUT"
parameter dB(Time2Freq(Vout,time)) recursion too deep
parameter dB(Time2Freq(Vout,time)) recursion too deep
parameter dB(Time2Freq(Vout,time)) recursion too deep
parameter dB(Time2Freq(Vout,time)) recursion too deep
parameter dB(Time2Freq(Vout,time)) recursion too deep
parameter dB(Time2Freq(Vout,time)) recursion too deep
parameter dB(Time2Freq(Vout,time)) recursion too deep
parameter dB(Time2Freq(Vout,time)) recursion too deep
parameter dB(Time2Freq(Vout,time)) recursion too deep
parameter dB(Time2Freq(Vout,time)) recursion too deep
parameter dB(Time2Freq(Vout,time)) recursion too deep
parameter dB(Time2Freq(Vout,time)) recursion too deep
parameter dB(Time2Freq(Vout,time)) recursion too deep
parameter dB(Time2Freq(Vout,time)) recursion too deep
parameter dB(Time2Freq(Vout,time)) recursion too deep
parameter dB(Time2Freq(Vout,time)) recursion too deep
parameter dB(Time2Freq(Vout,time)) recursion too deep
parameter dB(Time2Freq(Vout,time)) recursion too deep
parameter dB(Time2Freq(Vout,time)) recursion too deep
parameter dB(Time2Freq(Vout,time)) recursion too deep
parameter dB(Time2Freq(Vout,time)) recursion too deep
parameter dB(Time2Freq(Vout,time)) recursion too deep
parameter dB(Time2Freq(Vout,time)) recursion too deep
parameter dB(Time2Freq(Vout,time)) recursion too deep
parameter dB(Time2Freq(Vout,time)) recursion too deep
parameter dB(Time2Freq(Vout,time)) recursion too deep
parameter dB(Time2Freq(Vout,time)) recursion too deep
parameter dB(Time2Freq(Vout,time)) recursion too deep
parameter dB(Time2Freq(Vout,time)) recursion too deep
parameter dB(Time2Freq(Vout,time)) recursion too deep
parameter dB(Time2Freq(Vout,time)) recursion too deep
parameter dB(Time2Freq(Vout,time)) recursion too deep
parameter dB(Time2Freq(Vout,time)) recursion too deep
parameter dB(Time2Freq(Vout,time)) recursion too deep
parameter dB(Time2Freq(Vout,time)) recursion too deep
parameter dB(Time2Freq(Vout,time)) recursion too deep
parameter dB(Time2Freq(Vout,time)) recursion too deep
parameter dB(Time2Freq(Vout,time)) recursion too deep
parameter dB(Time2Freq(Vout,time)) recursion too deep
parameter dB(Time2Freq(Vout,time)) recursion too deep
parameter dB(Time2Freq(Vout,time)) recursion too deep
parameter dB(Time2Freq(Vout,time)) recursion too deep
parameter dB(Time2Freq(Vout,time)) recursion too deep
parameter dB(Time2Freq(Vout,time)) recursion too deep
parameter dB(Time2Freq(Vout,time)) recursion too deep
parameter dB(Time2Freq(Vout,time)) recursion too deep
parameter dB(Time2Freq(Vout,time)) recursion too deep
parameter dB(Time2Freq(Vout,time)) recursion too deep
parameter dB(Time2Freq(Vout,time)) recursion too deep
parameter dB(Time2Freq(Vout,time)) recursion too deep
parameter dB(Time2Freq(Vout,time)) recursion too deep
parameter dB(Time2Freq(Vout,time)) recursion too deep
parameter dB(Time2Freq(Vout,time)) recursion too deep
parameter dB(Time2Freq(Vout,time)) recursion too deep
parameter dB(Time2Freq(Vout,time)) recursion too deep
parameter dB(Time2Freq(Vout,time)) recursion too deep
parameter dB(Time2Freq(Vout,time)) recursion too deep
parameter dB(Time2Freq(Vout,time)) recursion too deep
parameter dB(Time2Freq(Vout,time)) recursion too deep
parameter dB(Time2Freq(Vout,time)) recursion too deep
parameter dB(Time2Freq(Vout,time)) recursion too deep
parameter dB(Time2Freq(Vout,time)) recursion too deep
parameter dB(Time2Freq(Vout,time)) recursion too deep
parameter dB(Time2Freq(Vout,time)) recursion too deep
parameter dB(Time2Freq(Vout,time)) recursion too deep
parameter dB(Time2Freq(Vout,time)) recursion too deep
parameter dB(Time2Freq(Vout,time)) recursion too deep
parameter dB(Time2Freq(Vout,time)) recursion too deep
parameter dB(Time2Freq(Vout,time)) recursion too deep
parameter dB(Time2Freq(Vout,time)) recursion too deep
parameter dB(Time2Freq(Vout,time)) recursion too deep
parameter dB(Time2Freq(Vout,time)) recursion too deep
parameter dB(Time2Freq(Vout,time)) recursion too deep
parameter dB(Time2Freq(Vout,time)) recursion too deep
parameter dB(Time2Freq(Vout,time)) recursion too deep
parameter dB(Time2Freq(Vout,time)) recursion too deep
parameter dB(Time2Freq(Vout,time)) recursion too deep
parameter dB(Time2Freq(Vout,time)) recursion too deep
parameter dB(Time2Freq(Vout,time)) recursion too deep
parameter dB(Time2Freq(Vout,time)) recursion too deep
parameter dB(Time2Freq(Vout,time)) recursion too deep
parameter dB(Time2Freq(Vout,time)) recursion too deep
parameter dB(Time2Freq(Vout,time)) recursion too deep
parameter dB(Time2Freq(Vout,time)) recursion too deep
parameter dB(Time2Freq(Vout,time)) recursion too deep
parameter dB(Time2Freq(Vout,time)) recursion too deep
parameter dB(Time2Freq(Vout,time)) recursion too deep
parameter dB(Time2Freq(Vout,time)) recursion too deep
parameter dB(Time2Freq(Vout,time)) recursion too deep
parameter dB(Time2Freq(Vout,time)) recursion too deep
parameter dB(Time2Freq(Vout,time)) recursion too deep
parameter dB(Time2Freq(Vout,time)) recursion too deep
parameter dB(Time2Freq(Vout,time)) recursion too deep
parameter dB(Time2Freq(Vout,time)) recursion too deep
parameter dB(Time2Freq(Vout,time)) recursion too deep
parameter dB(Time2Freq(Vout,time)) recursion too deep
parameter dB(Time2Freq(Vout,time)) recursion too deep
parameter dB(Time2Freq(Vout,time)) recursion too deep
parameter dB(Time2Freq(Vout,time)) recursion too deep
parameter dB(Time2Freq(Vout,time)) recursion too deep
parameter dB(Time2Freq(Vout,time)) recursion too deep
parameter dB(Time2Freq(Vout,time)) recursion too deep
parameter dB(Time2Freq(Vout,time)) recursion too deep
parameter dB(Time2Freq(Vout,time)) recursion too deep
parameter dB(Time2Freq(Vout,time)) recursion too deep
parameter dB(Time2Freq(Vout,time)) recursion too deep
parameter dB(Time2Freq(Vout,time)) recursion too deep
parameter dB(Time2Freq(Vout,time)) recursion too deep
parameter dB(Time2Freq(Vout,time)) recursion too deep
parameter dB(Time2Freq(Vout,time)) recursion too deep
parameter dB(Time2Freq(Vout,time)) recursion too deep
parameter dB(Time2Freq(Vout,time)) recursion too deep
parameter dB(Time2Freq(Vout,time)) recursion too deep
parameter dB(Time2Freq(Vout,time)) recursion too deep
parameter dB(Time2Freq(Vout,time)) recursion too deep
parameter dB(Time2Freq(Vout,time)) recursion too deep
parameter dB(Time2Freq(Vout,time)) recursion too deep
parameter dB(Time2Freq(Vout,time)) recursion too deep
parameter dB(Time2Freq(Vout,time)) recursion too deep
parameter dB(Time2Freq(Vout,time)) recursion too deep
parameter dB(Time2Freq(Vout,time)) recursion too deep
parameter dB(Time2Freq(Vout,time)) recursion too deep
parameter dB(Time2Freq(Vout,time)) recursion too deep
parameter dB(Time2Freq(Vout,time)) recursion too deep
parameter dB(Time2Freq(Vout,time)) recursion too deep
parameter dB(Time2Freq(Vout,time)) recursion too deep
parameter dB(Time2Freq(Vout,time)) recursion too deep
parameter dB(Time2Freq(Vout,time)) recursion too deep
parameter dB(Time2Freq(Vout,time)) recursion too deep
parameter dB(Time2Freq(Vout,time)) recursion too deep
parameter dB(Time2Freq(Vout,time)) recursion too deep
parameter dB(Time2Freq(Vout,time)) recursion too deep
parameter dB(Time2Freq(Vout,time)) recursion too deep
parameter dB(Time2Freq(Vout,time)) recursion too deep
parameter dB(Time2Freq(Vout,time)) recursion too deep
parameter dB(Time2Freq(Vout,time)) recursion too deep
parameter dB(Time2Freq(Vout,time)) recursion too deep
parameter dB(Time2Freq(Vout,time)) recursion too deep
parameter dB(Time2Freq(Vout,time)) recursion too deep
parameter dB(Time2Freq(Vout,time)) recursion too deep
parameter dB(Time2Freq(Vout,time)) recursion too deep
parameter dB(Time2Freq(Vout,time)) recursion too deep
parameter dB(Time2Freq(Vout,time)) recursion too deep
parameter dB(Time2Freq(Vout,time)) recursion too deep
parameter dB(Time2Freq(Vout,time)) recursion too deep
parameter dB(Time2Freq(Vout,time)) recursion too deep
parameter dB(Time2Freq(Vout,time)) recursion too deep
parameter dB(Time2Freq(Vout,time)) recursion too deep
parameter dB(Time2Freq(Vout,time)) recursion too deep
parameter dB(Time2Freq(Vout,time)) recursion too deep
parameter dB(Time2Freq(Vout,time)) recursion too deep
parameter dB(Time2Freq(Vout,time)) recursion too deep
parameter dB(Time2Freq(Vout,time)) recursion too deep
parameter dB(Time2Freq(Vout,time)) recursion too deep
parameter dB(Time2Freq(Vout,time)) recursion too deep
parameter dB(Time2Freq(Vout,time)) recursion too deep
parameter dB(Time2Freq(Vout,time)) recursion too deep
parameter dB(Time2Freq(Vout,time)) recursion too deep
parameter dB(Time2Freq(Vout,time)) recursion too deep
parameter dB(Time2Freq(Vout,time)) recursion too deep
parameter dB(Time2Freq(Vout,time)) recursion too deep
parameter dB(Time2Freq(Vout,time)) recursion too deep
parameter dB(Time2Freq(Vout,time)) recursion too deep
parameter dB(Time2Freq(Vout,time)) recursion too deep
parameter dB(Time2Freq(Vout,time)) recursion too deep
parameter dB(Time2Freq(Vout,time)) recursion too deep
parameter dB(Time2Freq(Vout,time)) recursion too deep
parameter dB(Time2Freq(Vout,time)) recursion too deep
parameter dB(Time2Freq(Vout,time)) recursion too deep
parameter dB(Time2Freq(Vout,time)) recursion too deep
parameter dB(Time2Freq(Vout,time)) recursion too deep
parameter dB(Time2Freq(Vout,time)) recursion too deep
parameter dB(Time2Freq(Vout,time)) recursion too deep
parameter dB(Time2Freq(Vout,time)) recursion too deep
parameter dB(Time2Freq(Vout,time)) recursion too deep
parameter dB(Time2Freq(Vout,time)) recursion too deep
parameter dB(Time2Freq(Vout,time)) recursion too deep
parameter dB(Time2Freq(Vout,time)) recursion too deep
parameter dB(Time2Freq(Vout,time)) recursion too deep
parameter dB(Time2Freq(Vout,time)) recursion too deep
parameter dB(Time2Freq(Vout,time)) recursion too deep
parameter dB(Time2Freq(Vout,time)) recursion too deep
parameter dB(Time2Freq(Vout,time)) recursion too deep
parameter dB(Time2Freq(Vout,time)) recursion too deep
parameter dB(Time2Freq(Vout,time)) recursion too deep
parameter dB(Time2Freq(Vout,time)) recursion too deep
parameter dB(Time2Freq(Vout,time)) recursion too deep
parameter dB(Time2Freq(Vout,time)) recursion too deep
parameter dB(Time2Freq(Vout,time)) recursion too deep
parameter dB(Time2Freq(Vout,time)) recursion too deep
parameter dB(Time2Freq(Vout,time)) recursion too deep
parameter dB(Time2Freq(Vout,time)) recursion too deep
parameter dB(Time2Freq(Vout,time)) recursion too deep
parameter dB(Time2Freq(Vout,time)) recursion too deep
Gnucap   System status
iterations: op=0, dc=0, tran=822, fourier=0, total=938
transient timesteps: accepted=116, rejected=2, total=118
transient timesteps: accepted=0, rejected=0, total=0
nodes: user=7, subckt=0, model=0, total=7
dctran density=83.7%, ac density=83.7%

<indep time 116>
 0.
 5.E-9
 10.E-9
 18.189E-9
 32.55E-9
 46.911E-9
 61.272E-9
 75.633E-9
 89.994E-9
 113.574E-9
 131.37E-9
 149.166E-9
 166.962E-9
 184.758E-9
 202.554E-9
 220.35E-9
 238.146E-9
 255.942E-9
 273.738E-9
 291.534E-9
 309.33E-9
 327.126E-9
 344.922E-9
 362.718E-9
 380.514E-9
 398.31E-9
 416.106E-9
 433.902E-9
 451.698E-9
 469.494E-9
 487.29E-9
 505.086E-9
 522.882E-9
 540.678E-9
 558.474E-9
 576.27E-9
 594.066E-9
 611.862E-9
 629.658E-9
 647.454E-9
 665.25E-9
 683.046E-9
 700.842E-9
 718.638E-9
 736.434E-9
 754.23E-9
 772.026E-9
 789.822E-9
 807.618E-9
 825.414E-9
 843.21E-9
 861.006E-9
 878.802E-9
 896.598E-9
 914.394E-9
 932.19E-9
 949.986E-9
 967.782E-9
 985.578E-9
 1.003374E-6
 1.02117E-6
 1.038966E-6
 1.056762E-6
 1.074558E-6
 1.092354E-6
 1.11015E-6
 1.127946E-6
 1.145742E-6
 1.163538E-6
 1.181334E-6
 1.19913E-6
 1.216926E-6
 1.234722E-6
 1.252518E-6
 1.270314E-6
 1.28811E-6
 1.305906E-6
 1.323702E-6
 1.341498E-6
 1.359294E-6
 1.37709E-6
 1.394886E-6
 1.412682E-6
 1.430478E-6
 1.448274E-6
 1.46607E-6
 1.483866E-6
 1.501662E-6
 1.519458E-6
 1.537254E-6
 1.55505E-6
 1.572846E-6
 1.590642E-6
 1.608438E-6
 1.626234E-6
 1.64403E-6
 1.661826E-6
 1.679622E-6
 1.697418E-6
 1.715214E-6
 1.73301E-6
 1.750806E-6
 1.768602E-6
 1.786398E-6
 1.804194E-6
 1.82199E-6
 1.839786E-6
 1.857582E-6
 1.875378E-6
 1.893174E-6
 1.91097E-6
 1.928766E-6
 1.946562E-6
 1.964358E-6
 1.982154E-6
 2.E-6
</indep>
<dep _net0.Vt time>
 5.
 5.
 5.
 5.
 5.
 5.
 5.
 5.
 5.
 5.
 5.
 5.
 5.
 5.
 5.
 5.
 5.
 5.
 5.
 5.
 5.
 5.
 5.
 5.
 5.
 5.
 5.
 5.
 5.
 5.
 5.
 5.
 5.
 5.
 5.
 5.
 5.
 5.
 5.
 5.
 5.
 5.
 5.
 5.
 5.
 5.
 5.
 5.
 5.
 5.
 5.
 5.
 5.
 5.
 5.
 5.
 5.
 5.
 5.
 5.
 5.
 5.
 5.
 5.
 5.
 5.
 5.
 5.
 5.
 5.
 5.
 5.
 5.
 5.
 5.
 5.
 5.
 5.
 5.
 5.
 5.
 5.
 5.
 5.
 5.
 5.
 5.
 5.
 5.
 5.
 5.
 5.
 5.
 5.
 5.
 5.
 5.
 5.
 5.
 5.
 5.
 5.
 5.
 5.
 5.
 5.
 5.
 5.
 5.
 5.
 5.
 5.
 5.
 5.
 5.
 5.
</dep>
<dep _net1.Vt time>
 0.
 0.006282152
 0.0125581
 0.02280725
 0.04061898
 0.05810022
 0.07510874
 0.09150613
 0.107159
 0.1309129
 0.1469668
 0.1611852
 0.1733903
 0.1834299
 0.1911785
 0.1965394
 0.1994455
 0.1998606
 0.1977795
 0.1932282
 0.1862636
 0.1769726
 0.1654712
 0.1519031
 0.1364379
 0.1192685
 0.1006095
 0.08069398
 0.05977058
 0.03810067
 0.01595489
-0.006390168
-0.02865541
-0.05056276
-0.07183859
-0.09221718
-0.111444
-0.1292789
-0.1454992
-0.1599022
-0.1723081
-0.1825619
-0.1905356
-0.1961295
-0.1992739
-0.1999294
-0.1980878
-0.1937721
-0.1870363
-0.1779645
-0.16667
-0.1532938
-0.138003
-0.1209885
-0.102463
-0.08265776
-0.06182013
-0.04021039
-0.01809843
 0.004239576
 0.02652463
 0.0484784
 0.06982668
 0.09030286
 0.1096512
 0.12763
 0.1440147
 0.1586008
 0.1712059
 0.1816728
 0.1898706
 0.195697
 0.1990792
 0.199975
 0.1983731
 0.1942936
 0.1877874
 0.1789359
 0.1678495
 0.1546666
 0.1395521
 0.1226946
 0.1043046
 0.08461197
 0.06386252
 0.04231545
 0.02023988
-0.002088493
-0.02439078
-0.04638843
-0.0678067
-0.08837808
-0.1078457
-0.1259663
-0.1425136
-0.157281
-0.170084
-0.1807627
-0.1891837
-0.1952418
-0.1988615
-0.1999974
-0.1986355
-0.1947926
-0.1885168
-0.1798865
-0.1690095
-0.1560216
-0.1410851
-0.1243864
-0.1061342
-0.08655639
-0.06589753
-0.04441562
-0.02237898
-3.E-15
</dep>
<dep _net2.Vt time>
 5.
 5.927051
 6.763356
 7.729458
 7.668728
 5.578614
 3.048504
 2.002372
 3.235729
 7.259533
 7.762904
 5.157133
 2.374538
 2.546418
 5.479354
 7.872865
 7.033494
 3.905799
 2.009426
 3.478396
 6.659651
 7.973274
 5.941023
 2.849823
 2.178253
 4.682041
 7.543634
 7.542834
 4.680541
 2.177741
 2.850875
 5.942455
 7.973475
 6.658395
 3.477096
 2.009546
 3.907203
 7.034602
 7.87243
 5.477865
 2.545551
 2.375268
 5.158639
 7.763491
 7.258541
 4.212018
 2.052224
 3.209611
 6.381752
 7.998985
 6.241411
 3.086857
 2.085194
 4.36361
 7.358166
 7.699039
 5.002639
 2.303269
 2.638575
 5.631231
 7.913553
 6.917206
 3.763396
 2.001157
 3.613565
 6.786152
 7.948752
 5.793074
 2.744936
 2.234459
 4.836091
 7.622172
 7.45748
 4.527346
 2.129097
 2.961522
 6.08788
 7.990029
 6.527449
 3.346006
 2.02583
 4.052536
 7.145439
 7.824044
 5.324706
 2.459971
 2.453572
 5.312711
 7.819951
 7.153854
 4.06399
 2.027433
 3.335955
 6.517053
 7.990987
 6.099114
 2.97039
 2.125619
 4.515437
 7.450541
 7.628011
 4.848138
 2.239157
 2.736998
 5.781433
 7.946508
 6.79583
 3.624275
 2.000846
 3.752415
 6.907911
 7.916404
 5.64302
 2.646034
 2.298005
 5.
</dep>
<dep _net3.Vt time>
 5.
 5.
 5.
 5.
 5.
 5.
 5.
 5.
 5.
 5.
 5.
 5.
 5.
 5.
 5.
 5.
 5.
 5.
 5.
 5.
 5.
 5.
 5.
 5.
 5.
 5.
 5.
 5.
 5.
 5.
 5.
 5.
 5.
 5.
 5.
 5.
 5.
 5.
 5.
 5.
 5.
 5.
 5.
 5.
 5.
 5.
 5.
 5.
 5.
 5.
 5.
 5.
 5.
 5.
 5.
 5.
 5.
 5.
 5.
 5.
 5.
 5.
 5.
 5.
 5.
 5.
 5.
 5.
 5.
 5.
 5.
 5.
 5.
 5.
 5.
 5.
 5.
 5.
 5.
 5.
 5.
 5.
 5.
 5.
 5.
 5.
 5.
 5.
 5.
 5.
 5.
 5.
 5.
 5.
 5.
 5.
 5.
 5.
 5.
 5.
 5.
 5.
 5.
 5.
 5.
 5.
 5.
 5.
 5.
 5.
 5.
 5.
 5.
 5.
 5.
 5.
</dep>
<dep _net4.Vt time>
 3.292937
 3.922608
 4.430947
 4.630407
 4.608461
 3.600634
 2.920814
 2.910251
 2.89385
 4.469676
 4.548441
 3.261364
 2.823767
 2.819689
 3.431798
 4.528882
 4.351869
 2.805229
 2.798825
 2.812025
 4.223872
 4.559447
 3.786879
 2.852096
 2.858362
 3.071806
 4.541452
 4.568846
 3.101895
 2.967267
 2.979829
 3.955566
 4.685173
 4.454253
 3.065221
 3.095799
 3.111122
 4.623344
 4.748063
 3.694501
 3.169214
 3.185237
 3.513711
 4.765224
 4.713428
 3.199035
 3.194753
 3.199886
 4.449452
 4.777678
 4.345617
 3.157571
 3.131677
 3.156478
 4.65524
 4.700276
 3.330995
 3.046236
 3.013012
 3.685769
 4.643892
 4.455259
 2.923525
 2.913724
 2.888799
 4.336815
 4.5744
 3.680624
 2.825548
 2.820726
 3.081094
 4.48955
 4.457595
 2.948457
 2.799189
 2.809486
 3.882055
 4.558061
 4.181014
 2.847645
 2.856029
 2.895737
 4.458299
 4.605311
 3.422106
 2.962671
 2.97464
 3.474443
 4.665163
 4.592127
 3.059584
 3.093126
 3.105811
 4.463532
 4.754284
 4.240785
 3.166297
 3.182543
 3.240286
 4.732558
 4.757905
 3.361383
 3.196995
 3.19763
 3.970957
 4.772028
 4.595722
 3.156543
 3.13719
 3.131431
 4.570168
 4.722121
 3.73859
 3.048698
 3.017626
 3.29876
</dep>
<dep neg.Vt time>
 4.950023
 4.999399
 5.
 5.
 5.
 4.984051
 4.883591
 4.881301
 4.877702
 5.
 5.
 4.945461
 4.861716
 4.860756
 4.967722
 5.
 5.
 4.857324
 4.85579
 4.858942
 5.
 5.
 4.995455
 4.868296
 4.86973
 4.913883
 5.
 5.
 4.919375
 4.893396
 4.895973
 4.999801
 5.
 5.
 4.912657
 4.918276
 4.921022
 5.
 5.
 4.990665
 4.931007
 4.933642
 4.976356
 5.
 5.
 4.93587
 4.935182
