<Qucs Dataset>
default plugins: ignored
clear: already installed, replacing
stashing as clear:0
;: already installed, replacing
stashing as ;:0
*: already installed, replacing
stashing as *:0
': already installed, replacing
stashing as ':0
": already installed, replacing
stashing as ":0
R:RR gnd _net1 R="1 Ohm" Temp="" Tc1="0.0" Tc2="0.0" Tnom="26.85" 
                         ^ ? RR: Temp has no value?
.SP:SP1 Type="l ... p="1e1" Points="10" Noise="no" NoiseIP="1" NoiseOP="2" s
                                        ^ ? what's this (incomplete)?
R:RR1 _net0 _net3 R="1 Ohm" Temp="" Tc1="0.0" Tc2="0.0" Tnom="26.85" 
                            ^ ? RR1: Temp has no value?
Gnucap   System status
iterations: op=3, dc=0, tran=0, fourier=0, total=13
transient timesteps: accepted=0, rejected=0, total=0
transient timesteps: accepted=0, rejected=0, total=0
nodes: user=4, subckt=2, model=0, total=6
dctran density=61.1%, ac density=61.1%

<indep frequency 10>
 1.
 2.
 3.
 4.
 5.
 6.
 7.
 8.
 9.
 10.
</indep>
<dep S[2,2] frequency>
-0.9614256+j 138.4424E-6
-0.9613167+j 142.5208E-6
-0.9612606+j 108.0482E-6
-0.9612341+j 73.67465E-6
-0.9612214+j 44.63062E-6
-0.9612158+j 20.28811E-6
-0.9612142-j 479.0769E-9
-0.961215-j 18.53722E-6
-0.9612175-j 34.48256E-6
-0.9612212-j 48.72034E-6
</dep>
<dep S[2,1] frequency>
 0.06486477-j 0.01614152
 0.0529966-j 0.0177851
 0.04676392-j 0.01525693
 0.04364353-j 0.0127186
 0.04195072-j 0.01072787
 0.04095164-j 0.009211202
 0.04031937-j 0.008041898
 0.0398963-j 0.007121964
 0.03960032-j 0.006383227
 0.03938563-j 0.005778837
</dep>
<dep S[1,2] frequency>
 0.01883797+j 830.0557E-6
 0.01906053+j 0.001453945
 0.01924141+j 0.002012483
 0.01941477+j 0.002560473
 0.01960269+j 0.003102552
 0.01981359+j 0.003634786
 0.02004992+j 0.004152794
 0.02031152+j 0.004652924
 0.02059697+j 0.005132291
 0.02090422+j 0.005588671
</dep>
<dep S[1,1] frequency>
-0.9203348-j 0.02437192
-0.938226-j 0.02689305
-0.9476264-j 0.02312622
-0.9523388-j 0.01934331
-0.9549022-j 0.01638473
-0.9564223-j 0.01413941
-0.9573919-j 0.01241623
-0.9580483-j 0.01106732
-0.958515-j 0.009989804
-0.9588608-j 0.009112942
</dep>
