<Qucs Dataset 0.0.19>
<indep time 12>
  +0.
  +0.01
  +0.02
  +0.0363333333333333285
  +0.123939393939393927
  +0.211545454545454525
  +0.342954545454545467
  +0.474363636363636409
  +0.605772727272727351
  +0.737181818181818382
  +0.868590909090909413
  +1.
</indep>
<dep _net0.Vt time>
  +0.
  +0.0627905153401330107
  +0.12533322520248602
  +0.226311296787345028
  +0.702378919847813065
  +0.970952266847631051
  +0.834235893629193014
  +0.160382357176388019
  -0.616736125108233146
  -0.996758420049893167
  -0.735000621058610104
  +0.
</dep>
<dep post.Vt time>
  +0.
  +0.0418603435607860063
  +0.0835554834697170001
  +0.150874197860744008
  +0.46825261323967906
  +0.647301511242543092
  +0.556157262428732046
  +0.106921571452706998
  -0.411157416745674986
  -0.664505613377670023
  -0.490000414047240084
  +0.
</dep>
<dep pre.Vt time>
  +0.
  +0.0627905153432729967
  +0.125333225208753007
  +0.226311296798660022
  +0.702378919882932084
  +0.970952266896179061
  +0.834235893670905248
  +0.160382357184407009
  -0.616736125139070079
  -0.99675842009973099
  -0.735000621095359996
  +0.
</dep>
<dep Pr1.Vt time>
  +0.
  +0.0418603435607864415
  +0.0835554834697166448
  +0.150874197860744363
  +0.468252613239679416
  +0.647301511242542559
  +0.556157262428731513
  +0.106921571452707175
  -0.411157416745674986
  -0.664505613377670378
  -0.490000414047239907
  +0.
</dep>
<dep Pr2.Vt time>
  +0.
  +0.0627905153401331617
  +0.125333225202486087
  +0.226311296787344717
  +0.702378919847812888
  +0.970952266847631406
  +0.834235893629193547
  +0.160382357176387717
  -0.616736125108233501
  -0.99675842004989299
  -0.735000621058610015
  +0.
</dep>
