<Qucs Dataset>
default plugins: ignored
;: already installed, replacing
stashing as ;:0
*: already installed, replacing
stashing as *:0
': already installed, replacing
stashing as ':0
": already installed, replacing
stashing as ":0
d: already installed, replacing
stashing as d:0
diode: already installed, replacing
stashing as diode:0
npn: already installed, replacing
stashing as npn:0
pnp: already installed, replacing
stashing as pnp:0
npn1: already installed, replacing
stashing as npn1:0
pnp1: already installed, replacing
stashing as pnp1:0
Q: already installed, replacing
stashing as Q:0
bjt: already installed, replacing
stashing as bjt:0
parameter mysub not specified, using default
parameter mysub value is "NOT_INPUT"
parameter mysub not specified, using default
parameter mysub value is "NOT_INPUT"
parameter mysub not specified, using default
parameter mysub value is "NOT_INPUT"
parameter mysub not specified, using default
parameter mysub value is "NOT_INPUT"
parameter mysub not specified, using default
parameter mysub value is "NOT_INPUT"
parameter mysub not specified, using default
parameter mysub value is "NOT_INPUT"
parameter mysub not specified, using default
parameter mysub value is "NOT_INPUT"
parameter mysub not specified, using default
parameter mysub value is "NOT_INPUT"
parameter mysub not specified, using default
parameter mysub value is "NOT_INPUT"
parameter mysub not specified, using default
parameter mysub value is "NOT_INPUT"
parameter mysub not specified, using default
parameter mysub value is "NOT_INPUT"
parameter mysub not specified, using default
parameter mysub value is "NOT_INPUT"
parameter mysub not specified, using default
parameter mysub value is "NOT_INPUT"
parameter mysub not specified, using default
parameter mysub value is "NOT_INPUT"
Gnucap   System status
iterations: op=0, dc=0, tran=35, fourier=0, total=47
transient timesteps: accepted=12, rejected=0, total=12
transient timesteps: accepted=0, rejected=0, total=0
nodes: user=3, subckt=0, model=0, total=3
dctran density=77.8%, ac density=77.8%

<indep time 12>
 0.
 0.01
 0.02
 0.03633333
 0.1239394
 0.2115455
 0.3429545
 0.4743636
 0.6057727
 0.7371818
 0.8685909
 1.
</indep>
<dep _net0.Vt time>
 0.
 0.06279052
 0.1253332
 0.2263113
 0.7023789
 0.9709523
 0.8342359
 0.1603824
-0.6167361
-0.9967584
-0.7350006
 0.
</dep>
<dep post.Vt time>
 0.
 0.04186034
 0.08355548
 0.1508742
 0.4682526
 0.6473015
 0.5561573
 0.1069216
-0.4111574
-0.6645056
-0.4900004
 0.
</dep>
<dep pre.Vt time>
 0.
 0.06279052
 0.1253332
 0.2263113
 0.7023789
 0.9709523
 0.8342359
 0.1603824
-0.6167361
-0.9967584
-0.7350006
 0.
</dep>
<dep Pr1.Vt time>
 0.
 0.04186034
 0.08355548
 0.1508742
 0.4682526
 0.6473015
 0.5561573
 0.1069216
-0.4111574
-0.6645056
-0.4900004
 0.
</dep>
<dep Pr2.Vt time>
 0.
 0.06279052
 0.1253332
 0.2263113
 0.7023789
 0.9709523
 0.8342359
 0.1603824
-0.6167361
-0.9967584
-0.7350006
 0.
</dep>
