<Qucs Dataset>
default plugins: ignored
C:C1 gnd dc_voltage C="1000 uF" V="" 
                                ^ ? C1: V has no value?
Gnucap   System status
iterations: op=0, dc=0, tran=751, fourier=0, total=839
transient timesteps: accepted=78, rejected=12, total=90
transient timesteps: accepted=0, rejected=0, total=0
nodes: user=5, subckt=1, model=0, total=6
dctran density=77.8%, ac density=77.8%

<indep time 78>
 0.
 96.E-6
 211.4387E-6
 326.8773E-6
 517.0146E-6
 642.1847E-6
 734.9626E-6
 798.9431E-6
 848.095E-6
 897.2469E-6
 946.3988E-6
 0.001020835
 0.001167479
 0.001390459
 0.001798943
 0.002497509
 0.003196075
 0.003894641
 0.004593207
 0.005291773
 0.005466516
 0.005641259
 0.005754709
 0.005815071
 0.005875433
 0.005935795
 0.005996157
 0.006125962
 0.00622659
 0.006393029
 0.006559468
 0.007095771
 0.008008627
 0.009688281
 0.01052811
 0.01094802
 0.01239439
 0.01384076
 0.01466256
 0.01530506
 0.01539906
 0.01549306
 0.01555853
 0.01562401
 0.01568949
 0.0159229
 0.0161563
 0.01638971
 0.01662311
 0.0171529
 0.01858104
 0.02000917
 0.02143731
 0.02286544
 0.02394609
 0.02568301
 0.02661828
 0.02679713
 0.02697597
 0.02711141
 0.02724684
 0.02914294
 0.03103904
 0.03293513
 0.03483123
 0.03577928
 0.03595932
 0.03613937
 0.03626424
 0.03638911
 0.0372965
 0.03888444
 0.04047238
 0.04206031
 0.04364825
 0.04682413
 0.04841206
 0.05
</indep>
<dep _net0.Vt time>
 0.
-0.1733889
-0.3816713
-0.5894391
-0.9298294
-0.9347731
-0.9250496
-0.9260714
-0.9258204
-0.9256846
-0.9255741
-0.9254071
-0.9250422
-0.9243705
-0.9227717
-0.9187019
-0.9121357
-0.9019183
-0.8828542
-0.8407136
-0.8095672
-0.7656206
-0.7283148
-0.7046617
-0.6789868
-0.6513122
-0.6278077
-0.5512304
-0.490449
-0.3783898
-0.249131
-0.005195251
 0.630209
 2.444986
 3.638106
 4.292662
 7.591201
 9.901637
 10.49934
 10.70917
 10.68576
 10.65738
 10.63468
 10.60959
 10.58211
 10.46491
 10.3181
 10.13553
 9.962098
 9.177536
 6.310144
 3.01745
 0.2700164
-0.2785674
-0.8648215
-0.878095
-0.1894492
-0.1093087
-0.01349222
 0.0627584
 0.1429526
 1.877392
 4.581468
 8.887785
 10.57287
 10.5721
 10.4754
 10.3611
 10.27237
 10.15326
 9.335434
 6.086025
 2.405934
-0.201413
-0.6235997
-0.3594796
-0.2143498
 1.791497
</dep>
<dep _net1.Vt time>
 0.
 0.1733903
 0.3816593
 0.589439
 0.9298549
 1.245442
 1.621446
 1.841458
 2.014232
 2.185772
 2.356436
 2.613345
 3.113686
 3.85782
 5.15793
 7.139947
 8.738274
 9.876772
 10.50668
 10.611
 10.56616
 10.5018
 10.44991
 10.42036
 10.38882
 10.35529
 10.31363
 10.23677
 10.16624
 10.03782
 9.898123
 9.090945
 7.364501
 3.569374
 1.738878
 0.9180263
-0.2663098
-0.8408396
-0.9016289
-0.7380543
-0.7239493
-0.7049139
-0.6887211
-0.6701287
-0.6491502
-0.555103
-0.4314362
-0.2857604
-0.07494043
 0.2091451
 1.351779
 3.050584
 5.288092
 8.731155
 10.01057
 10.3443
 9.856093
 9.60602
 9.340962
 9.124222
 8.895024
 4.936528
 0.8939147
-0.2762375
-0.889447
-0.5849914
-0.506269
-0.4100223
-0.3324567
-0.2689469
 0.7008049
 2.137691
 4.106293
 6.733181
 9.854936
 9.30331
 5.287588
 1.791497
</dep>
<dep _net2.Vt time>
 0.
 6.935585
 15.26661
 23.57756
 37.19369
 43.60439
 50.92998
 55.35066
 58.80111
 62.2292
 65.64027
 70.77512
 80.77462
 95.64388
 121.6141
 161.173
 193.0082
 215.5738
 227.7907
 229.0343
 227.5146
 225.3485
 223.5646
 222.5005
 221.3562
 220.132
 218.8287
 215.7599
 213.1339
 208.3242
 202.9451
 181.9228
 134.6858
 22.48775
-37.98455
-67.4927
-157.1502
-214.8495
-228.0193
-228.9445
-228.1942
-227.2459
-226.4681
-225.5944
-224.6252
-220.4003
-214.9908
-208.4259
-200.7408
-179.3678
-99.16732
 0.6626827
 100.3615
 180.1945
 217.5078
 224.4478
 200.9108
 194.3066
 187.0891
 181.2293
 175.0414
 61.18272
-73.75107
-183.2805
-229.2463
-223.1418
-219.6334
-215.4225
-212.0964
-208.4441
-172.6926
-78.96668
 34.00719
 138.6919
 209.5707
 193.2558
 110.0387
 37.275E-12
</dep>
<dep _net3.Vt time>
 0.
 6.935585
 15.26661
 23.57756
 37.19369
 46.08791
 52.63527
 57.12467
 60.55799
 63.97686
 67.38049
 72.50414
 82.47942
 97.30497
 123.1756
 162.5072
 194.0433
 216.2711
 228.1243
 229.0344
 227.5342
 225.3485
 223.5654
 222.5008
 221.3562
 220.132
 218.8287
 215.7599
 213.1339
 208.3242
 202.9451
 181.9228
 134.6858
 22.48775
-37.98455
-67.4927
-157.1502
-214.9153
-228.7088
-228.9445
-228.1949
-227.2463
-226.4683
-225.5945
-224.6253
-220.4003
-214.9908
-208.4259
-200.7408
-179.3678
-99.16732
 0.6626827
 100.3615
 180.1945
 217.5078
 224.7254
 200.9108
 194.3066
 187.0891
 181.2293
 175.0414
 61.18272
-73.75107
-183.2805
-229.6768
-223.1418
-219.6334
-215.4225
-212.0964
-208.4441
-172.6926
-78.96668
 34.00719
 138.6919
 209.5707
 193.2558
 110.0387
 1.E-15
</dep>
<dep dc_voltage.Vt time>
 0.
 239.E-15
 912.E-15
 1.050076E-9
 32.518E-12
 0.3106684
 0.6963965
 0.9153867
 1.088411
 1.260087
 1.430862
 1.687938
 2.188643
 2.933449
 4.235158
 6.221245
 7.826138
 8.974853
 9.623826
 9.77029
 9.756596
 9.736181
 9.721598
 9.715702
 9.709834
 9.703974
 9.698118
 9.685536
 9.675794
 9.659703
 9.643639
 9.592058
 9.504894
 9.346575
 9.268408
 9.22957
 9.097035
 9.060797
 9.597708
 9.971116
 9.96181
 9.952468
 9.945964
 9.939464
 9.932962
 9.909807
 9.886655
 9.863605
 9.84061
 9.788613
 9.649809
 9.512974
 9.378079
 9.245097
 9.145748
 9.466202
 9.634471
 9.617255
 9.600071
 9.587077
 9.574102
 9.394273
 9.217821
 9.044684
 9.683418
 9.9871
 9.969134
 9.951201
 9.938783
 9.92638
 9.836716
 9.681745
 9.529216
 9.37909
 9.231335
 8.942736
 8.801508
 8.662847
</dep>
