<Qucs Dataset>
default plugins: ignored
clear: already installed, replacing
stashing as clear:0
;: already installed, replacing
stashing as ;:0
*: already installed, replacing
stashing as *:0
': already installed, replacing
stashing as ':0
": already installed, replacing
stashing as ":0
T: already installed, replacing
stashing as T:0
tline: already installed, replacing
stashing as tline:0
C:C1 gnd dc_voltage C="1000 uF" V="" 
                                ^ ? C1: V has no value?
Gnucap   System status
iterations: op=0, dc=0, tran=926, fourier=0, total=1039
transient timesteps: accepted=101, rejected=14, total=115
transient timesteps: accepted=0, rejected=0, total=0
nodes: user=5, subckt=1, model=0, total=6
dctran density=77.8%, ac density=77.8%

<indep time 101>
 0.
 83.33333E-6
 189.3135E-6
 295.2937E-6
 489.4527E-6
 0.00107193
 0.001176477
 0.001281024
 0.001287558
 0.001294092
 0.001300627
 0.001303959
 0.00130729
 0.00131265
 0.001327153
 0.001341656
 0.001356159
 0.001383657
 0.0014054
 0.001438278
 0.001471157
 0.001504036
 0.001565972
 0.001627908
 0.001689844
 0.001782927
 0.00187601
 0.002077366
 0.002509101
 0.003159662
 0.003810222
 0.004460782
 0.005111342
 0.005761903
 0.005891254
 0.006020605
 0.006149956
 0.006279307
 0.006510634
 0.00674196
 0.007451108
 0.009153064
 0.01085502
 0.01255698
 0.01425893
 0.01534199
 0.0160794
 0.01660125
 0.01667201
 0.01683302
 0.01699402
 0.01856574
 0.02013745
 0.02170916
 0.02328088
 0.02409055
 0.02490022
 0.02540221
 0.02550261
 0.02560301
 0.02566842
 0.025719
 0.02576959
 0.02582017
 0.02587076
 0.02599709
 0.02612342
 0.02624975
 0.02647381
 0.02669787
 0.02738323
 0.02889101
 0.0303988
 0.03190658
 0.03341437
 0.03617864
 0.03756078
 0.03785695
 0.03815312
 0.03844929
 0.03874546
 0.04035325
 0.04196105
 0.04356884
 0.04448757
 0.04510007
 0.04518916
 0.04527825
 0.04533801
 0.04539778
 0.04545755
 0.04560408
 0.04575061
 0.04589714
 0.04604367
 0.04619021
 0.04653655
 0.0468829
 0.04766217
 0.04883109
 0.05
</indep>
<dep _net0.Vt time>
 0.
-0.1505184
-0.3417831
-0.5326559
-0.8806525
-1.899949
-0.9798773
-0.7686462
-0.7795991
-0.7902795
-0.801073
-0.8065139
-0.811923
-0.8205268
-0.8429638
-0.8634995
-0.8808409
-0.9027522
-0.912982
-0.9196772
-0.9222968
-0.9232187
-0.9236195
-0.9234576
-0.9232086
-0.9227967
-0.9223525
-0.921296
-0.9185254
-0.9125976
-0.9033842
-0.8877512
-0.8502965
-0.6976469
-0.6439718
-0.5811672
-0.5093486
-0.4286314
-0.2731766
-0.06932668
 0.3676936
 1.961589
 4.318449
 8.010837
 10.29997
 10.57385
 10.27721
 9.85947
 9.768855
 9.549062
 9.30582
 6.252939
 2.663153
-0.108371
-0.4143639
-0.8843904
-0.8818527
-0.7909633
-0.7699008
-0.7437797
-0.7235127
-0.706227
-0.6875291
-0.6674222
-0.6459104
-0.5860904
-0.5176508
-0.4406779
-0.2979367
 0.03671173
 0.3329813
 1.669042
 3.60953
 6.270951
 9.586153
 9.872453
 7.709129
 7.301368
 6.677502
 6.028349
 5.361981
 1.80576
-0.2480615
-0.8543163
-0.908607
-0.7569902
-0.753978
-0.746502
-0.7389713
-0.7294443
-0.7179242
-0.6812515
-0.6326598
-0.5721772
-0.4999861
-0.416317
-0.09285441
-0.04342272
 0.425875
 1.455539
 2.894239
</dep>
<dep _net1.Vt time>
 0.
 0.1505165
 0.3417716
 0.5326609
 0.8806976
 1.899968
 2.464151
 3.735555
 3.746313
 3.75686
 3.767499
 3.772937
 3.778364
 3.787081
 3.810532
 3.833531
 3.856413
 3.904214
 3.947648
 4.032283
 4.128873
 4.231217
 4.427819
 4.624671
 4.819744
 5.108887
 5.392914
 5.988593
 7.170161
 8.665619
 9.765687
 10.42748
 10.63793
 10.47449
 10.40818
 10.33275
 10.24831
 10.15501
 9.9559
 9.751181
 8.623359
 4.985451
 1.266421
-0.2651325
-0.876648
-0.8543039
-0.5679022
-0.2158749
-0.1807648
-0.09626959
-0.01055157
 1.244755
 3.15958
 5.774074
 9.44882
 10.13171
 10.59645
 10.61735
 10.58682
 10.55048
 10.52383
 10.50162
 10.47798
 10.45293
 10.42647
 10.3543
 10.27352
 10.18428
 9.991245
 9.939159
 8.757485
 5.595063
 2.172509
-0.2126619
-0.5162765
-0.8443768
-0.2658663
 0.1306823
 0.3731613
 0.6448936
 0.945983
 3.07939
 6.397107
 9.497224
 10.39755
 10.73733
 10.72561
 10.7095
 10.69619
 10.68083
 10.66344
 10.61228
 10.54908
 10.47407
 10.38738
 10.28909
 10.0931
 9.502602
 8.132939
 5.584351
 2.894239
</dep>
<dep _net2.Vt time>
 0.
 6.020698
 13.67109
 21.30634
 35.227
 75.99833
 68.88113
 90.08402
 90.51824
 90.9428
 91.37144
 91.58902
 91.80574
 92.15216
 93.06991
 93.94062
 94.74508
 96.13935
 97.21265
 99.03926
 101.0235
 103.0888
 107.0288
 110.9626
 114.8591
 120.6337
 126.3054
 138.1978
 161.7738
 191.5644
 213.3815
 226.3046
 229.7646
 223.4427
 221.043
 218.2783
 215.1532
 211.6729
 204.5815
 196.4102
 165.1133
 60.47723
-61.04057
-165.5194
-223.5324
-228.5631
-216.9023
-201.5069
-198.9924
-192.9066
-186.3274
-100.1637
 9.928544
 117.6489
 197.2637
 220.3219
 229.566
 228.1662
 227.1345
 225.8851
 224.9469
 224.157
 223.3103
 222.4071
 221.4476
 218.8079
 215.8234
 212.4991
 205.7836
 198.0489
 168.4901
 78.52043
-28.74042
-129.6723
-202.0486
-214.3366
-159.4999
-143.4137
-126.0868
-107.6691
-88.31996
 25.4726
 132.9034
 207.0308
 226.1231
 229.8863
 229.5917
 229.1201
 228.7032
 228.2055
 227.6273
 225.8706
 223.6347
 220.925
 217.7473
 214.1081
 203.719
 190.9205
 154.1413
 82.57623
 331.369E-12
</dep>
<dep _net3.Vt time>
 0.
 6.020698
 13.67109
 21.30634
 35.227
 75.99836
 83.08572
 90.08403
 90.51826
 90.95211
 91.38557
 91.60645
 91.82723
 92.18213
 93.14128
 94.09848
 95.05374
 96.85945
 98.28211
 100.4247
 102.5566
 104.6775
 108.6424
 112.5661
 116.4472
 122.1968
 127.8418
 139.6728
 163.0989
 192.6181
 214.1194
 226.7078
 229.8593
 223.4427
 221.043
 218.2783
 215.1532
 211.6729
 204.5815
 196.4102
 165.1133
 60.47723
-61.04057
-165.5194
-223.7948
-228.6738
-216.9023
-201.5069
-198.9924
-192.9066
-186.3274
-100.1637
 9.928544
 117.6489
 197.2637
 220.676
 229.887
 228.1663
 227.1387
 225.8852
 224.9476
 224.1573
 223.3104
 222.4071
 221.4477
 218.8079
 215.8234
 212.4991
 205.7836
 198.0489
 168.4901
 78.52043
-28.74042
-129.6723
-202.0486
-214.412
-159.4999
-143.4137
-126.0868
-107.6691
-88.31996
 25.4726
 132.9034
 207.1415
 227.0261
 229.8864
 229.594
 229.1218
 228.7044
 228.2064
 227.6279
 225.8706
 223.6347
 220.925
 217.7473
 214.1081
 203.719
 190.9205
 154.1413
 82.57623
 7.E-15
</dep>
<dep dc_voltage.Vt time>
 0.
 176.E-15
 710.E-15
 386.175E-12
 20.164E-12
 19.08156E-6
 1.484274
 2.966908
 2.966714
 2.966581
 2.966426
 2.966423
 2.966441
 2.966554
 2.967568
 2.970032
 2.975572
 3.001461
 3.034666
 3.112606
 3.206577
 3.307998
 3.504199
 3.701214
 3.896536
 4.186091
 4.470561
 5.067297
 6.251636
 7.753022
 8.862303
 9.539726
 9.787634
 9.776844
 9.764207
 9.751583
 9.738965
 9.726375
 9.703901
 9.681479
 9.613066
 9.450836
 9.291345
 9.134544
 9.423322
 9.719549
 9.70931
 9.658772
 9.65193
 9.636402
 9.6209
 9.470866
 9.323172
 9.177781
 9.034657
 9.247315
 9.714595
 9.826386
 9.816923
 9.806698
 9.80032
 9.795394
 9.790454
 9.785508
 9.780561
 9.768214
 9.75587
 9.743552
 9.721745
 9.699987
 9.633734
 9.489565
 9.347554
 9.207667
 9.069874
 9.028076
 8.990633
 8.964045
 8.937535
 8.911104
 8.884751
 8.743042
 8.603593
 8.642908
 9.488938
 9.980335
 9.971631
 9.963002
 9.957215
 9.951387
 9.945519
 9.931026
 9.916416
 9.901896
 9.887389
 9.87291
 9.838775
 9.804758
 9.728648
 9.615589
 9.503844
</dep>
