<Qucs Dataset>
default plugins: ignored
C:C1 gnd dc_voltage C="1000 uF" V="" 
                                ^ ? C1: V has no value?
Gnucap   System status
iterations: op=0, dc=0, tran=804, fourier=0, total=897
transient timesteps: accepted=84, rejected=13, total=97
transient timesteps: accepted=0, rejected=0, total=0
nodes: user=5, subckt=1, model=0, total=6
dctran density=77.8%, ac density=77.8%

<indep time 84>
 0.
 96.E-6
 211.4386E-6
 326.8773E-6
 517.0145E-6
 642.1847E-6
 734.9625E-6
 798.9431E-6
 848.095E-6
 897.2469E-6
 946.3988E-6
 0.001020835
 0.001167479
 0.001390459
 0.001798943
 0.002497509
 0.003196075
 0.003894641
 0.004593207
 0.005291773
 0.00546652
 0.005641267
 0.005754716
 0.005815078
 0.00587544
 0.005935802
 0.005996164
 0.006125969
 0.006226597
 0.006393036
 0.006559475
 0.007076624
 0.007918259
 0.009601528
 0.01044316
 0.0112848
 0.01283341
 0.01438201
 0.01525075
 0.01586038
 0.01617074
 0.01633417
 0.01649759
 0.01666102
 0.01735558
 0.01907371
 0.02079184
 0.02250996
 0.02422809
 0.02534861
 0.02609562
 0.02633982
 0.02658401
 0.02672593
 0.02686784
 0.02815296
 0.02997355
 0.03088384
 0.03247686
 0.03406987
 0.03566288
 0.03655895
 0.03672192
 0.03688489
 0.03691391
 0.03702388
 0.03887761
 0.04073134
 0.04258507
 0.0444388
 0.04536567
 0.04555554
 0.04574541
 0.04588723
 0.04596339
 0.04603955
 0.04611571
 0.04619188
 0.04626804
 0.04645464
 0.04672736
 0.0472728
 0.04818187
 0.05
</indep>
<dep _net0.Vt time>
 0.
-0.1733889
-0.3816713
-0.5894388
-0.9298294
-0.9347731
-0.9250496
-0.9260714
-0.9258204
-0.9256846
-0.9255741
-0.9254071
-0.9250422
-0.9243705
-0.9227717
-0.9187019
-0.9121357
-0.9019183
-0.8828542
-0.8407133
-0.8095664
-0.7656184
-0.7283122
-0.7046589
-0.6789837
-0.6513089
-0.6277275
-0.5512265
-0.4852033
-0.3783368
-0.2585336
 0.01930518
 0.5972947
 2.372142
 3.545572
 4.891111
 8.658621
 10.37938
 10.6236
 10.418
 10.2271
 10.10602
 9.962973
 9.849659
 8.794012
 5.174064
 1.387854
-0.2630065
-0.875589
-0.8574849
-0.5542446
-0.4014652
-0.2477118
-0.145298
-0.07353206
 0.8529938
 2.92789
 4.276399
 7.807007
 9.992415
 10.34439
 9.889177
 9.739246
 9.506832
 9.463213
 9.292169
 5.594112
 1.487258
-0.2643212
-0.8811173
-0.8405209
-0.7987824
-0.739946
-0.6844084
-0.6525303
-0.6097816
-0.5634469
-0.5226675
-0.4794024
-0.3441722
-0.1116306
 0.2138939
 0.9091178
 2.999565
</dep>
<dep _net1.Vt time>
 0.
 0.1733903
 0.3816593
 0.5894392
 0.9298548
 1.245442
 1.621446
 1.841458
 2.014232
 2.185772
 2.356436
 2.613346
 3.113686
 3.85782
 5.15793
 7.139947
 8.738274
 9.876772
 10.50668
 10.611
 10.56616
 10.5018
 10.44991
 10.42036
 10.38882
 10.35528
 10.3137
 10.23676
 10.17148
 10.03786
 9.888708
 9.157605
 7.593487
 3.807995
 1.949665
 0.3743673
-0.2787233
-0.8858437
-0.8378126
-0.6644567
-0.5037875
-0.3985265
-0.2875441
-0.1198161
 0.3018423
 1.874567
 4.219215
 7.894138
 10.27533
 10.56736
 10.27123
 10.09476
 9.857511
 9.705221
 9.502707
 7.157803
 3.023446
 1.124095
-0.2653838
-1.020095
-0.8873194
-0.2589523
-0.1187333
-0.03516119
-0.01987428
 0.0394409
 1.622612
 4.106285
 8.081809
 10.42502
 10.58368
 10.52587
 10.44617
 10.37175
 10.32477
 10.28237
 10.23732
 10.18053
 10.1201
 9.975762
 9.736224
 8.904846
 7.126343
 2.999565
</dep>
<dep _net2.Vt time>
 0.
 6.935585
 15.26661
 23.57756
 37.19368
 43.60439
 50.92998
 55.35066
 58.80112
 62.2292
 65.64027
 70.77512
 80.77463
 95.64388
 121.6141
 161.173
 193.0082
 215.5738
 227.7907
 229.0343
 227.5146
 225.3484
 223.5644
 222.5004
 221.356
 220.1318
 218.8285
 215.7598
 213.1337
 208.324
 202.9448
 182.766
 139.9238
 28.71707
-31.91814
-90.33488
-178.7469
-225.3044
-229.2283
-221.6491
-214.6178
-210.0909
-205.0103
-199.3895
-169.8434
-65.98993
 56.62722
 163.1429
 223.0183
 228.4969
 216.5095
 209.9244
 202.1045
 197.0104
 191.5248
 126.0962
 1.911127
-63.04609
-161.4478
-220.2502
-224.6341
-202.9626
-197.1596
-190.8399
-189.6617
-185.0546
-79.43
 52.38055
 166.9226
 226.1227
 228.484
 226.4931
 223.7223
 221.1231
 219.546
 217.843
 216.0153
 214.064
 211.9901
 206.3987
 196.9571
 173.819
 124.3445
 41.368E-12
</dep>
<dep _net3.Vt time>
 0.
 6.935585
 15.26661
 23.57756
 37.19368
 46.08791
 52.63527
 57.12467
 60.55799
 63.97687
 67.38049
 72.50414
 82.47942
 97.30498
 123.1756
 162.5072
 194.0433
 216.2711
 228.1243
 229.0344
 227.5342
 225.3484
 223.5653
 222.5007
 221.3561
 220.1319
 218.8285
 215.7598
 213.1337
 208.324
 202.9448
 182.766
 139.9238
 28.71707
-31.91814
-90.33488
-178.7469
-225.6789
-229.2868
-221.6491
-214.6178
-210.0909
-205.0103
-199.3895
-169.8434
-65.98993
 56.62722
 163.1429
 223.2702
 228.622
 216.5095
 209.9244
 202.1045
 197.0104
 191.5248
 126.0962
 1.911127
-63.04609
-161.4478
-220.2503
-225.0306
-202.9626
-197.1596
-190.8399
-189.6617
-185.0546
-79.43
 52.38055
 166.9226
 226.4347
 228.484
 226.506
 223.7223
 221.1232
 219.546
 217.843
 216.0153
 214.064
 211.9901
 206.3987
 196.9571
 173.819
 124.3445
 1.E-15
</dep>
<dep dc_voltage.Vt time>
 0.
 239.E-15
 912.E-15
 1.050076E-9
 32.518E-12
 0.3106684
 0.6963965
 0.9153867
 1.088411
 1.260087
 1.430862
 1.687938
 2.188644
 2.93345
 4.235158
 6.221245
 7.826138
 8.974853
 9.623826
 9.77029
 9.756596
 9.73618
 9.721597
 9.715701
 9.709833
 9.703973
 9.698117
 9.685535
 9.675793
 9.659702
 9.643638
 9.593895
 9.513488
 9.354686
 9.276284
 9.198539
 9.057184
 9.493533
 9.785789
 9.753542
 9.723316
 9.707415
 9.691563
 9.675737
 9.608766
 9.445081
 9.284185
 9.126029
 9.399737
 9.709875
 9.716987
 9.693287
 9.669645
 9.655932
 9.642239
 9.519115
 9.347375
 9.262672
 9.116283
 8.972318
 9.457066
 9.70641
 9.690605
 9.674825
 9.672018
 9.661388
 9.483936
 9.309744
 9.138751
 9.543899
 9.743156
 9.727088
 9.706223
 9.687338
 9.679964
 9.672585
 9.665221
 9.657862
 9.65051
 9.632519
 9.606285
 9.554031
 9.467571
 9.296989
</dep>
