<Qucs Dataset>
default plugins: ignored
C:C1 gnd dc_voltage C="1000 uF" V="" 
                                ^ ? C1: V has no value?
Gnucap   System status
iterations: op=0, dc=0, tran=749, fourier=0, total=838
transient timesteps: accepted=79, rejected=11, total=90
transient timesteps: accepted=0, rejected=0, total=0
nodes: user=5, subckt=1, model=0, total=6
dctran density=77.8%, ac density=77.8%

<indep time 79>
 0.
 96.E-6
 211.4387E-6
 326.8773E-6
 517.0146E-6
 642.1847E-6
 734.9626E-6
 798.9432E-6
 848.0951E-6
 897.2471E-6
 946.399E-6
 0.001020835
 0.00116748
 0.001390459
 0.001798943
 0.002497509
 0.003196075
 0.003894641
 0.004593207
 0.005291773
 0.005466294
 0.005640815
 0.005753976
 0.005814175
 0.005874374
 0.005934572
 0.005994771
 0.006143941
 0.006248361
 0.006433749
 0.006619137
 0.007257091
 0.008325664
 0.009992637
 0.01082612
 0.01217695
 0.01352777
 0.01465521
 0.0153221
 0.01543014
 0.01553819
 0.0156131
 0.01568802
 0.01576294
 0.01599744
 0.01623194
 0.01646644
 0.01670094
 0.01742483
 0.01934102
 0.0212572
 0.02317339
 0.02508958
 0.02612751
 0.02632513
 0.02652275
 0.02666334
 0.02680392
 0.02873693
 0.03066993
 0.03260294
 0.03453595
 0.03572549
 0.03595815
 0.0361908
 0.03636342
 0.03653603
 0.03749774
 0.03845946
 0.04038288
 0.0423063
 0.04422973
 0.04615315
 0.04743543
 0.04794835
 0.0482048
 0.04846126
 0.04871772
 0.05
</indep>
<dep _net0.Vt time>
 0.
-0.1733889
-0.3816713
-0.5894391
-0.9298294
-0.9347731
-0.9250496
-0.9260714
-0.9258204
-0.9256846
-0.9255741
-0.9254071
-0.9250421
-0.9243705
-0.9227717
-0.9187019
-0.9121357
-0.9019183
-0.8828542
-0.8407303
-0.8096131
-0.765759
-0.7285798
-0.7050126
-0.6794391
-0.6518772
-0.628396
-0.5407495
-0.4765805
-0.3490262
-0.1960089
 0.1773678
 1.007739
 2.953391
 4.182724
 7.011213
 9.64314
 10.50162
 10.69976
 10.67139
 10.63644
 10.60838
 10.57719
 10.5429
 10.41567
 10.25889
 10.02777
 9.888648
 8.745241
 4.617915
 0.6256456
-0.2812408
-0.8845754
-0.4132506
-0.3054719
-0.264729
-0.136212
-0.07441672
 1.43714
 3.971832
 8.12657
 10.49157
 10.49389
 10.37269
 10.22219
 10.09189
 9.94371
 8.512867
 6.515289
 2.168399
-0.2505624
-1.088647
-0.8554864
-0.2266551
 0.2044745
 0.4191359
 0.6560412
 0.9148209
 2.536576
</dep>
<dep _net1.Vt time>
 0.
 0.1733903
 0.3816593
 0.589439
 0.9298549
 1.245442
 1.621446
 1.841458
 2.014232
 2.185772
 2.356437
 2.613346
 3.113687
 3.857821
 5.157931
 7.139947
 8.738275
 9.876772
 10.50668
 10.61099
 10.56623
 10.50198
 10.45027
 10.42083
 10.38941
 10.356
 10.31458
 10.22457
 10.1503
 10.00399
 9.848028
 8.905376
 6.781718
 2.979991
 1.23147
-0.2547994
-0.6485936
-0.8993768
-0.7414144
-0.7237346
-0.6995686
-0.6789554
-0.6552077
-0.6283477
-0.5243369
-0.3905277
-0.2732772
-0.008158631
 0.423769
 2.254094
 5.050541
 9.37668
 10.59304
 10.37281
 10.21232
 9.944263
 9.82909
 9.62776
 5.881602
 1.569307
-0.263835
-0.8744022
-0.7087027
-0.6102428
-0.4824304
-0.3692051
-0.2431108
 0.3753777
 1.164312
 3.548347
 7.371593
 10.07628
 9.892299
 8.068331
 7.11408
 6.566482
 6.001246
 5.423206
 2.536576
</dep>
<dep _net2.Vt time>
 0.
 6.935585
 15.26661
 23.57756
 37.19369
 43.60439
 50.92998
 55.35067
 58.80112
 62.22921
 65.64028
 70.77514
 80.77464
 95.6439
 121.6141
 161.173
 193.0082
 215.5738
 227.7907
 229.0344
 227.5169
 225.3549
 223.577
 222.5169
 221.3769
 220.1576
 218.8595
 215.3065
 212.5376
 207.0602
 200.8807
 174.5602
 115.4796
 0.5319926
-59.02507
-145.3202
-205.8347
-228.02
-228.8235
-227.9025
-226.7201
-225.7466
-224.6481
-223.425
-218.8001
-212.9883
-206.021
-197.9361
-166.4295
-47.27642
 88.4979
 193.1584
 229.5523
 215.7211
 210.3558
 204.1798
 199.306
 194.0435
 88.88923
-48.05049
-167.8081
-227.3195
-224.0519
-219.6586
-214.0924
-209.2219
-203.7364
-162.7498
-107.0195
 27.59896
 152.4431
 223.2985
 214.9557
 165.8997
 138.1921
 122.9469
 106.9041
 90.16769
-18.673E-12
</dep>
<dep _net3.Vt time>
 0.
 6.935585
 15.26661
 23.57756
 37.19369
 46.08791
 52.63527
 57.12467
 60.55799
 63.97687
 67.3805
 72.50416
 82.47944
 97.30499
 123.1756
 162.5072
 194.0433
 216.2711
 228.1243
 229.0344
 227.5366
 225.3549
 223.5778
 222.5172
 221.377
 220.1576
 218.8595
 215.3065
 212.5376
 207.0602
 200.8807
 174.5602
 115.4796
 0.5319926
-59.02507
-145.3202
-205.8347
-228.652
-228.8235
-227.9032
-226.7203
-225.7467
-224.6481
-223.425
-218.8001
-212.9883
-206.021
-197.9361
-166.4295
-47.27642
 88.4979
 193.1584
 229.9089
 215.7211
 210.3558
 204.1798
 199.306
 194.0435
 88.88923
-48.05049
-167.8081
-227.5601
-224.0519
-219.6586
-214.0924
-209.2219
-203.7364
-162.7498
-107.0195
 27.59896
 152.4431
 223.2986
 215.0715
 165.8997
 138.1921
 122.9469
 106.9041
 90.16769
 0.
</dep>
<dep dc_voltage.Vt time>
 0.
 239.E-15
 912.E-15
 1.050076E-9
 32.518E-12
 0.3106684
 0.6963965
 0.9153869
 1.088412
 1.260088
 1.430862
 1.687939
 2.188644
 2.93345
 4.235159
 6.221245
 7.826139
 8.974854
 9.623826
 9.770258
 9.756619
 9.736225
 9.721689
 9.71582
 9.709968
 9.704123
 9.698282
 9.683825
 9.673718
 9.655801
 9.637916
 9.576626
 9.474837
 9.3182
 9.240856
 9.116866
 8.994543
 9.602248
 9.958343
 9.947655
 9.936869
 9.92942
 9.921987
 9.914555
 9.891332
 9.868151
 9.845036
 9.821977
 9.751132
 9.566056
 9.384492
 9.206374
 9.708465
 9.95971
 9.940047
 9.920422
 9.906486
 9.892569
 9.703175
 9.517408
 9.335197
 9.61717
 9.785189
 9.762445
 9.739757
 9.722952
 9.706183
 9.613284
 9.521274
 9.339884
 9.16195
 8.987628
 9.036812
 9.062972
 9.016605
 8.993511
 8.970476
 8.947501
 8.833499
</dep>
