<Qucs Dataset>
default plugins: ignored
;: already installed, replacing
stashing as ;:0
*: already installed, replacing
stashing as *:0
': already installed, replacing
stashing as ':0
": already installed, replacing
stashing as ":0
d: already installed, replacing
stashing as d:0
diode: already installed, replacing
stashing as diode:0
npn: already installed, replacing
stashing as npn:0
pnp: already installed, replacing
stashing as pnp:0
npn1: already installed, replacing
stashing as npn1:0
pnp1: already installed, replacing
stashing as pnp1:0
Q: already installed, replacing
stashing as Q:0
bjt: already installed, replacing
stashing as bjt:0
L: already installed, replacing
stashing as L:0
parameter spline not specified, using default
parameter spline value is "NOT_INPUT"
parameter spline not specified, using default
parameter spline value is "NOT_INPUT"
parameter spline not specified, using default
parameter spline value is "NOT_INPUT"
parameter spline not specified, using default
parameter spline value is "NOT_INPUT"
parameter spline not specified, using default
parameter spline value is "NOT_INPUT"
parameter spline not specified, using default
parameter spline value is "NOT_INPUT"
parameter spline not specified, using default
parameter spline value is "NOT_INPUT"
parameter spline not specified, using default
parameter spline value is "NOT_INPUT"
parameter spline not specified, using default
parameter spline value is "NOT_INPUT"
parameter spline not specified, using default
parameter spline value is "NOT_INPUT"
parameter spline not specified, using default
parameter spline value is "NOT_INPUT"
parameter spline not specified, using default
parameter spline value is "NOT_INPUT"
parameter spline not specified, using default
parameter spline value is "NOT_INPUT"
parameter spline not specified, using default
parameter spline value is "NOT_INPUT"
Gnucap   System status
iterations: op=0, dc=0, tran=55, fourier=0, total=74
transient timesteps: accepted=18, rejected=1, total=19
transient timesteps: accepted=0, rejected=0, total=0
nodes: user=5, subckt=2, model=0, total=7
dctran density=30.6%, ac density=30.6%

<indep time 18>
 0.
 10.E-6
 20.E-6
 36.33333E-6
 100.E-6
 100.E-6
 100.E-6
 147.3684E-6
 194.7368E-6
 200.E-6
 200.E-6
 223.5294E-6
 240.7843E-6
 258.0392E-6
 400.E-6
 600.E-6
 800.E-6
 0.001
</indep>
<dep _net0.Vt time>
 3.673988
 3.673988
 3.673988
 3.673988
 3.673988
 3.673988
 15.E-15
 15.E-15
 15.E-15
 15.E-15
 0.
 0.
 0.
 0.
 0.
 0.
 0.
 0.
</dep>
<dep _net1.Vt time>
 3.673988
 3.673988
 3.673988
 3.673988
 3.673988
 3.673988
 31.E-15
 31.E-15
 31.E-15
 31.E-15
 3.648339
 3.648339
 3.648339
 3.648339
 3.648339
 3.7
 3.7
 3.7
</dep>
<dep _net2.Vt time>
 3.7
 3.7
 3.7
 3.7
 3.7
 3.7
 3.7
 3.7
 3.7
 3.7
 3.7
 3.7
 3.7
 3.7
 3.7
 3.7
 3.7
 3.7
</dep>
<dep _net3.Vt time>
 3.686994
 3.686994
 3.686994
 3.686994
 3.686994
 3.686994
 1.85
 1.85
 1.85
 1.85
 3.674169
 3.674169
 3.674169
 3.674169
 3.674169
 3.7
 3.7
 3.7
</dep>
<dep _net4.Vt time>
 0.
 0.
 0.
 0.
 0.
 0.
 0.
 0.
 0.
 0.
 0.
 0.
 0.
 0.
 0.
 0.
 0.
 0.
</dep>
<dep Pr1.Vt time>
 3.686994
 3.686994
 3.686994
 3.686994
 3.686994
 3.686994
 1.85
 1.85
 1.85
 1.85
 3.674169
 3.674169
 3.674169
 3.674169
 3.674169
 3.7
 3.7
 3.7
</dep>
