<Qucs Dataset>
default plugins: ignored
;: already installed, replacing
stashing as ;:0
*: already installed, replacing
stashing as *:0
': already installed, replacing
stashing as ':0
": already installed, replacing
stashing as ":0
L: already installed, replacing
stashing as L:0
parameter spline not specified, using default
parameter spline value is "NOT_INPUT"
parameter spline not specified, using default
parameter spline value is "NOT_INPUT"
parameter spline not specified, using default
parameter spline value is "NOT_INPUT"
parameter spline not specified, using default
parameter spline value is "NOT_INPUT"
parameter spline not specified, using default
parameter spline value is "NOT_INPUT"
parameter spline not specified, using default
parameter spline value is "NOT_INPUT"
parameter spline not specified, using default
parameter spline value is "NOT_INPUT"
parameter spline not specified, using default
parameter spline value is "NOT_INPUT"
parameter spline not specified, using default
parameter spline value is "NOT_INPUT"
parameter spline not specified, using default
parameter spline value is "NOT_INPUT"
parameter spline not specified, using default
parameter spline value is "NOT_INPUT"
parameter spline not specified, using default
parameter spline value is "NOT_INPUT"
Gnucap   System status
iterations: op=0, dc=0, tran=94, fourier=0, total=128
transient timesteps: accepted=28, rejected=6, total=34
transient timesteps: accepted=0, rejected=0, total=0
nodes: user=5, subckt=2, model=0, total=7
dctran density=30.6%, ac density=30.6%

<indep time 28>
 0.
 10.E-6
 20.E-6
 36.33333E-6
 100.E-6
 100.E-6
 100.E-6
 100.0006E-6
 100.0007E-6
 100.0007E-6
 100.0008E-6
 100.2832E-6
 101.5593E-6
 118.5111E-6
 200.E-6
 200.E-6
 200.0499E-6
 200.0501E-6
 200.0501E-6
 200.0501E-6
 200.0512E-6
 200.4722E-6
 203.2678E-6
 260.1772E-6
 400.E-6
 600.E-6
 800.E-6
 0.001
</indep>
<dep _net0.Vt time>
 3.673988
 3.673988
 3.673988
 3.673988
 3.673988
 3.673988
 15.E-15
 15.E-15
 15.E-15
 15.E-15
 15.E-15
 15.E-15
 15.E-15
 15.E-15
 15.E-15
 0.
 0.
 0.
 0.
 0.
 0.
 0.
 0.
 0.
 0.
 0.
 0.
 0.
</dep>
<dep _net1.Vt time>
 3.673988
 3.673988
 3.673988
 3.673988
 3.673988
 3.673988
 31.E-15
 31.E-15
 31.E-15
 31.E-15
 31.E-15
 31.E-15
 31.E-15
 31.E-15
 31.E-15
 3.648339
 3.7
 3.7
 3.7
 3.7
 3.7
 3.7
 3.7
 3.7
 3.7
 3.7
 3.7
 3.7
</dep>
<dep _net2.Vt time>
 3.7
 3.7
 3.7
 3.7
 3.7
 3.7
 3.7
 3.7
 3.7
 3.7
 3.7
 3.7
 3.7
 3.7
 3.7
 3.7
 3.7
 3.7
 3.7
 3.7
 3.7
 3.7
 3.7
 3.7
 3.7
 3.7
 3.7
 3.7
</dep>
<dep _net3.Vt time>
 3.686994
 3.686994
 3.686994
 3.686994
 3.686994
 3.686994
 1.85
 1.85
 1.85
 1.85
 1.85
 1.85
 1.85
 1.85
 1.85
 3.674169
 3.7
 3.7
 3.7
 3.7
 3.7
 3.7
 3.7
 3.7
 3.7
 3.7
 3.7
 3.7
</dep>
<dep _net4.Vt time>
 0.
 0.
 0.
 0.
 0.
 0.
 0.
 0.
 0.
 0.
 0.
 0.
 0.
 0.
 0.
 0.
 0.
 0.
 0.
 0.
 0.
 0.
 0.
 0.
 0.
 0.
 0.
 0.
</dep>
<dep Pr1.Vt time>
 3.686994
 3.686994
 3.686994
 3.686994
 3.686994
 3.686994
 1.85
 1.85
 1.85
 1.85
 1.85
 1.85
 1.85
 1.85
 1.85
 3.674169
 3.7
 3.7
 3.7
 3.7
 3.7
 3.7
 3.7
 3.7
 3.7
 3.7
 3.7
 3.7
</dep>
