<Qucs Dataset>
default plugins: ignored
.SP:SP1 Type="l ... ="1e12" Points="11" Noise="no" NoiseIP="1" NoiseOP="2" s
                                        ^ ? what's this (incomplete)?
Gnucap   System status
iterations: op=3, dc=0, tran=0, fourier=0, total=14
transient timesteps: accepted=0, rejected=0, total=0
transient timesteps: accepted=0, rejected=0, total=0
nodes: user=2, subckt=2, model=0, total=4
dctran density=75.0%, ac density=75.0%

<indep frequency 11>
 1.
 15.84893
 251.1886
 3.981072E+3
 63.09573E+3
 1.E+6
 15.84893E+6
 251.1886E+6
 3.981072E+9
 63.09573E+9
 1.E+12
</indep>
<dep S[1,1] frequency>
 371.442E-18+j 120.053E-12
 371.442E-18+j 120.053E-12
 371.442E-18+j 120.053E-12
-250.421E-18-j 15.4611E-12
-335.699E-18-j 1.62909E-12
-259.049E-18-j 66.7577E-15
-342.381E-18-j 3.1982E-15
 168.182E-18+j 289.39E-18
 172.914E-18-j 92.17E-18
-97.6547E-18+j 563.292E-18
-330.66E-18-j 332.098E-18
</dep>
<dep S[1,2] frequency>
 1.-j 1.570908E-6
 1.-j 1.570908E-6
 1.-j 1.570908E-6
 1.-j 8.343712E-6
 1.-j 132.2389E-6
 0.9999978-j 0.002095843
 0.9994484-j 0.0332108
 0.864595-j 0.5024693
-0.4703856-j 0.882461
 0.9576731-j 0.2878581
-0.9199976+j 0.391924
</dep>
<dep S[2,1] frequency>
 1.-j 1.571021E-6
 1.-j 1.571021E-6
 1.-j 1.571021E-6
 1.-j 8.343705E-6
 1.-j 132.2389E-6
 0.9999978-j 0.002095843
 0.9994484-j 0.0332108
 0.864595-j 0.5024693
-0.4703856-j 0.882461
 0.9576731-j 0.2878581
-0.9199976+j 0.391924
</dep>
<dep S[2,2] frequency>
 333.121E-18+j 232.831E-12
 333.121E-18+j 232.831E-12
 333.121E-18+j 232.831E-12
 476.456E-24-j 21.8279E-12
-166.533E-18-j 1.36424E-12
-222.045E-18-j 142.109E-15
-166.533E-18-j 1.77636E-15
 222.045E-18+j 333.067E-18
 0.+j 0.
 111.022E-18+j 222.045E-18
-166.533E-18-j 444.089E-18
</dep>
