<Qucs Dataset>
default plugins: ignored
.SP:SP1 Type="l ... ="1e12" Points="11" Noise="no" NoiseIP="1" NoiseOP="2" s
                                        ^ ? what's this (incomplete)?
Gnucap   System status
iterations: op=3, dc=0, tran=0, fourier=0, total=14
transient timesteps: accepted=0, rejected=0, total=0
transient timesteps: accepted=0, rejected=0, total=0
nodes: user=2, subckt=2, model=0, total=4
dctran density=75.0%, ac density=75.0%

<indep frequency 11>
 1.
 15.84893
 251.1886
 3.981072E+3
 63.09573E+3
 1.E+6
 15.84893E+6
 251.1886E+6
 3.981072E+9
 63.09573E+9
 1.E+12
</indep>
<dep S[1,1] frequency>
 371.442E-18+j 120.053E-12
 371.442E-18+j 120.053E-12
 371.442E-18+j 120.053E-12
-250.421E-18-j 15.4611E-12
-162.811E-18-j 1.23118E-12
-259.049E-18-j 66.7577E-15
 202.292E-18+j 6.08779E-15
-236.615E-18-j 185.098E-18
-40.3722E-18+j 132.542E-18
-116.054E-18+j 502.08E-18
 262.446E-18+j 171.973E-18
</dep>
<dep S[1,2] frequency>
 1.-j 1.570908E-6
 1.-j 1.570908E-6
 1.-j 1.570908E-6
 1.-j 8.343712E-6
 1.-j 132.2389E-6
 0.9999978-j 0.002095843
 0.9994484-j 0.0332108
 0.864595-j 0.5024693
-0.4703856-j 0.882461
 0.9576731-j 0.2878581
-0.9199976+j 0.391924
</dep>
<dep S[2,1] frequency>
 1.-j 1.571021E-6
 1.-j 1.571021E-6
 1.-j 1.571021E-6
 1.-j 8.343705E-6
 1.-j 132.2389E-6
 0.9999978-j 0.002095843
 0.9994484-j 0.0332108
 0.864595-j 0.5024693
-0.4703856-j 0.882461
 0.9576731-j 0.2878581
-0.9199976+j 0.391924
</dep>
<dep S[2,2] frequency>
 333.121E-18+j 232.831E-12
 333.121E-18+j 232.831E-12
 333.121E-18+j 232.831E-12
 476.456E-24-j 21.8279E-12
-222.045E-18-j 1.81899E-12
-222.045E-18-j 142.109E-15
 222.045E-18+j 3.55271E-15
-166.533E-18-j 222.045E-18
-222.045E-18+j 0.
 111.022E-18+j 444.089E-18
 111.022E-18+j 444.089E-18
</dep>
