<Qucs Dataset>
default plugins: ignored
C:C1 gnd out C="5 pF" V="" 
                      ^ ? C1: V has no value?
.TR:TR1 Type="l ... " IntegrationMethod="Gear" Order="2" InitialStep="1 ns" 
                                        ^ ? need Trapezoidal, Euler ... incomplete
.TR:TR1 Type="l ... " IntegrationMethod="Gear" Order="2" InitialStep="1 ns" 
                                        ^ ? what's this (incomplete)?
parameter NAND_GATE_cir not specified, using default
parameter NAND_GATE_cir value is "NOT_INPUT"
parameter NAND_GATE_cir not specified, using default
parameter NAND_GATE_cir value is "NOT_INPUT"
parameter NAND not specified, using default
parameter NAND value is "NOT_INPUT"
parameter NAND not specified, using default
parameter NAND value is "NOT_INPUT"
parameter NAND_GATE_cir not specified, using default
parameter NAND_GATE_cir value is "NOT_INPUT"
parameter NAND_GATE_cir not specified, using default
parameter NAND_GATE_cir value is "NOT_INPUT"
parameter NAND_GATE_cir not specified, using default
parameter NAND_GATE_cir value is "NOT_INPUT"
parameter NAND_GATE_cir not specified, using default
parameter NAND_GATE_cir value is "NOT_INPUT"
parameter NAND_GATE_cir not specified, using default
parameter NAND_GATE_cir value is "NOT_INPUT"
parameter NAND_GATE_cir not specified, using default
parameter NAND_GATE_cir value is "NOT_INPUT"
parameter NAND not specified, using default
parameter NAND value is "NOT_INPUT"
parameter NAND not specified, using default
parameter NAND value is "NOT_INPUT"
Gnucap   System status
iterations: op=0, dc=0, tran=2670, fourier=0, total=3068
transient timesteps: accepted=374, rejected=36, total=410
transient timesteps: accepted=0, rejected=0, total=0
nodes: user=4, subckt=7, model=19, total=30
dctran density=42.9%, ac density=42.9%

<indep time 374>
 0.
 50.E-6
 0.001
 0.001000003
 0.001000003
 0.001000003
 0.001000003
 0.001000003
 0.001000004
 0.001000004
 0.001000004
 0.001000004
 0.001000004
 0.001000004
 0.001000004
 0.001000004
 0.001000004
 0.001000004
 0.001000004
 0.001000004
 0.001000004
 0.001000004
 0.001000004
 0.001000004
 0.001000004
 0.001000004
 0.001000004
 0.001000004
 0.001000004
 0.001000004
 0.001000004
 0.001000004
 0.001000004
 0.001000005
 0.001000005
 0.001000005
 0.001000006
 0.001000006
 0.001000007
 0.001000008
 0.00100001
 0.001000012
 0.001000014
 0.001000016
 0.001000018
 0.00100002
 0.001000024
 0.001000029
 0.001000037
 0.001000054
 0.001000092
 0.001000174
 0.001000424
 0.001001177
 0.001002702
 0.001005327
 0.001007951
 0.001023698
 0.001034668
 0.001045638
 0.001070109
 0.001112377
 0.001139275
 0.001196658
 0.001285919
 0.00137518
 0.001583457
 0.00200001
 0.002000015
 0.002000017
 0.00200002
 0.00200002
 0.00200002
 0.00200002
 0.00200002
 0.00200002
 0.00200002
 0.00200002
 0.00200002
 0.00200002
 0.002000021
 0.002000021
 0.002000021
 0.002000021
 0.002000022
 0.002000022
 0.002000023
 0.002000024
 0.002000025
 0.002000026
 0.002000027
 0.002000028
 0.002000029
 0.00200003
 0.002000033
 0.002000035
 0.002000039
 0.002000042
 0.002000046
 0.002000049
 0.002000056
 0.002000061
 0.002000066
 0.002000074
 0.002000082
 0.002000095
 0.002000108
 0.002000121
 0.002000145
 0.002000169
 0.002000209
 0.00200025
 0.002000312
 0.002000375
 0.002000473
 0.002000571
 0.002000728
 0.002000884
 0.00200113
 0.002001376
 0.002001764
 0.002002152
 0.002002763
 0.002003375
 0.002004338
 0.002005301
 0.00200682
 0.002008339
 0.00201073
 0.002013121
 0.002016896
 0.002020671
 0.002026614
 0.002032557
 0.00204178
 0.002051002
 0.00206565
 0.002080297
 0.002102269
 0.00212424
 0.002159394
 0.002194548
 0.002247279
 0.00230001
 0.00230002
 0.002300021
 0.002300021
 0.002300021
 0.002300021
 0.002300021
 0.002300021
 0.002300021
 0.002300021
 0.002300022
 0.002300022
 0.002300024
 0.002300026
 0.002300028
 0.002300035
 0.002300051
 0.002300083
 0.002300115
 0.002300168
 0.002300266
 0.002300469
 0.002300838
 0.002301618
 0.002307798
 0.002313979
 0.002354334
 0.002426077
 0.002540866
 0.002693917
 0.002846969
 0.00300002
 0.00300003
 0.003000034
 0.003000037
 0.003000045
 0.003000051
 0.003000057
 0.00300007
 0.00300011
 0.003000149
 0.003000249
 0.003000458
 0.003001081
 0.003002237
 0.003006144
 0.003017349
 0.00304972
 0.003141436
 0.003370728
 0.00360002
 0.003600023
 0.003600023
 0.003600023
 0.003600023
 0.003600023
 0.003600023
 0.003600023
 0.003600024
 0.003600024
 0.003600024
 0.003600024
 0.003600024
 0.003600024
 0.003600024
 0.003600024
 0.003600024
 0.003600024
 0.003600024
 0.003600024
 0.003600024
 0.003600024
 0.003600024
 0.003600024
 0.003600024
 0.003600024
 0.003600024
 0.003600024
 0.003600024
 0.003600024
 0.003600024
 0.003600024
 0.003600024
 0.003600024
 0.003600024
 0.003600024
 0.003600024
 0.003600024
 0.003600024
 0.003600025
 0.003600025
 0.003600025
 0.003600025
 0.003600026
 0.003600027
 0.003600028
 0.003600029
 0.00360003
 0.003600033
 0.003600035
 0.003600038
 0.00360004
 0.003600043
 0.00360005
 0.003600056
 0.003600074
 0.003600103
 0.003600179
 0.003600402
 0.003600831
 0.00360214
 0.003603449
 0.003606898
 0.003610346
 0.003615913
 0.003626295
 0.003636676
 0.003656863
 0.003677049
 0.003697235
 0.003730879
 0.003784709
 0.00389237
 0.00400003
 0.004000035
 0.004000037
 0.00400004
 0.00400004
 0.00400004
 0.00400004
 0.00400004
 0.00400004
 0.00400004
 0.00400004
 0.00400004
 0.00400004
 0.004000041
 0.004000041
 0.004000041
 0.004000041
 0.004000042
 0.004000042
 0.004000043
 0.004000044
 0.004000045
 0.004000046
 0.004000047
 0.004000048
 0.004000049
 0.00400005
 0.004000053
 0.004000055
 0.004000059
 0.004000062
 0.004000066
 0.004000069
 0.004000076
 0.004000081
 0.004000086
 0.004000094
 0.004000102
 0.004000115
 0.004000128
 0.004000141
 0.004000165
 0.004000189
 0.004000229
 0.00400027
 0.004000332
 0.004000395
 0.004000493
 0.004000592
 0.004000748
 0.004000904
 0.00400115
 0.004001396
 0.004001785
 0.004002173
 0.004002786
 0.004003399
 0.004004365
 0.004005331
 0.004006853
 0.004008374
 0.004010771
 0.004013168
 0.004016942
 0.004020716
 0.004026657
 0.004032599
 0.004041926
 0.004051253
 0.004065887
 0.004080521
 0.004103285
 0.00412605
 0.00416123
 0.004196411
 0.004250536
 0.00430466
 0.004389713
 0.004474766
 0.004581082
 0.004740556
 0.00490003
 0.00490004
 0.004900041
 0.004900041
 0.004900041
 0.004900041
 0.004900041
 0.004900041
 0.004900041
 0.004900042
 0.004900042
 0.004900043
 0.004900044
 0.004900047
 0.004900057
 0.004900088
 0.004900119
 0.00490015
 0.004900216
 0.004900337
 0.004900726
 0.004901115
 0.004902252
 0.004905743
 0.004916216
 0.004944144
 0.005
</indep>
<dep A.Vt time>
 10.68179E-9
 10.68179E-9
 10.68179E-9
 1.25125
 1.55875
 1.625
 1.69
 1.735
 1.78
 1.81875
 1.84
 1.86
 1.865
 1.87
 1.8725
 1.875
 1.8775
 1.88
 1.8825
 1.8875
 1.8925
 1.8975
 1.9025
 1.9075
 1.9125
 1.9175
 1.9275
 1.9375
 1.9475
 1.97
 2.005
 2.065
 2.16
 2.255
 2.4
 2.545
 2.8175
 3.09
 3.5675
 4.045
 5.
 5.
 5.
 5.
 5.
 5.
 5.
 5.
 5.
 5.
 5.
 5.
 5.
 5.
 5.
 5.
 5.
 5.
 5.
 5.
 5.
 5.
 5.
 5.
 5.
 5.
 5.
 5.
 2.49875
 1.3125
 104.1185E-9
 87.32949E-9
 87.30572E-9
 85.64029E-9
 84.0072E-9
 78.58173E-9
 74.35042E-9
 65.31932E-9
 55.51876E-9
 50.98989E-9
 49.2721E-9
 50.00471E-9
 52.20824E-9
 53.40672E-9
 53.19197E-9
 51.86617E-9
 49.42929E-9
 47.34567E-9
 45.80066E-9
 44.71734E-9
 43.92139E-9
 43.34602E-9
 42.72809E-9
 42.35442E-9
 42.12335E-9
 42.05364E-9
 42.10321E-9
 42.17801E-9
 42.23104E-9
 42.27895E-9
 42.31253E-9
 42.32155E-9
 42.32859E-9
 42.32958E-9
 42.3299E-9
 42.33053E-9
 42.33065E-9
 42.33086E-9
 42.33094E-9
 42.33097E-9
 42.33105E-9
 42.33105E-9
 42.33109E-9
 42.33109E-9
 42.3311E-9
 42.3311E-9
 42.3311E-9
 42.3311E-9
 42.33111E-9
 42.33111E-9
 42.33111E-9
 42.33111E-9
 42.33111E-9
 42.33111E-9
 42.33111E-9
 42.33111E-9
 42.33111E-9
 42.33111E-9
 42.33111E-9
 42.33111E-9
 42.33111E-9
 42.33111E-9
 42.33111E-9
 42.33111E-9
 42.33111E-9
 42.33111E-9
 42.33111E-9
 42.33111E-9
 42.33111E-9
 42.33111E-9
 42.33111E-9
 42.33111E-9
 42.33111E-9
 42.33111E-9
 10.36892E-9
 14.32276E-9
 13.29043E-9
 13.08492E-9
 13.03079E-9
 12.11988E-9
 11.66693E-9
 11.34587E-9
 10.60378E-9
 10.60071E-9
 10.66665E-9
 10.69023E-9
 10.68752E-9
 10.68453E-9
 10.68226E-9
 10.68146E-9
 10.68163E-9
 10.68176E-9
 10.6818E-9
 10.68179E-9
 10.68179E-9
 10.68179E-9
 10.68179E-9
 10.68179E-9
 10.68179E-9
 10.68179E-9
 10.68179E-9
 10.68179E-9
 10.68179E-9
 10.68179E-9
 10.68179E-9
 5.
 5.
 5.
 5.
 5.
 5.
 5.
 5.
 5.
 5.
 5.
 5.
 5.
 5.
 5.
 5.
 5.
 5.
 5.
 5.
 5.
 5.
 5.
 5.
 5.
 5.
 5.
 5.
 5.
 5.
 5.
 5.
 5.
 5.
 5.
 5.
 5.
 5.
 5.
 5.
 5.
 5.
 5.
 5.
 5.
 5.
 5.
 5.
 5.
 5.
 5.
 5.
 5.
 5.
 5.
 5.
 5.
 5.
 5.
 5.
 5.
 5.
 5.
 5.
 5.
 5.
 5.
 5.
 5.
 5.
 5.
 5.
 5.
 5.
 5.
 5.
 5.
 5.
 5.
 5.
 5.
 5.
 5.
 5.
 5.
 5.
 5.
 5.
 5.
 5.
 5.
 5.
 2.49875
 1.3125
 104.1185E-9
 87.32949E-9
 87.30572E-9
 85.64029E-9
 84.0072E-9
 78.58173E-9
 74.35042E-9
 65.31932E-9
 55.51875E-9
 50.98988E-9
 49.2721E-9
 50.00471E-9
 52.20824E-9
 53.40672E-9
 53.19197E-9
 51.86617E-9
 49.42929E-9
 47.34567E-9
 45.80066E-9
 44.71734E-9
 43.92139E-9
 43.34602E-9
 42.72809E-9
 42.35442E-9
 42.12335E-9
 42.05364E-9
 42.10321E-9
 42.17801E-9
 42.23104E-9
 42.27895E-9
 42.31253E-9
 42.32155E-9
 42.32859E-9
 42.32958E-9
 42.3299E-9
 42.33053E-9
 42.33065E-9
 42.33086E-9
 42.33094E-9
 42.33097E-9
 42.33105E-9
 42.33105E-9
 42.33109E-9
 42.33109E-9
 42.3311E-9
 42.3311E-9
 42.3311E-9
 42.3311E-9
 42.33111E-9
 42.33111E-9
 42.33111E-9
 42.33111E-9
 42.33111E-9
 42.33111E-9
 42.33111E-9
 42.33111E-9
 42.33111E-9
 42.33111E-9
 42.33111E-9
 42.33111E-9
 42.33111E-9
 42.33111E-9
 42.33111E-9
 42.33111E-9
 42.33111E-9
 42.33111E-9
 42.33111E-9
 42.33111E-9
 42.33111E-9
 42.33111E-9
 42.33111E-9
 42.33111E-9
 42.33111E-9
 42.33111E-9
 42.33111E-9
 42.33111E-9
 42.33111E-9
 42.33111E-9
 42.33111E-9
 10.36891E-9
 12.85352E-9
 11.75572E-9
 11.62196E-9
 11.58742E-9
 11.00803E-9
 10.83356E-9
 10.75932E-9
 10.68725E-9
 10.67391E-9
 10.68262E-9
 10.68717E-9
 10.68476E-9
 10.682E-9
 10.68129E-9
 10.68164E-9
 10.68178E-9
 10.6818E-9
 10.68179E-9
 10.68179E-9
 10.68179E-9
 10.68179E-9
 10.68179E-9
 10.68179E-9
 10.68179E-9
 10.68179E-9
</dep>
<dep B.Vt time>
 10.68179E-9
 10.68179E-9
 10.68179E-9
 1.25125
 1.55875
 1.625
 1.69
 1.735
 1.78
 1.81875
 1.84
 1.86
 1.865
 1.87
 1.8725
 1.875
 1.8775
 1.88
 1.8825
 1.8875
 1.8925
 1.8975
 1.9025
 1.9075
 1.9125
 1.9175
 1.9275
 1.9375
 1.9475
 1.97
 2.005
 2.065
 2.16
 2.255
 2.4
 2.545
 2.8175
 3.09
 3.5675
 4.045
 5.
 5.
 5.
 5.
 5.
 5.
 5.
 5.
 5.
 5.
 5.
 5.
 5.
 5.
 5.
 5.
 5.
 5.
 5.
 5.
 5.
 5.
 5.
 5.
 5.
 5.
 5.
 5.
 5.
 5.
 5.
 5.
 5.
 5.
 5.
 5.
 5.
 5.
 5.
 5.
 5.
 5.
 5.
 5.
 5.
 5.
 5.
 5.
 5.
 5.
 5.
 5.
 5.
 5.
 5.
 5.
 5.
 5.
 5.
 5.
 5.
 5.
 5.
 5.
 5.
 5.
 5.
 5.
 5.
 5.
 5.
 5.
 5.
 5.
 5.
 5.
 5.
 5.
 5.
 5.
 5.
 5.
 5.
 5.
 5.
 5.
 5.
 5.
 5.
 5.
 5.
 5.
 5.
 5.
 5.
 5.
 5.
 5.
 5.
 5.
 5.
 5.
 5.
 5.
 16.36636E-9
 5.222477E-9
 8.477887E-9
 8.613148E-9
 8.683638E-9
 9.426835E-9
 9.814559E-9
 10.1084E-9
 10.76897E-9
 10.76172E-9
 10.70948E-9
 10.6853E-9
 10.68411E-9
 10.68423E-9
 10.68236E-9
 10.68147E-9
 10.68161E-9
 10.68177E-9
 10.6818E-9
 10.68179E-9
 10.68179E-9
 10.68179E-9
 10.68179E-9
 10.68179E-9
 10.68179E-9
 10.68179E-9
 10.68179E-9
 10.68179E-9
 10.68179E-9
 10.68179E-9
 10.68179E-9
 75.43937E-9
 32.8623E-9
 41.28217E-9
 42.48272E-9
 42.34422E-9
 42.33555E-9
 42.33069E-9
 42.33107E-9
 42.33111E-9
 42.33111E-9
 42.33111E-9
 42.33111E-9
 42.33111E-9
 42.33111E-9
 42.33111E-9
 42.33111E-9
 42.33111E-9
 42.33111E-9
 42.33111E-9
 1.25125
 1.4125
 1.4875
 1.5475
 1.6075
 1.6675
 1.7275
 1.7875
 1.8475
 1.9075
 1.9375
 1.9525
 1.9675
 1.9825
 1.99
 1.995
 2.
 2.005
 2.01
 2.015
 2.02
 2.025
 2.03
 2.035
 2.04
 2.045
 2.05
 2.055
 2.06
 2.065
 2.07
 2.08
 2.09
 2.1
 2.11
 2.135
 2.16
 2.205
 2.2775
 2.43
 2.5825
 2.735
 2.9875
 3.39
 3.7925
 4.3975
 5.
 5.
 5.
 5.
 5.
 5.
 5.
 5.
 5.
 5.
 5.
 5.
 5.
 5.
 5.
 5.
 5.
 5.
 5.
 5.
 5.
 5.
 5.
 5.
 5.
 5.
 5.
 5.
 5.
 5.
 5.
 5.
 5.
 5.
 5.
 5.
 5.
 5.
 5.
 5.
 5.
 5.
 5.
 5.
 5.
 5.
 5.
 5.
 5.
 5.
 5.
 5.
 5.
 5.
 5.
 5.
 5.
 5.
 5.
 5.
 5.
 5.
 5.
 5.
 5.
 5.
 5.
 5.
 5.
 5.
 5.
 5.
 5.
 5.
 5.
 5.
 5.
 5.
 5.
 5.
 5.
 5.
 5.
 5.
 5.
 5.
 5.
 5.
 5.
 5.
 5.
 5.
 5.
 5.
 5.
 5.
 5.
 5.
 5.
 5.
 5.
 5.
 5.
 5.
 5.
 5.
 5.
 5.
 16.36636E-9
 6.775445E-9
 9.94051E-9
 10.00952E-9
 10.0379E-9
 10.40131E-9
 10.54181E-9
 10.62946E-9
 10.69488E-9
 10.70209E-9
 10.69338E-9
 10.68619E-9
 10.6842E-9
 10.682E-9
 10.68129E-9
 10.68164E-9
 10.68178E-9
 10.6818E-9
 10.68179E-9
 10.68179E-9
 10.68179E-9
 10.68179E-9
 10.68179E-9
 10.68179E-9
 10.68179E-9
 10.68179E-9
</dep>
<dep _net0.Vt time>
 5.
 5.
 5.
 5.
 5.
 5.
 5.
 5.
 5.
 5.
 5.
 5.
 5.
 5.
 5.
 5.
 5.
 5.
 5.
 5.
 5.
 5.
 5.
 5.
 5.
 5.
 5.
 5.
 5.
 5.
 5.
 5.
 5.
 5.
 5.
 5.
 5.
 5.
 5.
 5.
 5.
 5.
 5.
 5.
 5.
 5.
 5.
 5.
 5.
 5.
 5.
 5.
 5.
 5.
 5.
 5.
 5.
 5.
 5.
 5.
 5.
 5.
 5.
 5.
 5.
 5.
 5.
 5.
 5.
 5.
 5.
 5.
 5.
 5.
 5.
 5.
 5.
 5.
 5.
 5.
 5.
 5.
 5.
 5.
 5.
 5.
 5.
 5.
 5.
 5.
 5.
 5.
 5.
 5.
 5.
 5.
 5.
 5.
 5.
 5.
 5.
 5.
 5.
 5.
 5.
 5.
 5.
 5.
 5.
 5.
 5.
 5.
 5.
 5.
 5.
 5.
 5.
 5.
 5.
 5.
 5.
 5.
 5.
 5.
 5.
 5.
 5.
 5.
 5.
 5.
 5.
 5.
 5.
 5.
 5.
 5.
 5.
 5.
 5.
 5.
 5.
 5.
 5.
 5.
 5.
 5.
 5.
 5.
 5.
 5.
 5.
 5.
 5.
 5.
 5.
 5.
 5.
 5.
 5.
 5.
 5.
 5.
 5.
 5.
 5.
 5.
 5.
 5.
 5.
 5.
 5.
 5.
 5.
 5.
 5.
 5.
 5.
 5.
 5.
 5.
 5.
 5.
 5.
 5.
 5.
 5.
 5.
 5.
 5.
 5.
 5.
 5.
 5.
 5.
 5.
 5.
 5.
 5.
 5.
 5.
 5.
 5.
 5.
 5.
 5.
 5.
 5.
 5.
 5.
 5.
 5.
 5.
 5.
 5.
 5.
 5.
 5.
 5.
 5.
 5.
 5.
 5.
 5.
 5.
 5.
 5.
 5.
 5.
 5.
 5.
 5.
 5.
 5.
 5.
 5.
 5.
 5.
 5.
 5.
 5.
 5.
 5.
 5.
 5.
 5.
 5.
 5.
 5.
 5.
 5.
 5.
 5.
 5.
 5.
 5.
 5.
 5.
 5.
 5.
 5.
 5.
 5.
 5.
 5.
 5.
 5.
 5.
 5.
 5.
 5.
 5.
 5.
 5.
 5.
 5.
 5.
 5.
 5.
 5.
 5.
 5.
 5.
 5.
 5.
 5.
 5.
 5.
 5.
 5.
 5.
 5.
 5.
 5.
 5.
 5.
 5.
 5.
 5.
 5.
 5.
 5.
 5.
 5.
 5.
 5.
 5.
 5.
 5.
 5.
 5.
 5.
 5.
 5.
 5.
 5.
 5.
 5.
 5.
 5.
 5.
 5.
 5.
 5.
 5.
 5.
 5.
 5.
 5.
 5.
 5.
 5.
 5.
 5.
 5.
 5.
 5.
 5.
 5.
 5.
 5.
 5.
 5.
 5.
 5.
 5.
 5.
 5.
 5.
 5.
 5.
 5.
 5.
 5.
 5.
 5.
 5.
 5.
 5.
 5.
 5.
 5.
 5.
 5.
 5.
 5.
 5.
 5.
 5.
 5.
 5.
 5.
 5.
 5.
 5.
</dep>
<dep out.Vt time>
 4.490445
 4.492677
 4.492523
 4.584922
 3.231864
 2.621466
 1.792567
 1.15612
 0.5385297
 0.1151031
 0.03632218
 0.02959131
 0.03205569
 0.03438815
 0.03525955
 0.03588272
 0.03629234
 0.03656753
 0.03676711
 0.03709999
 0.03753094
 0.03808985
 0.0387161
 0.03922849
 0.03953193
 0.03965644
 0.03961804
 0.03944116
 0.03922919
 0.03880219
 0.03824854
 0.03753365
 0.03679458
 0.03634324
 0.03597249
 0.03573891
 0.03546725
 0.03524325
 0.03499545
 0.03479059
 0.03454576
 0.03155919
 0.03217898
 0.03235287
 0.03237192
 0.03236606
 0.03236374
 0.03236386
 0.03236391
 0.03236391
 0.03236391
 0.0323639
 0.03236389
 0.03236387
 0.03236386
 0.03236384
 0.03236384
 0.03236384
 0.03236384
 0.03236384
 0.03236384
 0.03236384
 0.03236384
 0.03236384
 0.03236384
 0.03236384
 0.03236384
 0.03236384
 0.03098918
 0.03098032
-0.09486538
-0.09496511
-0.09492332
-0.09480512
-0.09464035
-0.09365083
-0.09238097
-0.0870607
-0.07277263
-0.05418797
-0.01103586
 0.05440394
 0.2085032
 0.3977685
 0.7171965
 1.036376
 1.525785
 1.938113
 2.272633
 2.541506
 2.756647
 2.929077
 3.14658
 3.303668
 3.46399
 3.566896
 3.665453
 3.723282
 3.754988
 3.775743
 3.799583
 3.811424
 3.8212
 3.833141
 3.842525
 3.854877
 3.864724
 3.873001
 3.885215
 3.895054
 3.908453
 3.919062
 3.932101
 3.942488
 3.955514
 3.965896
 3.979041
 3.989503
 4.002651
 4.013117
 4.026257
 4.036719
 4.049869
 4.060337
 4.073477
 4.083939
 4.097091
 4.107562
 4.120696
 4.131155
 4.144314
 4.154788
 4.167929
 4.178389
 4.191348
 4.201691
 4.214791
 4.22522
 4.237761
 4.247828
 4.260709
 4.270987
 4.283359
 4.2933
 4.292171
 4.29315
 4.293194
 4.293138
 4.293124
 4.292988
 4.292854
 4.292788
 4.292701
 4.292645
 4.292723
 4.292853
 4.293024
 4.293144
 4.293337
 4.293422
 4.293415
 4.293406
 4.293411
 4.293428
 4.293463
 4.293525
 4.293657
 4.294687
 4.295699
 4.301777
 4.311082
 4.323162
 4.335805
 4.345912
 4.354321
 4.356031
 4.354124
 4.355332
 4.355277
 4.355249
 4.355246
 4.355246
 4.355251
 4.355255
 4.35526
 4.355271
 4.355302
 4.355359
 4.35555
 4.356092
 4.357622
 4.361687
 4.370503
 4.377989
 4.469039
 4.447996
 4.342583
 4.095125
 3.667726
 3.081915
 2.384847
 1.637068
 0.9175402
 0.3104663
 0.09027454
 0.04160208
 0.03070326
 0.03123912
 0.03240707
 0.03304573
 0.0334628
 0.0336878
 0.03381183
 0.03389261
 0.03395774
 0.03401812
 0.03407809
 0.03414139
 0.0342154
 0.03431513
 0.03446442
 0.03468696
 0.03498218
 0.03528061
 0.03553564
 0.03581771
 0.03589922
 0.03583357
 0.03570882
 0.03540092
 0.03513857
 0.03480826
 0.03447967
 0.03415378
 0.03400165
 0.03392057
 0.03383089
 0.03371541
 0.03362028
 0.03352507
 0.03344245
 0.03194274
 0.03228391
 0.03236343
 0.03236819
 0.03236416
 0.0323639
 0.03236396
 0.03236397
 0.03236397
 0.03236396
 0.03236393
 0.0323639
 0.03236387
 0.03236385
 0.03236384
 0.03236384
 0.03236384
 0.03236384
 0.03236384
 0.03236384
 0.03236384
 0.03236384
 0.03236384
 0.03236384
 0.03236384
 0.03236384
 0.03098918
 0.03098032
-0.09486536
-0.09496509
-0.0949233
-0.0948051
-0.09464034
-0.09365082
-0.09238095
-0.08706068
-0.07277261
-0.05418796
-0.01103587
 0.05440388
 0.2085031
 0.3977684
 0.7171963
 1.036376
 1.525785
 1.938113
 2.272633
 2.541506
 2.756647
 2.929077
 3.14658
 3.303668
 3.46399
 3.566896
 3.665453
 3.723282
 3.754988
 3.775743
 3.799583
 3.811424
 3.8212
 3.833141
 3.842525
 3.854877
 3.864724
 3.873001
 3.885215
 3.895054
 3.908454
 3.919064
 3.932103
 3.94249
 3.955518
 3.965902
 3.97905
 3.989514
 4.002663
 4.013129
 4.026283
 4.036752
 4.049919
 4.060397
 4.073561
 4.084038
 4.097188
 4.107656
 4.1208
 4.131264
 4.144396
 4.154852
 4.167975
 4.178423
 4.191504
 4.201923
 4.214963
 4.225354
 4.238262
 4.248564
 4.261299
 4.271482
 4.284035
 4.294089
 4.306725
 4.316813
 4.327132
 4.339415
 4.349239
 4.348118
 4.348995
 4.349072
 4.349
 4.34899
 4.348919
 4.348862
 4.348856
 4.34888
 4.348934
 4.348994
 4.34916
 4.349354
 4.349578
 4.349648
 4.349617
 4.349606
 4.349607
 4.349615
 4.349636
 4.349657
 4.34972
 4.349911
 4.35048
 4.351962
 4.354792
</dep>
