<Qucs Dataset>
default plugins: ignored
C:C1 gnd out C="5 pF" V="" 
                      ^ ? C1: V has no value?
.TR:TR1 Type="l ... " IntegrationMethod="Gear" Order="2" InitialStep="1 ns" 
                                        ^ ? need Trapezoidal, Euler ... incomplete
.TR:TR1 Type="l ... " IntegrationMethod="Gear" Order="2" InitialStep="1 ns" 
                                        ^ ? what's this (incomplete)?
parameter NAND_GATE_cir not specified, using default
parameter NAND_GATE_cir value is "NOT_INPUT"
parameter NAND_GATE_cir not specified, using default
parameter NAND_GATE_cir value is "NOT_INPUT"
parameter NAND not specified, using default
parameter NAND value is "NOT_INPUT"
parameter NAND not specified, using default
parameter NAND value is "NOT_INPUT"
parameter NAND_GATE_cir not specified, using default
parameter NAND_GATE_cir value is "NOT_INPUT"
parameter NAND_GATE_cir not specified, using default
parameter NAND_GATE_cir value is "NOT_INPUT"
parameter NAND_GATE_cir not specified, using default
parameter NAND_GATE_cir value is "NOT_INPUT"
parameter NAND_GATE_cir not specified, using default
parameter NAND_GATE_cir value is "NOT_INPUT"
parameter NAND_GATE_cir not specified, using default
parameter NAND_GATE_cir value is "NOT_INPUT"
parameter NAND_GATE_cir not specified, using default
parameter NAND_GATE_cir value is "NOT_INPUT"
parameter NAND not specified, using default
parameter NAND value is "NOT_INPUT"
parameter NAND not specified, using default
parameter NAND value is "NOT_INPUT"
Gnucap   System status
iterations: op=0, dc=0, tran=2563, fourier=0, total=2942
transient timesteps: accepted=356, rejected=34, total=390
transient timesteps: accepted=0, rejected=0, total=0
nodes: user=4, subckt=7, model=15, total=26
dctran density=49.1%, ac density=49.1%

<indep time 356>
 0.
 50.E-6
 0.001
 0.001000003
 0.001000003
 0.001000003
 0.001000003
 0.001000003
 0.001000003
 0.001000004
 0.001000004
 0.001000004
 0.001000004
 0.001000004
 0.001000004
 0.001000004
 0.001000004
 0.001000004
 0.001000004
 0.001000004
 0.001000004
 0.001000004
 0.001000004
 0.001000004
 0.001000004
 0.001000004
 0.001000004
 0.001000004
 0.001000004
 0.001000004
 0.001000004
 0.001000004
 0.001000004
 0.001000004
 0.001000004
 0.001000004
 0.001000005
 0.001000005
 0.001000005
 0.001000006
 0.001000007
 0.001000008
 0.00100001
 0.001000013
 0.001000016
 0.001000018
 0.001000021
 0.001000023
 0.001000034
 0.001000041
 0.001000056
 0.001000085
 0.00100017
 0.0010003
 0.001000745
 0.001001606
 0.001003269
 0.001006001
 0.001018104
 0.001030207
 0.00104231
 0.001072522
 0.001119277
 0.001147604
 0.001202638
 0.001333582
 0.001464525
 0.001717059
 0.00200003
 0.002000035
 0.002000037
 0.00200004
 0.00200004
 0.00200004
 0.00200004
 0.00200004
 0.00200004
 0.00200004
 0.00200004
 0.00200004
 0.002000041
 0.002000041
 0.002000041
 0.002000042
 0.002000043
 0.002000044
 0.002000044
 0.002000045
 0.002000046
 0.002000047
 0.002000048
 0.00200005
 0.002000052
 0.002000054
 0.002000057
 0.002000061
 0.002000064
 0.002000068
 0.002000074
 0.002000079
 0.002000084
 0.002000092
 0.0020001
 0.002000113
 0.002000126
 0.002000139
 0.002000161
 0.002000184
 0.002000223
 0.002000262
 0.002000323
 0.002000383
 0.002000479
 0.002000574
 0.002000725
 0.002000876
 0.002001114
 0.002001352
 0.002001728
 0.002002104
 0.002002696
 0.002003289
 0.002004224
 0.002005158
 0.002006632
 0.002008106
 0.002010429
 0.002012752
 0.002016413
 0.002020074
 0.002025849
 0.002031624
 0.002040729
 0.002049835
 0.002064156
 0.002078477
 0.00210095
 0.002123423
 0.002158937
 0.00219445
 0.002250561
 0.00230003
 0.00230004
 0.002300045
 0.002300045
 0.002300045
 0.002300045
 0.002300047
 0.002300048
 0.002300051
 0.002300054
 0.002300063
 0.002300077
 0.002300108
 0.002300139
 0.002300207
 0.002300338
 0.002300656
 0.002301232
 0.002302727
 0.002307884
 0.002321481
 0.002366123
 0.00246019
 0.002554257
 0.002707116
 0.002859975
 0.00300002
 0.00300003
 0.003000033
 0.003000037
 0.003000044
 0.00300005
 0.003000056
 0.003000069
 0.003000109
 0.003000149
 0.003000243
 0.003000441
 0.003000973
 0.003002089
 0.003006007
 0.003015154
 0.0030406
 0.003113171
 0.003301854
 0.00360002
 0.003600023
 0.003600023
 0.003600023
 0.003600023
 0.003600023
 0.003600023
 0.003600023
 0.003600024
 0.003600024
 0.003600024
 0.003600024
 0.003600024
 0.003600024
 0.003600024
 0.003600024
 0.003600024
 0.003600024
 0.003600024
 0.003600024
 0.003600024
 0.003600024
 0.003600024
 0.003600024
 0.003600024
 0.003600024
 0.003600024
 0.003600024
 0.003600024
 0.003600024
 0.003600024
 0.003600024
 0.003600024
 0.003600024
 0.003600024
 0.003600024
 0.003600025
 0.003600025
 0.003600025
 0.003600025
 0.003600026
 0.003600026
 0.003600027
 0.003600029
 0.00360003
 0.003600033
 0.003600035
 0.003600038
 0.003600041
 0.003600043
 0.003600053
 0.003600062
 0.003600082
 0.003600119
 0.003600236
 0.00360046
 0.003601006
 0.003601853
 0.003603972
 0.00360609
 0.003610721
 0.003618231
 0.00362574
 0.00366616
 0.003696474
 0.003726789
 0.003757103
 0.003819248
 0.003926589
 0.00400005
 0.004000055
 0.004000057
 0.00400006
 0.00400006
 0.00400006
 0.00400006
 0.00400006
 0.00400006
 0.00400006
 0.00400006
 0.00400006
 0.004000061
 0.004000061
 0.004000062
 0.004000062
 0.004000063
 0.004000064
 0.004000065
 0.004000066
 0.004000067
 0.004000068
 0.00400007
 0.004000071
 0.004000074
 0.004000076
 0.004000079
 0.004000083
 0.004000089
 0.004000093
 0.004000098
 0.004000102
 0.004000112
 0.004000121
 0.00400013
 0.00400014
 0.004000156
 0.004000172
 0.004000201
 0.004000229
 0.004000275
 0.004000322
 0.004000394
 0.004000466
 0.00400058
 0.004000694
 0.004000874
 0.004001054
 0.004001339
 0.004001623
 0.004002072
 0.00400252
 0.004003228
 0.004003935
 0.00400505
 0.004006166
 0.004007925
 0.004009684
 0.004012458
 0.004015232
 0.004019589
 0.004023947
 0.00403082
 0.004037694
 0.004048506
 0.004059319
 0.004076422
 0.004093525
 0.004120186
 0.004146847
 0.004187474
 0.0042281
 0.004292425
 0.00435675
 0.004448643
 0.004540536
 0.00469369
 0.00490005
 0.00490006
 0.004900063
 0.004900063
 0.004900063
 0.004900063
 0.004900064
 0.004900064
 0.004900064
 0.004900066
 0.004900069
 0.004900071
 0.004900081
 0.004900114
 0.004900147
 0.00490018
 0.00490026
 0.00490041
 0.004901122
 0.004901833
 0.004903796
 0.004909809
 0.004927847
 0.005
</indep>
<dep A.Vt time>
 10.68179E-9
 10.68179E-9
 10.68179E-9
 1.25
 1.517857
 1.584821
 1.651786
 1.699035
 1.746285
 1.793535
 1.81716
 1.83688
 1.8566
 1.86153
 1.870778
 1.87567
 1.878509
 1.881347
 1.884186
 1.888585
 1.892984
 1.897383
 1.901782
 1.906181
 1.91058
 1.914979
 1.919377
 1.926501
 1.933625
 1.944931
 1.956237
 1.978441
 2.000644
 2.056735
 2.112826
 2.214069
 2.315313
 2.506735
 2.698157
 3.025277
 3.352397
 4.158475
 5.
 5.
 5.
 5.
 5.
 5.
 5.
 5.
 5.
 5.
 5.
 5.
 5.
 5.
 5.
 5.
 5.
 5.
 5.
 5.
 5.
 5.
 5.
 5.
 5.
 5.
 5.
 2.5
 1.666667
 93.70326E-9
 74.93579E-9
 74.20252E-9
 72.38439E-9
 70.53598E-9
 64.10762E-9
 59.34916E-9
 54.02448E-9
 50.69669E-9
 50.93386E-9
 52.65728E-9
 53.13615E-9
 52.57464E-9
 50.25664E-9
 47.96869E-9
 46.25983E-9
 45.0005E-9
 44.12263E-9
 43.48467E-9
 42.82726E-9
 42.42237E-9
 42.15506E-9
 42.06094E-9
 42.09179E-9
 42.16217E-9
 42.21706E-9
 42.26906E-9
 42.30863E-9
 42.31931E-9
 42.32814E-9
 42.32937E-9
 42.32978E-9
 42.3305E-9
 42.33062E-9
 42.33085E-9
 42.33093E-9
 42.33096E-9
 42.33105E-9
 42.33105E-9
 42.33109E-9
 42.33108E-9
 42.3311E-9
 42.3311E-9
 42.3311E-9
 42.3311E-9
 42.33111E-9
 42.33111E-9
 42.33111E-9
 42.33111E-9
 42.33111E-9
 42.33111E-9
 42.33111E-9
 42.33111E-9
 42.33111E-9
 42.33111E-9
 42.33111E-9
 42.33111E-9
 42.33111E-9
 42.33111E-9
 42.33111E-9
 42.33111E-9
 42.33111E-9
 42.33111E-9
 42.33111E-9
 42.33111E-9
 42.33111E-9
 42.33111E-9
 42.33111E-9
 42.33111E-9
 42.33111E-9
 42.33111E-9
 10.36778E-9
 11.10817E-9
 10.49352E-9
 10.50328E-9
 10.52592E-9
 10.73391E-9
 10.70208E-9
 10.68241E-9
 10.68206E-9
 10.68183E-9
 10.68167E-9
 10.68173E-9
 10.68178E-9
 10.68179E-9
 10.68179E-9
 10.68179E-9
 10.68179E-9
 10.68179E-9
 10.68179E-9
 10.68179E-9
 10.68179E-9
 10.68179E-9
 10.68179E-9
 10.68179E-9
 10.68179E-9
 10.89863E-9
 5.
 5.
 5.
 5.
 5.
 5.
 5.
 5.
 5.
 5.
 5.
 5.
 5.
 5.
 5.
 5.
 5.
 5.
 5.
 5.
 5.
 5.
 5.
 5.
 5.
 5.
 5.
 5.
 5.
 5.
 5.
 5.
 5.
 5.
 5.
 5.
 5.
 5.
 5.
 5.
 5.
 5.
 5.
 5.
 5.
 5.
 5.
 5.
 5.
 5.
 5.
 5.
 5.
 5.
 5.
 5.
 5.
 5.
 5.
 5.
 5.
 5.
 5.
 5.
 5.
 5.
 5.
 5.
 5.
 5.
 5.
 5.
 5.
 5.
 5.
 5.
 5.
 5.
 5.
 5.
 5.
 5.
 5.
 5.
 5.
 5.
 5.
 5.
 2.5
 1.666667
 93.70326E-9
 75.74612E-9
 75.24848E-9
 73.65395E-9
 71.9925E-9
 65.99042E-9
 59.59293E-9
 55.35412E-9
 50.525E-9
 51.12132E-9
 52.80335E-9
 52.97337E-9
 51.59576E-9
 48.9423E-9
 46.778E-9
 45.24138E-9
 44.20772E-9
 43.48127E-9
 42.98083E-9
 42.48356E-9
 42.20813E-9
 42.07589E-9
 42.07331E-9
 42.11125E-9
 42.197E-9
 42.27645E-9
 42.30914E-9
 42.31897E-9
 42.32503E-9
 42.32882E-9
 42.32977E-9
 42.33068E-9
 42.33071E-9
 42.3308E-9
 42.33085E-9
 42.33099E-9
 42.33101E-9
 42.33107E-9
 42.33107E-9
 42.33109E-9
 42.33109E-9
 42.3311E-9
 42.3311E-9
 42.3311E-9
 42.3311E-9
 42.33111E-9
 42.33111E-9
 42.33111E-9
 42.33111E-9
 42.33111E-9
 42.33111E-9
 42.33111E-9
 42.33111E-9
 42.33111E-9
 42.33111E-9
 42.33111E-9
 42.33111E-9
 42.33111E-9
 42.33111E-9
 42.33111E-9
 42.33111E-9
 42.33111E-9
 42.33111E-9
 42.33111E-9
 42.33111E-9
 42.33111E-9
 42.33111E-9
 42.33111E-9
 42.33111E-9
 42.33111E-9
 42.33111E-9
 42.33111E-9
 42.33111E-9
 42.33111E-9
 42.33111E-9
 10.36772E-9
 11.34405E-9
 10.55132E-9
 10.53788E-9
 10.55384E-9
 10.68397E-9
 10.70057E-9
 10.69401E-9
 10.68519E-9
 10.68362E-9
 10.68301E-9
 10.68188E-9
 10.68154E-9
 10.68172E-9
 10.68179E-9
 10.68179E-9
 10.68179E-9
 10.68179E-9
 10.68179E-9
 10.68179E-9
 10.68179E-9
 10.68179E-9
 10.68179E-9
</dep>
<dep B.Vt time>
 10.68179E-9
 10.68179E-9
 10.68179E-9
 1.25
 1.517857
 1.584821
 1.651786
 1.699035
 1.746285
 1.793535
 1.81716
 1.83688
 1.8566
 1.86153
 1.870778
 1.87567
 1.878509
 1.881347
 1.884186
 1.888585
 1.892984
 1.897383
 1.901782
 1.906181
 1.91058
 1.914979
 1.919377
 1.926501
 1.933625
 1.944931
 1.956237
 1.978441
 2.000644
 2.056735
 2.112826
 2.214069
 2.315313
 2.506735
 2.698157
 3.025277
 3.352397
 4.158475
 5.
 5.
 5.
 5.
 5.
 5.
 5.
 5.
 5.
 5.
 5.
 5.
 5.
 5.
 5.
 5.
 5.
 5.
 5.
 5.
 5.
 5.
 5.
 5.
 5.
 5.
 5.
 5.
 5.
 5.
 5.
 5.
 5.
 5.
 5.
 5.
 5.
 5.
 5.
 5.
 5.
 5.
 5.
 5.
 5.
 5.
 5.
 5.
 5.
 5.
 5.
 5.
 5.
 5.
 5.
 5.
 5.
 5.
 5.
 5.
 5.
 5.
 5.
 5.
 5.
 5.
 5.
 5.
 5.
 5.
 5.
 5.
 5.
 5.
 5.
 5.
 5.
 5.
 5.
 5.
 5.
 5.
 5.
 5.
 5.
 5.
 5.
 5.
 5.
 5.
 5.
 5.
 5.
 5.
 5.
 5.
 5.
 5.
 5.
 5.
 16.3706E-9
 8.541206E-9
 10.92875E-9
 10.88673E-9
 10.83519E-9
 10.63389E-9
 10.66948E-9
 10.68399E-9
 10.68296E-9
 10.68184E-9
 10.68166E-9
 10.68175E-9
 10.68178E-9
 10.68179E-9
 10.68179E-9
 10.68179E-9
 10.68179E-9
 10.68179E-9
 10.68179E-9
 10.68179E-9
 10.68179E-9
 10.68179E-9
 10.68179E-9
 10.68179E-9
 10.68179E-9
 10.68179E-9
 75.4558E-9
 33.07628E-9
 41.28989E-9
 42.45501E-9
 42.34375E-9
 42.33549E-9
 42.33078E-9
 42.33108E-9
 42.33111E-9
 42.33111E-9
 42.33111E-9
 42.33111E-9
 42.33111E-9
 42.33111E-9
 42.33111E-9
 42.33111E-9
 42.33111E-9
 42.33111E-9
 42.33111E-9
 1.25
 1.383929
 1.45132
 1.513576
 1.575833
 1.63809
 1.700346
 1.762603
 1.82486
 1.887117
 1.918245
 1.949373
 1.980502
 1.988191
 1.99588
 2.003569
 2.009052
 2.014534
 2.020017
 2.0255
 2.030982
 2.036465
 2.041948
 2.04743
 2.052913
 2.058396
 2.063878
 2.069361
 2.078358
 2.087355
 2.096353
 2.111899
 2.127446
 2.15626
 2.200766
 2.27715
 2.353534
 2.499827
 2.64612
 2.89955
 3.15298
 3.725884
 4.298788
 5.
 5.
 5.
 5.
 5.
 5.
 5.
 5.
 5.
 5.
 5.
 5.
 5.
 5.
 5.
 5.
 5.
 5.
 5.
 5.
 5.
 5.
 5.
 5.
 5.
 5.
 5.
 5.
 5.
 5.
 5.
 5.
 5.
 5.
 5.
 5.
 5.
 5.
 5.
 5.
 5.
 5.
 5.
 5.
 5.
 5.
 5.
 5.
 5.
 5.
 5.
 5.
 5.
 5.
 5.
 5.
 5.
 5.
 5.
 5.
 5.
 5.
 5.
 5.
 5.
 5.
 5.
 5.
 5.
 5.
 5.
 5.
 5.
 5.
 5.
 5.
 5.
 5.
 5.
 5.
 5.
 5.
 5.
 5.
 5.
 5.
 5.
 5.
 5.
 5.
 5.
 5.
 5.
 5.
 5.
 5.
 5.
 5.
 5.
 5.
 5.
 5.
 5.
 16.3706E-9
 8.308801E-9
 10.88699E-9
 10.85671E-9
 10.82553E-9
 10.68008E-9
 10.67464E-9
 10.68024E-9
 10.68593E-9
 10.68432E-9
 10.68307E-9
 10.68187E-9
 10.68154E-9
 10.68172E-9
 10.68179E-9
 10.68179E-9
 10.68179E-9
 10.68179E-9
 10.68179E-9
 10.68179E-9
 10.68179E-9
 10.68179E-9
 10.68179E-9
</dep>
<dep _net0.Vt time>
 5.
 5.
 5.
 5.
 5.
 5.
 5.
 5.
 5.
 5.
 5.
 5.
 5.
 5.
 5.
 5.
 5.
 5.
 5.
 5.
 5.
 5.
 5.
 5.
 5.
 5.
 5.
 5.
 5.
 5.
 5.
 5.
 5.
 5.
 5.
 5.
 5.
 5.
 5.
 5.
 5.
 5.
 5.
 5.
 5.
 5.
 5.
 5.
 5.
 5.
 5.
 5.
 5.
 5.
 5.
 5.
 5.
 5.
 5.
 5.
 5.
 5.
 5.
 5.
 5.
 5.
 5.
 5.
 5.
 5.
 5.
 5.
 5.
 5.
 5.
 5.
 5.
 5.
 5.
 5.
 5.
 5.
 5.
 5.
 5.
 5.
 5.
 5.
 5.
 5.
 5.
 5.
 5.
 5.
 5.
 5.
 5.
 5.
 5.
 5.
 5.
 5.
 5.
 5.
 5.
 5.
 5.
 5.
 5.
 5.
 5.
 5.
 5.
 5.
 5.
 5.
 5.
 5.
 5.
 5.
 5.
 5.
 5.
 5.
 5.
 5.
 5.
 5.
 5.
 5.
 5.
 5.
 5.
 5.
 5.
 5.
 5.
 5.
 5.
 5.
 5.
 5.
 5.
 5.
 5.
 5.
 5.
 5.
 5.
 5.
 5.
 5.
 5.
 5.
 5.
 5.
 5.
 5.
 5.
 5.
 5.
 5.
 5.
 5.
 5.
 5.
 5.
 5.
 5.
 5.
 5.
 5.
 5.
 5.
 5.
 5.
 5.
 5.
 5.
 5.
 5.
 5.
 5.
 5.
 5.
 5.
 5.
 5.
 5.
 5.
 5.
 5.
 5.
 5.
 5.
 5.
 5.
 5.
 5.
 5.
 5.
 5.
 5.
 5.
 5.
 5.
 5.
 5.
 5.
 5.
 5.
 5.
 5.
 5.
 5.
 5.
 5.
 5.
 5.
 5.
 5.
 5.
 5.
 5.
 5.
 5.
 5.
 5.
 5.
 5.
 5.
 5.
 5.
 5.
 5.
 5.
 5.
 5.
 5.
 5.
 5.
 5.
 5.
 5.
 5.
 5.
 5.
 5.
 5.
 5.
 5.
 5.
 5.
 5.
 5.
 5.
 5.
 5.
 5.
 5.
 5.
 5.
 5.
 5.
 5.
 5.
 5.
 5.
 5.
 5.
 5.
 5.
 5.
 5.
 5.
 5.
 5.
 5.
 5.
 5.
 5.
 5.
 5.
 5.
 5.
 5.
 5.
 5.
 5.
 5.
 5.
 5.
 5.
 5.
 5.
 5.
 5.
 5.
 5.
 5.
 5.
 5.
 5.
 5.
 5.
 5.
 5.
 5.
 5.
 5.
 5.
 5.
 5.
 5.
 5.
 5.
 5.
 5.
 5.
 5.
 5.
 5.
 5.
 5.
 5.
 5.
 5.
 5.
 5.
 5.
 5.
 5.
 5.
 5.
 5.
 5.
 5.
 5.
 5.
 5.
 5.
 5.
 5.
 5.
 5.
 5.
 5.
 5.
 5.
 5.
 5.
 5.
 5.
 5.
 5.
 5.
</dep>
<dep out.Vt time>
 4.490445
 4.492677
 4.492523
 4.58499
 3.85286
 3.372688
 2.605089
 1.942909
 1.224478
 0.5396185
 0.2412238
 0.07517157
 0.03143392
 0.03121026
 0.03404874
 0.03537025
 0.03595329
 0.03633019
 0.03658102
 0.03684203
 0.03705026
 0.03729211
 0.03768319
 0.03821287
 0.03877521
 0.03924611
 0.03955687
 0.03975525
 0.03974637
 0.03955116
 0.03930113
 0.03885523
 0.0384648
 0.03771645
 0.03715641
 0.0365426
 0.0361706
 0.03580394
 0.03556048
 0.03529898
 0.03508457
 0.03478018
 0.03452533
 0.0314284
 0.03220789
 0.03236784
 0.03237211
 0.03236492
 0.03236363
 0.03236387
 0.03236388
 0.03236388
 0.03236388
 0.03236388
 0.03236387
 0.03236386
 0.03236385
 0.03236384
 0.03236384
 0.03236384
 0.03236384
 0.03236384
 0.03236384
 0.03236384
 0.03236384
 0.03236384
 0.03236384
 0.03236384
 0.03236384
 0.0309892
 0.03100872
-0.01110951
-0.009963722
-0.008656154
-0.00762435
-0.006478325
-91.84483E-6
 0.007810434
 0.0278154
 0.08685708
 0.1672291
 0.3733073
 0.6079178
 0.8515556
 1.368645
 1.813166
 2.177791
 2.469553
 2.702426
 2.888278
 3.110882
 3.27284
 3.438472
 3.546256
 3.651266
 3.713203
 3.747464
 3.769784
 3.79598
 3.808265
 3.818444
 3.83072
 3.840283
 3.853107
 3.863233
 3.87171
 3.883714
 3.893412
 3.906741
 3.917305
 3.930376
 3.940783
 3.953806
 3.964186
 3.977328
 3.987788
 4.000938
 4.011405
 4.024559
 4.035029
 4.048192
 4.058669
 4.071835
 4.082313
 4.095478
 4.105956
 4.119116
 4.12959
 4.142744
 4.153214
 4.166374
 4.176846
 4.190001
 4.200467
 4.213583
 4.224022
 4.237079
 4.247475
 4.26056
 4.270964
 4.284042
 4.293301
 4.292187
 4.293312
 4.293183
 4.293196
 4.293205
 4.293411
 4.293522
 4.293644
 4.293714
 4.293786
 4.293807
 4.293807
 4.293809
 4.29382
 4.293843
 4.293896
 4.293994
 4.294245
 4.2951
 4.297281
 4.303792
 4.315245
 4.324639
 4.33696
 4.346829
 4.354439
 4.356164
 4.354254
 4.355517
 4.355498
 4.355479
 4.355477
 4.355478
 4.355485
 4.355489
 4.355495
 4.355506
 4.355532
 4.355587
 4.355778
 4.35622
 4.357424
 4.360687
 4.368208
 4.378115
 4.469146
 4.465946
 4.42697
 4.267894
 3.918902
 3.38656
 2.708773
 1.946005
 1.176232
 0.4951727
 0.2123588
 0.05498959
 0.02702806
 0.02908372
 0.03166827
 0.03313103
 0.03363653
 0.03388368
 0.0339919
 0.03405598
 0.03411405
 0.03418133
 0.03427196
 0.03441045
 0.03462784
 0.0349332
 0.03524401
 0.03553634
 0.03580831
 0.03589805
 0.03585434
 0.03567421
 0.03547253
 0.03516752
 0.03482925
 0.0344785
 0.03427071
 0.03408079
 0.03397263
 0.03386283
 0.03377537
 0.03364341
 0.03353209
 0.03344916
 0.03193392
 0.03228532
 0.03236415
 0.03236765
 0.03236423
 0.03236391
 0.03236398
 0.03236399
 0.03236398
 0.03236396
 0.03236394
 0.0323639
 0.03236388
 0.03236385
 0.03236384
 0.03236384
 0.03236384
 0.03236384
 0.03236384
 0.03236384
 0.03236384
 0.03236384
 0.03236384
 0.03236384
 0.03236384
 0.0309892
 0.03100872
-0.01110956
-0.01020091
-0.009161556
-0.008342143
-0.007435588
-0.002404721
 0.007464674
 0.02004121
 0.1038139
 0.2241114
 0.4537578
 0.7071348
 1.097539
 1.628437
 2.06489
 2.409199
 2.678191
 2.887673
 3.051435
 3.250097
 3.389913
 3.532124
 3.622213
 3.677291
 3.728239
 3.775219
 3.794643
 3.807182
 3.816642
 3.831905
 3.843027
 3.852172
 3.859885
 3.87091
 3.879947
 3.892555
 3.90266
 3.915896
 3.926405
 3.939461
 3.949861
 3.962935
 3.97335
 3.986496
 3.99696
 4.010112
 4.020581
 4.033739
 4.044213
 4.057376
 4.067854
 4.081017
 4.091494
 4.10466
 4.115138
 4.128304
 4.138782
 4.151903
 4.16235
 4.175486
 4.185943
 4.199053
 4.20949
 4.222642
 4.2331
 4.2461
 4.256456
 4.269085
 4.279197
 4.291988
 4.302188
 4.313937
 4.323445
 4.336104
 4.349222
 4.347991
 4.34897
 4.34894
 4.348926
 4.348931
 4.349025
 4.349085
 4.349116
 4.349235
 4.349372
 4.349459
 4.349568
 4.349604
 4.349589
 4.349585
 4.349589
 4.349597
 4.349637
 4.349676
 4.349784
 4.350113
 4.351085
 4.354764
</dep>
