<Qucs Dataset>
default plugins: ignored
C:C1 gnd out C="5 pF" V="" 
                      ^ ? C1: V has no value?
.TR:TR1 Type="l ... " IntegrationMethod="Gear" Order="2" InitialStep="1 ns" 
                                        ^ ? need Trapezoidal, Euler ... incomplete
.TR:TR1 Type="l ... " IntegrationMethod="Gear" Order="2" InitialStep="1 ns" 
                                        ^ ? what's this (incomplete)?
parameter NAND_GATE_cir not specified, using default
parameter NAND_GATE_cir value is "NOT_INPUT"
parameter NAND_GATE_cir not specified, using default
parameter NAND_GATE_cir value is "NOT_INPUT"
parameter NAND not specified, using default
parameter NAND value is "NOT_INPUT"
parameter NAND not specified, using default
parameter NAND value is "NOT_INPUT"
parameter NAND_GATE_cir not specified, using default
parameter NAND_GATE_cir value is "NOT_INPUT"
parameter NAND_GATE_cir not specified, using default
parameter NAND_GATE_cir value is "NOT_INPUT"
parameter NAND_GATE_cir not specified, using default
parameter NAND_GATE_cir value is "NOT_INPUT"
parameter NAND_GATE_cir not specified, using default
parameter NAND_GATE_cir value is "NOT_INPUT"
parameter NAND_GATE_cir not specified, using default
parameter NAND_GATE_cir value is "NOT_INPUT"
parameter NAND_GATE_cir not specified, using default
parameter NAND_GATE_cir value is "NOT_INPUT"
parameter NAND not specified, using default
parameter NAND value is "NOT_INPUT"
parameter NAND not specified, using default
parameter NAND value is "NOT_INPUT"
Gnucap   System status
iterations: op=0, dc=0, tran=2667, fourier=0, total=3063
transient timesteps: accepted=372, rejected=36, total=408
transient timesteps: accepted=0, rejected=0, total=0
nodes: user=4, subckt=7, model=19, total=30
dctran density=42.9%, ac density=42.9%

<indep time 372>
 0.
 50.E-6
 0.001
 0.001000003
 0.001000003
 0.001000003
 0.001000003
 0.001000003
 0.001000004
 0.001000004
 0.001000004
 0.001000004
 0.001000004
 0.001000004
 0.001000004
 0.001000004
 0.001000004
 0.001000004
 0.001000004
 0.001000004
 0.001000004
 0.001000004
 0.001000004
 0.001000004
 0.001000004
 0.001000004
 0.001000004
 0.001000004
 0.001000004
 0.001000004
 0.001000004
 0.001000004
 0.001000004
 0.001000004
 0.001000004
 0.001000004
 0.001000005
 0.001000005
 0.001000005
 0.001000006
 0.001000006
 0.001000007
 0.001000009
 0.00100001
 0.001000014
 0.001000016
 0.001000019
 0.001000021
 0.001000024
 0.001000032
 0.00100004
 0.001000054
 0.001000081
 0.00100017
 0.001000306
 0.00100076
 0.001001523
 0.001002954
 0.001005199
 0.001010519
 0.001022888
 0.001035256
 0.001053809
 0.001088854
 0.001115652
 0.001142451
 0.001208417
 0.001366736
 0.001525054
 0.001762532
 0.00200001
 0.002000015
 0.002000017
 0.00200002
 0.00200002
 0.00200002
 0.00200002
 0.00200002
 0.00200002
 0.00200002
 0.00200002
 0.00200002
 0.00200002
 0.002000021
 0.002000021
 0.002000021
 0.002000021
 0.002000022
 0.002000022
 0.002000024
 0.002000025
 0.002000026
 0.002000027
 0.002000028
 0.002000029
 0.00200003
 0.002000033
 0.002000035
 0.002000038
 0.002000042
 0.002000045
 0.002000049
 0.002000055
 0.002000061
 0.002000066
 0.002000073
 0.002000081
 0.002000095
 0.002000108
 0.002000121
 0.002000145
 0.002000168
 0.002000208
 0.002000249
 0.002000311
 0.002000373
 0.002000471
 0.002000569
 0.002000724
 0.00200088
 0.002001125
 0.00200137
 0.002001756
 0.002002142
 0.002002752
 0.002003361
 0.002004321
 0.002005281
 0.002006792
 0.002008304
 0.002010675
 0.002013047
 0.002016774
 0.0020205
 0.002026324
 0.002032147
 0.002041383
 0.00205062
 0.002064475
 0.00207833
 0.002098483
 0.002118635
 0.002148865
 0.002186651
 0.002224437
 0.002249628
 0.00230001
 0.00230002
 0.00230002
 0.002300021
 0.002300021
 0.002300021
 0.002300021
 0.002300021
 0.002300021
 0.002300021
 0.002300022
 0.002300022
 0.002300023
 0.002300025
 0.002300027
 0.002300034
 0.002300049
 0.002300087
 0.002300124
 0.002300161
 0.002300258
 0.002300455
 0.002300829
 0.00230152
 0.002304117
 0.00231033
 0.002335874
 0.002418892
 0.002501911
 0.002750965
 0.002875493
 0.00300002
 0.00300003
 0.003000034
 0.003000037
 0.003000045
 0.003000051
 0.003000057
 0.00300007
 0.003000109
 0.003000148
 0.003000247
 0.003000453
 0.003001054
 0.003002188
 0.003005972
 0.003016773
 0.003049176
 0.003140983
 0.003370501
 0.00360002
 0.003600023
 0.003600023
 0.003600023
 0.003600023
 0.003600023
 0.003600023
 0.003600024
 0.003600024
 0.003600024
 0.003600024
 0.003600024
 0.003600024
 0.003600024
 0.003600024
 0.003600024
 0.003600024
 0.003600024
 0.003600024
 0.003600024
 0.003600024
 0.003600024
 0.003600024
 0.003600024
 0.003600024
 0.003600024
 0.003600024
 0.003600024
 0.003600024
 0.003600024
 0.003600024
 0.003600024
 0.003600024
 0.003600024
 0.003600024
 0.003600025
 0.003600025
 0.003600025
 0.003600025
 0.003600026
 0.003600027
 0.003600028
 0.003600029
 0.00360003
 0.003600033
 0.003600035
 0.003600037
 0.003600039
 0.003600043
 0.003600052
 0.003600061
 0.003600079
 0.003600115
 0.003600225
 0.003600441
 0.003601001
 0.003601855
 0.003603907
 0.00360596
 0.003610388
 0.003617739
 0.003625091
 0.003653933
 0.003682774
 0.003711615
 0.003740457
 0.003792372
 0.003861591
 0.003930811
 0.00400003
 0.004000035
 0.004000037
 0.00400004
 0.00400004
 0.00400004
 0.00400004
 0.00400004
 0.00400004
 0.00400004
 0.00400004
 0.00400004
 0.00400004
 0.004000041
 0.004000041
 0.004000041
 0.004000041
 0.004000042
 0.004000042
 0.004000044
 0.004000045
 0.004000046
 0.004000047
 0.004000048
 0.004000049
 0.00400005
 0.004000053
 0.004000055
 0.004000058
 0.004000062
 0.004000065
 0.004000069
 0.004000075
 0.004000081
 0.004000086
 0.004000093
 0.004000101
 0.004000115
 0.004000128
 0.004000141
 0.004000165
 0.004000188
 0.004000228
 0.004000269
 0.004000331
 0.004000393
 0.004000491
 0.004000589
 0.004000744
 0.0040009
 0.004001145
 0.00400139
 0.004001776
 0.004002163
 0.004002772
 0.004003382
 0.004004343
 0.004005304
 0.004006818
 0.004008332
 0.004010716
 0.0040131
 0.004016858
 0.004020616
 0.004026519
 0.004032421
 0.00404175
 0.004051079
 0.004065716
 0.004080353
 0.004103122
 0.004125891
 0.004161079
 0.004196267
 0.004250403
 0.004304538
 0.004389609
 0.004474679
 0.004581017
 0.004740523
 0.00490003
 0.00490004
 0.004900041
 0.004900041
 0.004900041
 0.004900041
 0.004900041
 0.004900041
 0.004900041
 0.004900042
 0.004900042
 0.004900043
 0.004900044
 0.004900047
 0.004900057
 0.004900088
 0.004900119
 0.00490015
 0.004900216
 0.004900337
 0.004900726
 0.004901115
 0.004902239
 0.00490561
 0.004916098
 0.004944065
 0.005
</indep>
<dep A.Vt time>
 10.68179E-9
 10.68179E-9
 10.68179E-9
 1.2525
 1.56
 1.625
 1.69
 1.735
 1.78
 1.82
 1.84
 1.86
 1.865
 1.87
 1.8725
 1.875
 1.8775
 1.88
 1.8825
 1.885
 1.8875
 1.89
 1.8925
 1.895
 1.8975
 1.9
 1.9025
 1.91
 1.9175
 1.925
 1.9325
 1.95
 1.9675
 1.9975
 2.05
 2.1825
 2.315
 2.4475
 2.58
 2.885
 3.19
 3.5525
 4.2775
 5.
 5.
 5.
 5.
 5.
 5.
 5.
 5.
 5.
 5.
 5.
 5.
 5.
 5.
 5.
 5.
 5.
 5.
 5.
 5.
 5.
 5.
 5.
 5.
 5.
 5.
 5.
 5.
 2.4975
 1.31
 104.2113E-9
 87.40819E-9
 87.37706E-9
 85.70626E-9
 84.06837E-9
 78.62942E-9
 74.3893E-9
 65.3443E-9
 55.53396E-9
 50.99771E-9
 49.26702E-9
 49.98885E-9
 52.17139E-9
 53.3901E-9
 53.21587E-9
 51.90268E-9
 47.61725E-9
 45.87026E-9
 44.74072E-9
 43.92874E-9
 43.3414E-9
 42.72761E-9
 42.3566E-9
 42.12334E-9
 42.05153E-9
 42.09923E-9
 42.17339E-9
 42.22679E-9
 42.2756E-9
 42.31148E-9
 42.32092E-9
 42.32859E-9
 42.32955E-9
 42.32987E-9
 42.33052E-9
 42.33064E-9
 42.33086E-9
 42.33094E-9
 42.33096E-9
 42.33105E-9
 42.33105E-9
 42.33109E-9
 42.33109E-9
 42.3311E-9
 42.3311E-9
 42.3311E-9
 42.3311E-9
 42.33111E-9
 42.33111E-9
 42.33111E-9
 42.33111E-9
 42.33111E-9
 42.33111E-9
 42.33111E-9
 42.33111E-9
 42.33111E-9
 42.33111E-9
 42.33111E-9
 42.33111E-9
 42.33111E-9
 42.33111E-9
 42.33111E-9
 42.33111E-9
 42.33111E-9
 42.33111E-9
 42.33111E-9
 42.33111E-9
 42.33111E-9
 42.33111E-9
 42.33111E-9
 42.33111E-9
 42.33111E-9
 42.33111E-9
 42.33111E-9
 10.36893E-9
 14.5544E-9
 13.53266E-9
 13.33187E-9
 13.27615E-9
 12.31808E-9
 11.82228E-9
 11.45926E-9
 10.60445E-9
 10.59172E-9
 10.66263E-9
 10.69008E-9
 10.68802E-9
 10.6848E-9
 10.6824E-9
 10.68148E-9
 10.68161E-9
 10.68176E-9
 10.68179E-9
 10.68179E-9
 10.68179E-9
 10.68179E-9
 10.68179E-9
 10.68179E-9
 10.68179E-9
 10.68179E-9
 10.68179E-9
 10.68179E-9
 10.68179E-9
 10.68179E-9
 10.68179E-9
 5.
 5.
 5.
 5.
 5.
 5.
 5.
 5.
 5.
 5.
 5.
 5.
 5.
 5.
 5.
 5.
 5.
 5.
 5.
 5.
 5.
 5.
 5.
 5.
 5.
 5.
 5.
 5.
 5.
 5.
 5.
 5.
 5.
 5.
 5.
 5.
 5.
 5.
 5.
 5.
 5.
 5.
 5.
 5.
 5.
 5.
 5.
 5.
 5.
 5.
 5.
 5.
 5.
 5.
 5.
 5.
 5.
 5.
 5.
 5.
 5.
 5.
 5.
 5.
 5.
 5.
 5.
 5.
 5.
 5.
 5.
 5.
 5.
 5.
 5.
 5.
 5.
 5.
 5.
 5.
 5.
 5.
 5.
 5.
 5.
 5.
 5.
 5.
 2.4975
 1.31
 104.2113E-9
 87.40819E-9
 87.37706E-9
 85.70626E-9
 84.06837E-9
 78.62942E-9
 74.3893E-9
 65.34429E-9
 55.53396E-9
 50.9977E-9
 49.26702E-9
 49.98885E-9
 52.17139E-9
 53.3901E-9
 53.21587E-9
 51.90268E-9
 47.61725E-9
 45.87026E-9
 44.74072E-9
 43.92874E-9
 43.3414E-9
 42.72761E-9
 42.3566E-9
 42.12334E-9
 42.05153E-9
 42.09923E-9
 42.17339E-9
 42.22679E-9
 42.2756E-9
 42.31148E-9
 42.32092E-9
 42.32859E-9
 42.32955E-9
 42.32987E-9
 42.33052E-9
 42.33064E-9
 42.33086E-9
 42.33094E-9
 42.33096E-9
 42.33105E-9
 42.33105E-9
 42.33109E-9
 42.33109E-9
 42.3311E-9
 42.3311E-9
 42.3311E-9
 42.3311E-9
 42.33111E-9
 42.33111E-9
 42.33111E-9
 42.33111E-9
 42.33111E-9
 42.33111E-9
 42.33111E-9
 42.33111E-9
 42.33111E-9
 42.33111E-9
 42.33111E-9
 42.33111E-9
 42.33111E-9
 42.33111E-9
 42.33111E-9
 42.33111E-9
 42.33111E-9
 42.33111E-9
 42.33111E-9
 42.33111E-9
 42.33111E-9
 42.33111E-9
 42.33111E-9
 42.33111E-9
 42.33111E-9
 42.33111E-9
 42.33111E-9
 42.33111E-9
 42.33111E-9
 42.33111E-9
 42.33111E-9
 10.36891E-9
 12.85352E-9
 11.75572E-9
 11.62196E-9
 11.58742E-9
 11.00803E-9
 10.83356E-9
 10.75932E-9
 10.68725E-9
 10.67391E-9
 10.68262E-9
 10.68717E-9
 10.68476E-9
 10.682E-9
 10.68129E-9
 10.68164E-9
 10.68178E-9
 10.6818E-9
 10.68179E-9
 10.68179E-9
 10.68179E-9
 10.68179E-9
 10.68179E-9
 10.68179E-9
 10.68179E-9
 10.68179E-9
</dep>
<dep B.Vt time>
 10.68179E-9
 10.68179E-9
 10.68179E-9
 1.2525
 1.56
 1.625
 1.69
 1.735
 1.78
 1.82
 1.84
 1.86
 1.865
 1.87
 1.8725
 1.875
 1.8775
 1.88
 1.8825
 1.885
 1.8875
 1.89
 1.8925
 1.895
 1.8975
 1.9
 1.9025
 1.91
 1.9175
 1.925
 1.9325
 1.95
 1.9675
 1.9975
 2.05
 2.1825
 2.315
 2.4475
 2.58
 2.885
 3.19
 3.5525
 4.2775
 5.
 5.
 5.
 5.
 5.
 5.
 5.
 5.
 5.
 5.
 5.
 5.
 5.
 5.
 5.
 5.
 5.
 5.
 5.
 5.
 5.
 5.
 5.
 5.
 5.
 5.
 5.
 5.
 5.
 5.
 5.
 5.
 5.
 5.
 5.
 5.
 5.
 5.
 5.
 5.
 5.
 5.
 5.
 5.
 5.
 5.
 5.
 5.
 5.
 5.
 5.
 5.
 5.
 5.
 5.
 5.
 5.
 5.
 5.
 5.
 5.
 5.
 5.
 5.
 5.
 5.
 5.
 5.
 5.
 5.
 5.
 5.
 5.
 5.
 5.
 5.
 5.
 5.
 5.
 5.
 5.
 5.
 5.
 5.
 5.
 5.
 5.
 5.
 5.
 5.
 5.
 5.
 5.
 5.
 5.
 5.
 5.
 5.
 5.
 5.
 5.
 5.
 5.
 5.
 16.36636E-9
 4.969294E-9
 8.223686E-9
 8.368549E-9
 8.44103E-9
 9.242516E-9
 9.674239E-9
 10.00736E-9
 10.76936E-9
 10.76895E-9
 10.71342E-9
 10.68574E-9
 10.68406E-9
 10.68438E-9
 10.68252E-9
 10.68149E-9
 10.68159E-9
 10.68176E-9
 10.68179E-9
 10.68179E-9
 10.68179E-9
 10.68179E-9
 10.68179E-9
 10.68179E-9
 10.68179E-9
 10.68179E-9
 10.68179E-9
 10.68179E-9
 10.68179E-9
 10.68179E-9
 10.68179E-9
 75.43938E-9
 32.88293E-9
 41.27636E-9
 42.48201E-9
 42.34434E-9
 42.3356E-9
 42.33069E-9
 42.33107E-9
 42.33111E-9
 42.33111E-9
 42.33111E-9
 42.33111E-9
 42.33111E-9
 42.33111E-9
 42.33111E-9
 42.33111E-9
 42.33111E-9
 42.33111E-9
 42.33111E-9
 1.2525
 1.46
 1.54
 1.62
 1.68
 1.74
 1.8
 1.86
 1.92
 1.95
 1.98
 1.99
 2.
 2.005
 2.01
 2.015
 2.02
 2.025
 2.03
 2.035
 2.04
 2.045
 2.05
 2.055
 2.06
 2.065
 2.07
 2.08
 2.09
 2.1
 2.11
 2.135
 2.16
 2.205
 2.2775
 2.43
 2.5825
 2.735
 2.9875
 3.3925
 3.7975
 4.4
 5.
 5.
 5.
 5.
 5.
 5.
 5.
 5.
 5.
 5.
 5.
 5.
 5.
 5.
 5.
 5.
 5.
 5.
 5.
 5.
 5.
 5.
 5.
 5.
 5.
 5.
 5.
 5.
 5.
 5.
 5.
 5.
 5.
 5.
 5.
 5.
 5.
 5.
 5.
 5.
 5.
 5.
 5.
 5.
 5.
 5.
 5.
 5.
 5.
 5.
 5.
 5.
 5.
 5.
 5.
 5.
 5.
 5.
 5.
 5.
 5.
 5.
 5.
 5.
 5.
 5.
 5.
 5.
 5.
 5.
 5.
 5.
 5.
 5.
 5.
 5.
 5.
 5.
 5.
 5.
 5.
 5.
 5.
 5.
 5.
 5.
 5.
 5.
 5.
 5.
 5.
 5.
 5.
 5.
 5.
 5.
 5.
 5.
 5.
 5.
 5.
 5.
 5.
 5.
 5.
 5.
 5.
 16.36636E-9
 6.775445E-9
 9.94051E-9
 10.00952E-9
 10.0379E-9
 10.40131E-9
 10.54181E-9
 10.62946E-9
 10.69488E-9
 10.70209E-9
 10.69338E-9
 10.68619E-9
 10.6842E-9
 10.682E-9
 10.68129E-9
 10.68164E-9
 10.68178E-9
 10.6818E-9
 10.68179E-9
 10.68179E-9
 10.68179E-9
 10.68179E-9
 10.68179E-9
 10.68179E-9
 10.68179E-9
 10.68179E-9
</dep>
<dep _net0.Vt time>
 5.
 5.
 5.
 5.
 5.
 5.
 5.
 5.
 5.
 5.
 5.
 5.
 5.
 5.
 5.
 5.
 5.
 5.
 5.
 5.
 5.
 5.
 5.
 5.
 5.
 5.
 5.
 5.
 5.
 5.
 5.
 5.
 5.
 5.
 5.
 5.
 5.
 5.
 5.
 5.
 5.
 5.
 5.
 5.
 5.
 5.
 5.
 5.
 5.
 5.
 5.
 5.
 5.
 5.
 5.
 5.
 5.
 5.
 5.
 5.
 5.
 5.
 5.
 5.
 5.
 5.
 5.
 5.
 5.
 5.
 5.
 5.
 5.
 5.
 5.
 5.
 5.
 5.
 5.
 5.
 5.
 5.
 5.
 5.
 5.
 5.
 5.
 5.
 5.
 5.
 5.
 5.
 5.
 5.
 5.
 5.
 5.
 5.
 5.
 5.
 5.
 5.
 5.
 5.
 5.
 5.
 5.
 5.
 5.
 5.
 5.
 5.
 5.
 5.
 5.
 5.
 5.
 5.
 5.
 5.
 5.
 5.
 5.
 5.
 5.
 5.
 5.
 5.
 5.
 5.
 5.
 5.
 5.
 5.
 5.
 5.
 5.
 5.
 5.
 5.
 5.
 5.
 5.
 5.
 5.
 5.
 5.
 5.
 5.
 5.
 5.
 5.
 5.
 5.
 5.
 5.
 5.
 5.
 5.
 5.
 5.
 5.
 5.
 5.
 5.
 5.
 5.
 5.
 5.
 5.
 5.
 5.
 5.
 5.
 5.
 5.
 5.
 5.
 5.
 5.
 5.
 5.
 5.
 5.
 5.
 5.
 5.
 5.
 5.
 5.
 5.
 5.
 5.
 5.
 5.
 5.
 5.
 5.
 5.
 5.
 5.
 5.
 5.
 5.
 5.
 5.
 5.
 5.
 5.
 5.
 5.
 5.
 5.
 5.
 5.
 5.
 5.
 5.
 5.
 5.
 5.
 5.
 5.
 5.
 5.
 5.
 5.
 5.
 5.
 5.
 5.
 5.
 5.
 5.
 5.
 5.
 5.
 5.
 5.
 5.
 5.
 5.
 5.
 5.
 5.
 5.
 5.
 5.
 5.
 5.
 5.
 5.
 5.
 5.
 5.
 5.
 5.
 5.
 5.
 5.
 5.
 5.
 5.
 5.
 5.
 5.
 5.
 5.
 5.
 5.
 5.
 5.
 5.
 5.
 5.
 5.
 5.
 5.
 5.
 5.
 5.
 5.
 5.
 5.
 5.
 5.
 5.
 5.
 5.
 5.
 5.
 5.
 5.
 5.
 5.
 5.
 5.
 5.
 5.
 5.
 5.
 5.
 5.
 5.
 5.
 5.
 5.
 5.
 5.
 5.
 5.
 5.
 5.
 5.
 5.
 5.
 5.
 5.
 5.
 5.
 5.
 5.
 5.
 5.
 5.
 5.
 5.
 5.
 5.
 5.
 5.
 5.
 5.
 5.
 5.
 5.
 5.
 5.
 5.
 5.
 5.
 5.
 5.
 5.
 5.
 5.
 5.
 5.
 5.
 5.
 5.
 5.
 5.
 5.
 5.
 5.
 5.
 5.
 5.
 5.
 5.
 5.
 5.
 5.
 5.
 5.
 5.
 5.
 5.
 5.
 5.
 5.
</dep>
<dep out.Vt time>
 4.490445
 4.492677
 4.492523
 4.584849
 3.215333
 2.616019
 1.787553
 1.151884
 0.5353136
 0.108287
 0.03616588
 0.02971697
 0.03214316
 0.03443113
 0.03528562
 0.03589674
 0.03629914
 0.03657035
 0.0367681
 0.03693271
 0.03709465
 0.03727982
 0.03750931
 0.03779324
 0.03812346
 0.03847329
 0.03877123
 0.03937084
 0.03964661
 0.03965856
 0.03954161
 0.03918482
 0.03884067
 0.03835145
 0.03768625
 0.03669025
 0.03614338
 0.03585838
 0.03568462
 0.03541919
 0.03518127
 0.03499045
 0.03473902
 0.0345211
 0.03142563
 0.03221184
 0.03236896
 0.03237199
 0.03236491
 0.03236367
 0.03236389
 0.03236391
 0.03236391
 0.0323639
 0.0323639
 0.03236388
 0.03236387
 0.03236385
 0.03236384
 0.03236384
 0.03236384
 0.03236384
 0.03236384
 0.03236384
 0.03236384
 0.03236384
 0.03236384
 0.03236384
 0.03236384
 0.03236384
 0.03236384
 0.03098916
 0.03098002
-0.09520437
-0.0953054
-0.09526452
-0.09514729
-0.09498339
-0.09399668
-0.09272922
-0.087419
-0.07316869
-0.05465631
-0.01174887
 0.05338304
 0.204357
 0.3900054
 0.7090719
 1.028515
 1.906231
 2.258819
 2.53608
 2.75542
 2.929906
 3.144703
 3.300165
 3.460589
 3.563874
 3.662215
 3.720315
 3.752462
 3.773555
 3.798453
 3.810414
 3.82034
 3.832404
 3.841857
 3.854484
 3.864498
 3.872897
 3.885029
 3.894814
 3.908196
 3.918795
 3.931845
 3.942239
 3.955264
 3.965646
 3.978793
 3.989255
 4.002402
 4.012867
 4.026019
 4.036488
 4.049642
 4.060113
 4.073266
 4.083736
 4.096876
 4.107337
 4.120429
 4.13086
 4.143937
 4.154358
 4.167359
 4.17773
 4.190849
 4.201294
 4.213855
 4.223942
 4.23581
 4.245443
 4.257176
 4.268842
 4.278357
 4.283857
 4.293275
 4.292158
 4.293156
 4.293197
 4.293143
 4.293129
 4.292987
 4.292847
 4.292773
 4.292667
 4.292595
 4.292671
 4.292799
 4.292967
 4.293087
 4.293285
 4.293383
 4.29338
 4.29337
 4.293373
 4.293389
 4.293423
 4.293486
 4.293603
 4.294039
 4.295068
 4.299064
 4.310141
 4.319316
 4.339688
 4.347152
 4.353987
 4.355722
 4.353814
 4.355025
 4.354972
 4.354945
 4.354942
 4.354941
 4.354946
 4.35495
 4.354955
 4.354966
 4.354996
 4.355052
 4.355239
 4.355765
 4.357307
 4.361402
 4.370274
 4.377801
 4.468814
 4.340803
 4.07168
 3.496054
 2.899235
 2.19651
 1.456967
 0.7636779
 0.1969795
 0.05184364
 0.02704204
 0.02946202
 0.03217093
 0.03306779
 0.03355746
 0.03382454
 0.0339541
 0.03402872
 0.03408721
 0.0341464
 0.03421726
 0.03431499
 0.03446276
 0.03468371
 0.03497716
 0.03527428
 0.03552858
 0.03581059
 0.03589286
 0.03582808
 0.03570409
 0.03539745
 0.03513593
 0.03480662
 0.03447892
 0.03415374
 0.03400174
 0.03392065
 0.03383093
 0.03371489
 0.03361928
 0.03352554
 0.0334423
 0.03192731
 0.03228127
 0.0323638
 0.0323685
 0.03236427
 0.03236392
 0.03236398
 0.03236399
 0.03236398
 0.03236396
 0.03236394
 0.0323639
 0.03236388
 0.03236385
 0.03236384
 0.03236384
 0.03236384
 0.03236384
 0.03236384
 0.03236384
 0.03236384
 0.03236384
 0.03236384
 0.03236384
 0.03236384
 0.03236384
 0.03098916
 0.03098002
-0.09520436
-0.09530539
-0.09526451
-0.09514727
-0.09498337
-0.09399667
-0.09272921
-0.08741898
-0.07316867
-0.05465629
-0.01174888
 0.05338299
 0.2043569
 0.3900052
 0.7090718
 1.028515
 1.906231
 2.258819
 2.53608
 2.75542
 2.929906
 3.144703
 3.300165
 3.460589
 3.563874
 3.662215
 3.720315
 3.752462
 3.773555
 3.798453
 3.810414
 3.82034
 3.832404
 3.841857
 3.854484
 3.864498
 3.872897
 3.885029
 3.894814
 3.908198
 3.918797
 3.931847
 3.942241
 3.955267
 3.96565
 3.978796
 3.989259
 4.002408
 4.012875
 4.026025
 4.036493
 4.049654
 4.06013
 4.073291
 4.083767
 4.096918
 4.107388
 4.12053
 4.130993
 4.144137
 4.154601
 4.167704
 4.178139
 4.191285
 4.201745
 4.214828
 4.225246
 4.238181
 4.248499
 4.261252
 4.271446
 4.284009
 4.29407
 4.306713
 4.316805
 4.327127
 4.339414
 4.34924
 4.34812
 4.348996
 4.349073
 4.349001
 4.348991
 4.34892
 4.348863
 4.348857
 4.348881
 4.348935
 4.348996
 4.349161
 4.349356
 4.34958
 4.349649
 4.349619
 4.349607
 4.349609
 4.349616
 4.349637
 4.349659
 4.34972
 4.349905
 4.350474
 4.351959
 4.354793
</dep>
