<Qucs Dataset>
default plugins: ignored
C:C1 gnd out C="5 pF" V="" 
                      ^ ? C1: V has no value?
.TR:TR1 Type="l ... " IntegrationMethod="Gear" Order="2" InitialStep="1 ns" 
                                        ^ ? need Trapezoidal, Euler ... incomplete
.TR:TR1 Type="l ... " IntegrationMethod="Gear" Order="2" InitialStep="1 ns" 
                                        ^ ? what's this (incomplete)?
parameter NAND_GATE_cir not specified, using default
parameter NAND_GATE_cir value is "NOT_INPUT"
parameter NAND_GATE_cir not specified, using default
parameter NAND_GATE_cir value is "NOT_INPUT"
parameter NAND not specified, using default
parameter NAND value is "NOT_INPUT"
parameter NAND not specified, using default
parameter NAND value is "NOT_INPUT"
parameter NAND_GATE_cir not specified, using default
parameter NAND_GATE_cir value is "NOT_INPUT"
parameter NAND_GATE_cir not specified, using default
parameter NAND_GATE_cir value is "NOT_INPUT"
parameter NAND_GATE_cir not specified, using default
parameter NAND_GATE_cir value is "NOT_INPUT"
parameter NAND_GATE_cir not specified, using default
parameter NAND_GATE_cir value is "NOT_INPUT"
parameter NAND_GATE_cir not specified, using default
parameter NAND_GATE_cir value is "NOT_INPUT"
parameter NAND_GATE_cir not specified, using default
parameter NAND_GATE_cir value is "NOT_INPUT"
parameter NAND not specified, using default
parameter NAND value is "NOT_INPUT"
parameter NAND not specified, using default
parameter NAND value is "NOT_INPUT"
Gnucap   System status
iterations: op=0, dc=0, tran=2604, fourier=0, total=2990
transient timesteps: accepted=364, rejected=34, total=398
transient timesteps: accepted=0, rejected=0, total=0
nodes: user=4, subckt=7, model=15, total=26
dctran density=49.1%, ac density=49.1%

<indep time 364>
 0.
 50.E-6
 0.001
 0.001000003
 0.001000003
 0.001000003
 0.001000003
 0.001000003
 0.001000004
 0.001000004
 0.001000004
 0.001000004
 0.001000004
 0.001000004
 0.001000004
 0.001000004
 0.001000004
 0.001000004
 0.001000004
 0.001000004
 0.001000004
 0.001000004
 0.001000004
 0.001000004
 0.001000004
 0.001000004
 0.001000004
 0.001000004
 0.001000004
 0.001000004
 0.001000004
 0.001000004
 0.001000004
 0.001000004
 0.001000004
 0.001000004
 0.001000004
 0.001000005
 0.001000005
 0.001000005
 0.001000006
 0.001000006
 0.001000007
 0.001000009
 0.00100001
 0.001000013
 0.001000016
 0.001000018
 0.00100002
 0.001000022
 0.001000031
 0.001000037
 0.001000049
 0.001000073
 0.001000139
 0.00100025
 0.001000633
 0.001001326
 0.001002614
 0.001004619
 0.001010628
 0.001029993
 0.001042361
 0.001064226
 0.001098156
 0.001132085
 0.001166014
 0.001264321
 0.001362628
 0.001520775
 0.001955678
 0.00200003
 0.002000035
 0.002000037
 0.00200004
 0.00200004
 0.00200004
 0.00200004
 0.00200004
 0.00200004
 0.00200004
 0.00200004
 0.00200004
 0.002000041
 0.002000041
 0.002000041
 0.002000041
 0.002000042
 0.002000042
 0.002000043
 0.002000044
 0.002000045
 0.002000045
 0.002000046
 0.002000047
 0.002000049
 0.00200005
 0.002000052
 0.002000054
 0.002000057
 0.002000061
 0.002000064
 0.002000067
 0.002000074
 0.002000079
 0.002000084
 0.002000091
 0.002000099
 0.002000112
 0.002000125
 0.002000139
 0.002000161
 0.002000183
 0.002000221
 0.00200026
 0.00200032
 0.00200038
 0.002000474
 0.002000567
 0.002000717
 0.002000866
 0.002001101
 0.002001336
 0.002001707
 0.002002078
 0.002002663
 0.002003248
 0.002004171
 0.002005094
 0.002006549
 0.002008004
 0.002010299
 0.002012593
 0.00201621
 0.002019827
 0.002025525
 0.002031223
 0.002040192
 0.002049162
 0.00206328
 0.002077399
 0.002099709
 0.002122019
 0.002157116
 0.002192214
 0.002247268
 0.00230003
 0.00230004
 0.002300045
 0.002300045
 0.002300045
 0.002300045
 0.002300046
 0.002300047
 0.002300049
 0.002300051
 0.002300058
 0.002300065
 0.002300095
 0.002300125
 0.002300178
 0.002300271
 0.002300463
 0.00230097
 0.00230184
 0.002304984
 0.002313126
 0.002340267
 0.002423383
 0.002552214
 0.002681045
 0.002809876
 0.00300002
 0.00300003
 0.003000034
 0.003000037
 0.003000045
 0.003000051
 0.003000057
 0.00300007
 0.00300011
 0.00300015
 0.003000251
 0.003000464
 0.003001109
 0.003002287
 0.003006307
 0.003018104
 0.003053495
 0.003161634
 0.003468028
 0.00360002
 0.003600023
 0.003600023
 0.003600023
 0.003600023
 0.003600023
 0.003600023
 0.003600023
 0.003600024
 0.003600024
 0.003600024
 0.003600024
 0.003600024
 0.003600024
 0.003600024
 0.003600024
 0.003600024
 0.003600024
 0.003600024
 0.003600024
 0.003600024
 0.003600024
 0.003600024
 0.003600024
 0.003600024
 0.003600024
 0.003600024
 0.003600024
 0.003600024
 0.003600024
 0.003600024
 0.003600024
 0.003600024
 0.003600024
 0.003600024
 0.003600025
 0.003600025
 0.003600025
 0.003600025
 0.003600026
 0.003600027
 0.003600028
 0.003600029
 0.00360003
 0.003600033
 0.003600035
 0.003600037
 0.003600039
 0.003600042
 0.003600051
 0.003600059
 0.003600075
 0.003600109
 0.003600211
 0.003600404
 0.003601047
 0.00360169
 0.003603252
 0.003604814
 0.003607745
 0.003612497
 0.003617249
 0.003632444
 0.003647639
 0.003685205
 0.00370911
 0.003733015
 0.003788102
 0.003874666
 0.00400005
 0.004000055
 0.004000057
 0.00400006
 0.00400006
 0.00400006
 0.00400006
 0.00400006
 0.00400006
 0.00400006
 0.00400006
 0.00400006
 0.00400006
 0.004000061
 0.004000061
 0.004000061
 0.004000062
 0.004000062
 0.004000063
 0.004000064
 0.004000065
 0.004000066
 0.004000066
 0.004000067
 0.004000069
 0.00400007
 0.004000072
 0.004000074
 0.004000077
 0.004000081
 0.004000084
 0.004000088
 0.004000094
 0.004000099
 0.004000104
 0.004000111
 0.004000119
 0.004000132
 0.004000145
 0.004000159
 0.004000181
 0.004000203
 0.004000242
 0.00400028
 0.00400034
 0.0040004
 0.004000495
 0.004000589
 0.004000738
 0.004000887
 0.004001123
 0.004001359
 0.00400173
 0.004002102
 0.004002688
 0.004003275
 0.004004199
 0.004005124
 0.00400658
 0.004008037
 0.004010333
 0.00401263
 0.004016246
 0.004019863
 0.004025561
 0.00403126
 0.00404023
 0.0040492
 0.004063182
 0.004077164
 0.004099137
 0.004121109
 0.004154912
 0.004188716
 0.004242801
 0.004296887
 0.004375011
 0.004453134
 0.004562508
 0.004708338
 0.00490005
 0.00490006
 0.004900063
 0.004900064
 0.004900064
 0.004900064
 0.004900064
 0.004900065
 0.004900065
 0.004900067
 0.004900071
 0.004900075
 0.004900087
 0.004900111
 0.004900136
 0.004900182
 0.004900267
 0.004900429
 0.004900815
 0.004901519
 0.004903921
 0.004909926
 0.004932444
 0.005
</indep>
<dep A.Vt time>
 10.68179E-9
 10.68179E-9
 10.68179E-9
 1.25
 1.556144
 1.62152
 1.686896
 1.731684
 1.776472
 1.79995
 1.820786
 1.841622
 1.84724
 1.852858
 1.858476
 1.861846
 1.865216
 1.868587
 1.871957
 1.875328
 1.878698
 1.882069
 1.885439
 1.888809
 1.89218
 1.89555
 1.900631
 1.905712
 1.910793
 1.915874
 1.924415
 1.932956
 1.947162
 1.961368
 1.992159
 2.040492
 2.160164
 2.279835
 2.399507
 2.58014
 2.874583
 3.169026
 3.671053
 4.521719
 5.
 5.
 5.
 5.
 5.
 5.
 5.
 5.
 5.
 5.
 5.
 5.
 5.
 5.
 5.
 5.
 5.
 5.
 5.
 5.
 5.
 5.
 5.
 5.
 5.
 5.
 5.
 5.
 2.5
 1.313096
 104.194E-9
 82.83511E-9
 80.71476E-9
 78.28873E-9
 75.99473E-9
 69.23151E-9
 64.20292E-9
 56.60425E-9
 52.38306E-9
 49.61728E-9
 49.77514E-9
 51.16006E-9
 52.99657E-9
 53.54815E-9
 53.18552E-9
 50.88836E-9
 48.43353E-9
 46.57629E-9
 45.20376E-9
 44.25219E-9
 43.56437E-9
 42.8834E-9
 42.4603E-9
 42.17092E-9
 42.06181E-9
 42.08104E-9
 42.14852E-9
 42.20483E-9
 42.25994E-9
 42.3053E-9
 42.31733E-9
 42.3279E-9
 42.32922E-9
 42.32969E-9
 42.33048E-9
 42.33061E-9
 42.33086E-9
 42.33093E-9
 42.33095E-9
 42.33104E-9
 42.33105E-9
 42.33109E-9
 42.33108E-9
 42.3311E-9
 42.3311E-9
 42.3311E-9
 42.3311E-9
 42.33111E-9
 42.33111E-9
 42.33111E-9
 42.33111E-9
 42.33111E-9
 42.33111E-9
 42.33111E-9
 42.33111E-9
 42.33111E-9
 42.33111E-9
 42.33111E-9
 42.33111E-9
 42.33111E-9
 42.33111E-9
 42.33111E-9
 42.33111E-9
 42.33111E-9
 42.33111E-9
 42.33111E-9
 42.33111E-9
 42.33111E-9
 42.33111E-9
 42.33111E-9
 42.33111E-9
 42.33111E-9
 42.33111E-9
 10.36777E-9
 11.09329E-9
 10.49061E-9
 10.50338E-9
 10.52747E-9
 10.72359E-9
 10.7056E-9
 10.68506E-9
 10.68232E-9
 10.68203E-9
 10.68178E-9
 10.68168E-9
 10.68176E-9
 10.68179E-9
 10.68179E-9
 10.68179E-9
 10.68179E-9
 10.68179E-9
 10.68179E-9
 10.68179E-9
 10.68179E-9
 10.68179E-9
 10.68179E-9
 10.68179E-9
 10.68179E-9
 10.89863E-9
 5.
 5.
 5.
 5.
 5.
 5.
 5.
 5.
 5.
 5.
 5.
 5.
 5.
 5.
 5.
 5.
 5.
 5.
 5.
 5.
 5.
 5.
 5.
 5.
 5.
 5.
 5.
 5.
 5.
 5.
 5.
 5.
 5.
 5.
 5.
 5.
 5.
 5.
 5.
 5.
 5.
 5.
 5.
 5.
 5.
 5.
 5.
 5.
 5.
 5.
 5.
 5.
 5.
 5.
 5.
 5.
 5.
 5.
 5.
 5.
 5.
 5.
 5.
 5.
 5.
 5.
 5.
 5.
 5.
 5.
 5.
 5.
 5.
 5.
 5.
 5.
 5.
 5.
 5.
 5.
 5.
 5.
 5.
 5.
 5.
 5.
 5.
 5.
 2.5
 1.313096
 104.194E-9
 83.97763E-9
 82.16603E-9
 79.97032E-9
 77.85683E-9
 71.34626E-9
 66.44239E-9
 58.60454E-9
 53.89954E-9
 50.13787E-9
 49.72066E-9
 51.41875E-9
 52.97271E-9
 53.47651E-9
 52.57781E-9
 50.20806E-9
 47.98773E-9
 46.3194E-9
 45.07907E-9
 44.20619E-9
 43.56423E-9
 42.88304E-9
 42.45765E-9
 42.16945E-9
 42.06206E-9
 42.08309E-9
 42.15106E-9
 42.20703E-9
 42.26158E-9
 42.30592E-9
 42.31769E-9
 42.32795E-9
 42.32925E-9
 42.3297E-9
 42.33049E-9
 42.33061E-9
 42.33086E-9
 42.33093E-9
 42.33096E-9
 42.33104E-9
 42.33105E-9
 42.33109E-9
 42.33108E-9
 42.3311E-9
 42.3311E-9
 42.3311E-9
 42.3311E-9
 42.33111E-9
 42.33111E-9
 42.33111E-9
 42.33111E-9
 42.33111E-9
 42.33111E-9
 42.33111E-9
 42.33111E-9
 42.33111E-9
 42.33111E-9
 42.33111E-9
 42.33111E-9
 42.33111E-9
 42.33111E-9
 42.33111E-9
 42.33111E-9
 42.33111E-9
 42.33111E-9
 42.33111E-9
 42.33111E-9
 42.33111E-9
 42.33111E-9
 42.33111E-9
 42.33111E-9
 42.33111E-9
 42.33111E-9
 42.33111E-9
 42.33111E-9
 42.33111E-9
 42.33111E-9
 42.33111E-9
 10.36773E-9
 11.25248E-9
 10.52707E-9
 10.5244E-9
 10.54108E-9
 10.69781E-9
 10.70494E-9
 10.69274E-9
 10.68376E-9
 10.68279E-9
 10.68232E-9
 10.6817E-9
 10.68165E-9
 10.68175E-9
 10.68179E-9
 10.68179E-9
 10.68179E-9
 10.68179E-9
 10.68179E-9
 10.68179E-9
 10.68179E-9
 10.68179E-9
 10.68179E-9
</dep>
<dep B.Vt time>
 10.68179E-9
 10.68179E-9
 10.68179E-9
 1.25
 1.556144
 1.62152
 1.686896
 1.731684
 1.776472
 1.79995
 1.820786
 1.841622
 1.84724
 1.852858
 1.858476
 1.861846
 1.865216
 1.868587
 1.871957
 1.875328
 1.878698
 1.882069
 1.885439
 1.888809
 1.89218
 1.89555
 1.900631
 1.905712
 1.910793
 1.915874
 1.924415
 1.932956
 1.947162
 1.961368
 1.992159
 2.040492
 2.160164
 2.279835
 2.399507
 2.58014
 2.874583
 3.169026
 3.671053
 4.521719
 5.
 5.
 5.
 5.
 5.
 5.
 5.
 5.
 5.
 5.
 5.
 5.
 5.
 5.
 5.
 5.
 5.
 5.
 5.
 5.
 5.
 5.
 5.
 5.
 5.
 5.
 5.
 5.
 5.
 5.
 5.
 5.
 5.
 5.
 5.
 5.
 5.
 5.
 5.
 5.
 5.
 5.
 5.
 5.
 5.
 5.
 5.
 5.
 5.
 5.
 5.
 5.
 5.
 5.
 5.
 5.
 5.
 5.
 5.
 5.
 5.
 5.
 5.
 5.
 5.
 5.
 5.
 5.
 5.
 5.
 5.
 5.
 5.
 5.
 5.
 5.
 5.
 5.
 5.
 5.
 5.
 5.
 5.
 5.
 5.
 5.
 5.
 5.
 5.
 5.
 5.
 5.
 5.
 5.
 5.
 5.
 5.
 5.
 5.
 5.
 5.
 5.
 5.
 16.3706E-9
 8.55575E-9
 10.92813E-9
 10.88488E-9
 10.83224E-9
 10.64396E-9
 10.66733E-9
 10.68337E-9
 10.68392E-9
 10.68217E-9
 10.68176E-9
 10.68168E-9
 10.68176E-9
 10.68179E-9
 10.68179E-9
 10.68179E-9
 10.68179E-9
 10.68179E-9
 10.68179E-9
 10.68179E-9
 10.68179E-9
 10.68179E-9
 10.68179E-9
 10.68179E-9
 10.68179E-9
 10.68179E-9
 75.45577E-9
 32.8355E-9
 41.28755E-9
 42.48364E-9
 42.34412E-9
 42.33551E-9
 42.33069E-9
 42.33107E-9
 42.33111E-9
 42.33111E-9
 42.33111E-9
 42.33111E-9
 42.33111E-9
 42.33111E-9
 42.33111E-9
 42.33111E-9
 42.33111E-9
 42.33111E-9
 42.33111E-9
 1.25
 1.411838
 1.488715
 1.549783
 1.610851
 1.671919
 1.732986
 1.794054
 1.855122
 1.91619
 1.946724
 1.977258
 1.983212
 1.997077
 2.004045
 2.007917
 2.011788
 2.01566
 2.022044
 2.028427
 2.034811
 2.041195
 2.047579
 2.053963
 2.060346
 2.06673
 2.073114
 2.079498
 2.090293
 2.101089
 2.118179
 2.13527
 2.169768
 2.204265
 2.291548
 2.378831
 2.556664
 2.734496
 3.015261
 3.296027
 3.929524
 4.563021
 5.
 5.
 5.
 5.
 5.
 5.
 5.
 5.
 5.
 5.
 5.
 5.
 5.
 5.
 5.
 5.
 5.
 5.
 5.
 5.
 5.
 5.
 5.
 5.
 5.
 5.
 5.
 5.
 5.
 5.
 5.
 5.
 5.
 5.
 5.
 5.
 5.
 5.
 5.
 5.
 5.
 5.
 5.
 5.
 5.
 5.
 5.
 5.
 5.
 5.
 5.
 5.
 5.
 5.
 5.
 5.
 5.
 5.
 5.
 5.
 5.
 5.
 5.
 5.
 5.
 5.
 5.
 5.
 5.
 5.
 5.
 5.
 5.
 5.
 5.
 5.
 5.
 5.
 5.
 5.
 5.
 5.
 5.
 5.
 5.
 5.
 5.
 5.
 5.
 5.
 5.
 5.
 5.
 5.
 5.
 5.
 5.
 5.
 5.
 5.
 5.
 5.
 5.
 5.
 5.
 5.
 5.
 16.3706E-9
 8.399436E-9
 10.89914E-9
 10.86898E-9
 10.83188E-9
 10.66718E-9
 10.67003E-9
 10.68014E-9
 10.68585E-9
 10.68348E-9
 10.68233E-9
 10.68168E-9
 10.68167E-9
 10.68175E-9
 10.68179E-9
 10.68179E-9
 10.68179E-9
 10.68179E-9
 10.68179E-9
 10.68179E-9
 10.68179E-9
 10.68179E-9
 10.68179E-9
</dep>
<dep _net0.Vt time>
 5.
 5.
 5.
 5.
 5.
 5.
 5.
 5.
 5.
 5.
 5.
 5.
 5.
 5.
 5.
 5.
 5.
 5.
 5.
 5.
 5.
 5.
 5.
 5.
 5.
 5.
 5.
 5.
 5.
 5.
 5.
 5.
 5.
 5.
 5.
 5.
 5.
 5.
 5.
 5.
 5.
 5.
 5.
 5.
 5.
 5.
 5.
 5.
 5.
 5.
 5.
 5.
 5.
 5.
 5.
 5.
 5.
 5.
 5.
 5.
 5.
 5.
 5.
 5.
 5.
 5.
 5.
 5.
 5.
 5.
 5.
 5.
 5.
 5.
 5.
 5.
 5.
 5.
 5.
 5.
 5.
 5.
 5.
 5.
 5.
 5.
 5.
 5.
 5.
 5.
 5.
 5.
 5.
 5.
 5.
 5.
 5.
 5.
 5.
 5.
 5.
 5.
 5.
 5.
 5.
 5.
 5.
 5.
 5.
 5.
 5.
 5.
 5.
 5.
 5.
 5.
 5.
 5.
 5.
 5.
 5.
 5.
 5.
 5.
 5.
 5.
 5.
 5.
 5.
 5.
 5.
 5.
 5.
 5.
 5.
 5.
 5.
 5.
 5.
 5.
 5.
 5.
 5.
 5.
 5.
 5.
 5.
 5.
 5.
 5.
 5.
 5.
 5.
 5.
 5.
 5.
 5.
 5.
 5.
 5.
 5.
 5.
 5.
 5.
 5.
 5.
 5.
 5.
 5.
 5.
 5.
 5.
 5.
 5.
 5.
 5.
 5.
 5.
 5.
 5.
 5.
 5.
 5.
 5.
 5.
 5.
 5.
 5.
 5.
 5.
 5.
 5.
 5.
 5.
 5.
 5.
 5.
 5.
 5.
 5.
 5.
 5.
 5.
 5.
 5.
 5.
 5.
 5.
 5.
 5.
 5.
 5.
 5.
 5.
 5.
 5.
 5.
 5.
 5.
 5.
 5.
 5.
 5.
 5.
 5.
 5.
 5.
 5.
 5.
 5.
 5.
 5.
 5.
 5.
 5.
 5.
 5.
 5.
 5.
 5.
 5.
 5.
 5.
 5.
 5.
 5.
 5.
 5.
 5.
 5.
 5.
 5.
 5.
 5.
 5.
 5.
 5.
 5.
 5.
 5.
 5.
 5.
 5.
 5.
 5.
 5.
 5.
 5.
 5.
 5.
 5.
 5.
 5.
 5.
 5.
 5.
 5.
 5.
 5.
 5.
 5.
 5.
 5.
 5.
 5.
 5.
 5.
 5.
 5.
 5.
 5.
 5.
 5.
 5.
 5.
 5.
 5.
 5.
 5.
 5.
 5.
 5.
 5.
 5.
 5.
 5.
 5.
 5.
 5.
 5.
 5.
 5.
 5.
 5.
 5.
 5.
 5.
 5.
 5.
 5.
 5.
 5.
 5.
 5.
 5.
 5.
 5.
 5.
 5.
 5.
 5.
 5.
 5.
 5.
 5.
 5.
 5.
 5.
 5.
 5.
 5.
 5.
 5.
 5.
 5.
 5.
 5.
 5.
 5.
 5.
 5.
 5.
 5.
 5.
 5.
 5.
 5.
 5.
 5.
 5.
 5.
 5.
 5.
 5.
</dep>
<dep out.Vt time>
 4.490445
 4.492677
 4.492523
 4.58499
 3.271399
 2.679225
 1.850988
 1.216313
 0.5939906
 0.3008974
 0.09778048
 0.03406437
 0.03161977
 0.03307195
 0.03466606
 0.03539302
 0.03588826
 0.036205
 0.03641982
 0.03658282
 0.03672271
 0.03685759
 0.03700522
 0.03719128
 0.03744942
 0.03780501
 0.03845384
 0.03901826
 0.03942498
 0.03962436
 0.03965982
 0.03953682
 0.0392481
 0.0389606
 0.03844222
 0.03779748
 0.03681488
 0.03625187
 0.03594957
 0.03569487
 0.03541536
 0.03519009
 0.03494766
 0.03466102
 0.03451727
 0.0314564
 0.03220441
 0.03236614
 0.03237227
 0.03236513
 0.03236367
 0.03236389
 0.03236392
 0.03236392
 0.03236391
 0.03236391
 0.03236389
 0.03236387
 0.03236386
 0.03236385
 0.03236384
 0.03236384
 0.03236384
 0.03236384
 0.03236384
 0.03236384
 0.03236384
 0.03236384
 0.03236384
 0.03236384
 0.03236384
 0.03236384
 0.0309892
 0.03098043
-0.0951034
-0.09493108
-0.09436267
-0.09381239
-0.09316369
-0.09008292
-0.08650698
-0.07561086
-0.06218081
-0.02392664
 0.03495285
 0.1168381
 0.2896923
 0.4884609
 0.6984838
 1.242057
 1.715259
 2.104978
 2.416424
 2.664115
 2.860851
 3.086462
 3.251378
 3.420472
 3.531522
 3.640178
 3.704785
 3.740951
 3.764511
 3.793109
 3.80574
 3.816287
 3.828872
 3.838602
 3.852122
 3.862659
 3.87143
 3.883218
 3.892771
 3.906065
 3.916606
 3.929706
 3.940131
 3.953147
 3.963523
 3.976661
 3.987117
 4.00027
 4.010739
 4.023892
 4.034361
 4.047525
 4.058003
 4.07117
 4.081649
 4.094816
 4.105294
 4.118459
 4.128937
 4.142096
 4.152569
 4.165719
 4.176184
 4.189311
 4.199761
 4.21287
 4.223305
 4.236437
 4.246881
 4.259964
 4.270367
 4.283362
 4.293304
 4.292175
 4.293314
 4.293181
 4.293197
 4.293206
 4.293366
 4.293451
 4.293528
 4.293621
 4.293723
 4.293757
 4.293774
 4.293772
 4.293778
 4.293794
 4.293827
 4.293912
 4.294059
 4.294584
 4.295917
 4.300096
 4.311004
 4.324374
 4.334985
 4.343786
 4.354406
 4.356064
 4.354156
 4.355362
 4.355304
 4.355277
 4.355273
 4.355273
 4.355278
 4.355282
 4.355287
 4.355298
 4.35533
 4.355388
 4.355584
 4.356155
 4.357822
 4.362554
 4.37378
 4.377917
 4.469035
 4.448467
 4.337845
 4.08007
 3.636643
 3.0316
 2.315453
 1.553859
 0.8314603
 0.2353653
 0.06142975
 0.02711054
 0.02861188
 0.03220543
 0.03326548
 0.0335836
 0.0337693
 0.03387277
 0.03397309
 0.03405563
 0.03413789
 0.03423698
 0.03438624
 0.034632
 0.03498691
 0.03534013
 0.03564702
 0.03582131
 0.03588426
 0.03581032
 0.03560326
 0.03538917
 0.0350563
 0.03480766
 0.03443803
 0.03422668
 0.03403357
 0.03392484
 0.03382088
 0.03373361
 0.03360503
 0.03349593
 0.03344401
 0.03193404
 0.03227934
 0.03236299
 0.03236822
 0.03236434
 0.03236391
 0.03236397
 0.03236398
 0.03236398
 0.03236396
 0.03236394
 0.0323639
 0.03236388
 0.03236386
 0.03236385
 0.03236384
 0.03236384
 0.03236384
 0.03236384
 0.03236384
 0.03236384
 0.03236384
 0.03236384
 0.03236384
 0.03236384
 0.03236384
 0.0309892
 0.03098043
-0.09510341
-0.09503392
-0.09462314
-0.09420818
-0.09371113
-0.09123698
-0.08833549
-0.07942167
-0.06857411
-0.04021351
 0.03816247
 0.1564888
 0.3062385
 0.5855002
 0.8746128
 1.375614
 1.806406
 2.161221
 2.44696
 2.676722
 2.861482
 3.08795
 3.253562
 3.423065
 3.534097
 3.642162
 3.706313
 3.742138
 3.765471
 3.793649
 3.806204
 3.816677
 3.829202
 3.838899
 3.852294
 3.862759
 3.871477
 3.883303
 3.892881
 3.906181
 3.916726
 3.92982
 3.940242
 3.953259
 3.963635
 3.976774
 3.98723
 4.000381
 4.010848
 4.024002
 4.034472
 4.047634
 4.05811
 4.071274
 4.081752
 4.094906
 4.105377
 4.118532
 4.129003
 4.142148
 4.152612
 4.165752
 4.176211
 4.189333
 4.199779
 4.212773
 4.223135
 4.236129
 4.246485
 4.259227
 4.269415
 4.282413
 4.292751
 4.304758
 4.314444
 4.325479
 4.337165
 4.349242
 4.348052
 4.34907
 4.349019
 4.349016
 4.349022
 4.349135
 4.349202
 4.349236
 4.349351
 4.349502
 4.34958
 4.349641
 4.349647
 4.34964
 4.349638
 4.349643
 4.349652
 4.349674
 4.349712
 4.349844
 4.350172
 4.351381
 4.354818
</dep>
