<Qucs Dataset>
default plugins: ignored
C:C1 gnd out C="5 pF" V="" 
                      ^ ? C1: V has no value?
.TR:TR1 Type="l ... " IntegrationMethod="Gear" Order="2" InitialStep="1 ns" 
                                        ^ ? need Trapezoidal, Euler ... incomplete
.TR:TR1 Type="l ... " IntegrationMethod="Gear" Order="2" InitialStep="1 ns" 
                                        ^ ? what's this (incomplete)?
parameter NAND_GATE_cir not specified, using default
parameter NAND_GATE_cir value is "NOT_INPUT"
parameter NAND_GATE_cir not specified, using default
parameter NAND_GATE_cir value is "NOT_INPUT"
parameter NAND not specified, using default
parameter NAND value is "NOT_INPUT"
parameter NAND not specified, using default
parameter NAND value is "NOT_INPUT"
parameter NAND_GATE_cir not specified, using default
parameter NAND_GATE_cir value is "NOT_INPUT"
parameter NAND_GATE_cir not specified, using default
parameter NAND_GATE_cir value is "NOT_INPUT"
parameter NAND_GATE_cir not specified, using default
parameter NAND_GATE_cir value is "NOT_INPUT"
parameter NAND_GATE_cir not specified, using default
parameter NAND_GATE_cir value is "NOT_INPUT"
parameter NAND_GATE_cir not specified, using default
parameter NAND_GATE_cir value is "NOT_INPUT"
parameter NAND_GATE_cir not specified, using default
parameter NAND_GATE_cir value is "NOT_INPUT"
parameter NAND not specified, using default
parameter NAND value is "NOT_INPUT"
parameter NAND not specified, using default
parameter NAND value is "NOT_INPUT"
Gnucap   System status
iterations: op=0, dc=0, tran=2444, fourier=0, total=2797
transient timesteps: accepted=331, rejected=34, total=365
transient timesteps: accepted=0, rejected=0, total=0
nodes: user=4, subckt=7, model=19, total=30
dctran density=42.9%, ac density=42.9%

<indep time 331>
 0.
 50.E-6
 0.001
 0.001000002
 0.001000003
 0.001000003
 0.001000003
 0.001000003
 0.001000004
 0.001000004
 0.001000004
 0.001000004
 0.001000004
 0.001000004
 0.001000004
 0.001000004
 0.001000004
 0.001000004
 0.001000004
 0.001000004
 0.001000004
 0.001000004
 0.001000004
 0.001000004
 0.001000004
 0.001000004
 0.001000004
 0.001000004
 0.001000004
 0.001000004
 0.001000004
 0.001000004
 0.001000004
 0.001000004
 0.001000004
 0.001000004
 0.001000004
 0.001000005
 0.001000005
 0.001000005
 0.001000006
 0.001000006
 0.001000007
 0.001000008
 0.00100001
 0.001000012
 0.001000014
 0.001000016
 0.001000018
 0.00100002
 0.001000024
 0.001000029
 0.001000037
 0.001000054
 0.001000091
 0.001000173
 0.001000422
 0.001001158
 0.001002627
 0.001005066
 0.00100882
 0.001020346
 0.001031871
 0.001043397
 0.001083255
 0.001112828
 0.001142401
 0.001203659
 0.001362929
 0.001522199
 0.001761105
 0.00200001
 0.002000015
 0.002000017
 0.00200002
 0.002000021
 0.002000021
 0.002000022
 0.002000022
 0.002000023
 0.002000024
 0.002000025
 0.002000026
 0.002000027
 0.002000028
 0.002000029
 0.002000031
 0.002000033
 0.002000035
 0.002000039
 0.002000043
 0.002000046
 0.00200005
 0.002000056
 0.002000062
 0.002000067
 0.002000075
 0.002000083
 0.002000096
 0.00200011
 0.002000123
 0.002000148
 0.002000172
 0.002000214
 0.002000256
 0.00200032
 0.002000384
 0.002000485
 0.002000586
 0.002000747
 0.002000907
 0.00200116
 0.002001413
 0.002001811
 0.00200221
 0.002002838
 0.002003467
 0.002004458
 0.00200545
 0.002007009
 0.002008567
 0.002011016
 0.002013465
 0.002017338
 0.00202121
 0.002027271
 0.002033332
 0.002042856
 0.00205238
 0.002066946
 0.002081513
 0.002103363
 0.002125212
 0.002160172
 0.002195131
 0.002247571
 0.00230001
 0.00230002
 0.002300024
 0.002300027
 0.002300046
 0.00230006
 0.002300085
 0.002300154
 0.002300224
 0.002300355
 0.002300642
 0.00230118
 0.002303259
 0.002307358
 0.0023231
 0.002358728
 0.002519051
 0.002679374
 0.002839697
 0.00300002
 0.00300003
 0.003000034
 0.003000037
 0.003000045
 0.003000051
 0.003000057
 0.00300007
 0.00300011
 0.003000149
 0.003000249
 0.003000459
 0.003001085
 0.003002243
 0.00300615
 0.003017571
 0.003051832
 0.003143197
 0.003371608
 0.00360002
 0.003600023
 0.003600023
 0.003600023
 0.003600023
 0.003600023
 0.003600023
 0.003600023
 0.003600024
 0.003600024
 0.003600024
 0.003600024
 0.003600024
 0.003600024
 0.003600024
 0.003600024
 0.003600024
 0.003600024
 0.003600024
 0.003600024
 0.003600024
 0.003600024
 0.003600024
 0.003600024
 0.003600024
 0.003600024
 0.003600024
 0.003600024
 0.003600024
 0.003600024
 0.003600024
 0.003600024
 0.003600024
 0.003600024
 0.003600024
 0.003600025
 0.003600025
 0.003600025
 0.003600025
 0.003600026
 0.003600026
 0.003600027
 0.003600028
 0.003600029
 0.00360003
 0.003600034
 0.003600036
 0.003600038
 0.003600041
 0.003600044
 0.003600052
 0.00360006
 0.003600078
 0.003600113
 0.003600202
 0.003600842
 0.003601483
 0.003602848
 0.003604213
 0.003606817
 0.003611389
 0.003615962
 0.003628351
 0.00364074
 0.003661875
 0.00368301
 0.003704144
 0.00374113
 0.003805855
 0.003902942
 0.00400003
 0.004000035
 0.004000037
 0.00400004
 0.004000041
 0.004000041
 0.004000042
 0.004000042
 0.004000043
 0.004000044
 0.004000045
 0.004000046
 0.004000047
 0.004000048
 0.004000049
 0.004000051
 0.004000053
 0.004000055
 0.004000059
 0.004000063
 0.004000066
 0.00400007
 0.004000076
 0.004000082
 0.004000087
 0.004000095
 0.004000103
 0.004000116
 0.00400013
 0.004000143
 0.004000168
 0.004000192
 0.004000234
 0.004000276
 0.00400034
 0.004000404
 0.004000505
 0.004000606
 0.004000767
 0.004000927
 0.00400118
 0.004001433
 0.004001832
 0.004002231
 0.00400286
 0.004003489
 0.004004481
 0.004005473
 0.004007036
 0.0040086
 0.004011063
 0.004013525
 0.004017414
 0.004021302
 0.004027404
 0.004033506
 0.004043134
 0.004052762
 0.004067892
 0.004083022
 0.004106365
 0.004129708
 0.00416639
 0.004203072
 0.004261152
 0.004319232
 0.004402203
 0.004485174
 0.004623459
 0.004761745
 0.00490003
 0.00490004
 0.004900044
 0.004900047
 0.004900066
 0.00490008
 0.004900104
 0.004900169
 0.004900235
 0.00490036
 0.004900635
 0.004901142
 0.004903201
 0.004906786
 0.00493009
 0.004965045
 0.005
</indep>
<dep A.Vt time>
 10.68179E-9
 10.68179E-9
 10.68179E-9
 1.25
 1.556144
 1.621396
 1.686648
 1.730826
 1.775004
 1.79804
 1.818565
 1.828828
 1.845344
 1.850344
 1.855344
 1.860344
 1.863301
 1.866257
 1.869213
 1.87217
 1.875126
 1.879681
 1.884236
 1.888792
 1.893347
 1.897902
 1.902457
 1.907012
 1.911568
 1.918801
 1.926033
 1.937633
 1.949233
 1.972171
 2.006578
 2.066447
 2.161078
 2.255708
 2.400145
 2.544581
 2.817405
 3.09023
 3.567672
 4.045115
 5.
 5.
 5.
 5.
 5.
 5.
 5.
 5.
 5.
 5.
 5.
 5.
 5.
 5.
 5.
 5.
 5.
 5.
 5.
 5.
 5.
 5.
 5.
 5.
 5.
 5.
 5.
 5.
 2.5
 1.313096
 104.194E-9
 43.62865E-9
 48.52075E-9
 51.87658E-9
 52.3643E-9
 50.52325E-9
 47.29058E-9
 45.65665E-9
 44.55129E-9
 43.78207E-9
 43.22919E-9
 42.64999E-9
 42.30694E-9
 42.10532E-9
 42.05326E-9
 42.1125E-9
 42.18698E-9
 42.23705E-9
 42.28185E-9
 42.31403E-9
 42.32228E-9
 42.32896E-9
 42.3297E-9
 42.32996E-9
 42.33055E-9
 42.33067E-9
 42.33087E-9
 42.33095E-9
 42.33097E-9
 42.33105E-9
 42.33106E-9
 42.33109E-9
 42.33109E-9
 42.3311E-9
 42.3311E-9
 42.3311E-9
 42.3311E-9
 42.33111E-9
 42.33111E-9
 42.33111E-9
 42.33111E-9
 42.33111E-9
 42.33111E-9
 42.33111E-9
 42.33111E-9
 42.33111E-9
 42.33111E-9
 42.33111E-9
 42.33111E-9
 42.33111E-9
 42.33111E-9
 42.33111E-9
 42.33111E-9
 42.33111E-9
 42.33111E-9
 42.33111E-9
 42.33111E-9
 42.33111E-9
 42.33111E-9
 42.33111E-9
 42.33111E-9
 42.33111E-9
 42.33111E-9
 10.36777E-9
 11.22023E-9
 10.51868E-9
 10.67955E-9
 10.68426E-9
 10.68169E-9
 10.68181E-9
 10.6818E-9
 10.68179E-9
 10.68179E-9
 10.68179E-9
 10.68179E-9
 10.68179E-9
 10.68179E-9
 10.68179E-9
 10.68179E-9
 10.68179E-9
 10.68179E-9
 10.68179E-9
 5.
 5.
 5.
 5.
 5.
 5.
 5.
 5.
 5.
 5.
 5.
 5.
 5.
 5.
 5.
 5.
 5.
 5.
 5.
 5.
 5.
 5.
 5.
 5.
 5.
 5.
 5.
 5.
 5.
 5.
 5.
 5.
 5.
 5.
 5.
 5.
 5.
 5.
 5.
 5.
 5.
 5.
 5.
 5.
 5.
 5.
 5.
 5.
 5.
 5.
 5.
 5.
 5.
 5.
 5.
 5.
 5.
 5.
 5.
 5.
 5.
 5.
 5.
 5.
 5.
 5.
 5.
 5.
 5.
 5.
 5.
 5.
 5.
 5.
 5.
 5.
 5.
 5.
 5.
 5.
 5.
 5.
 5.
 5.
 5.
 5.
 5.
 5.
 5.
 2.5
 1.313096
 104.194E-9
 43.62865E-9
 48.52075E-9
 51.87658E-9
 52.3643E-9
 50.52324E-9
 47.29058E-9
 45.65665E-9
 44.55129E-9
 43.78207E-9
 43.22919E-9
 42.64999E-9
 42.30694E-9
 42.10532E-9
 42.05326E-9
 42.1125E-9
 42.18698E-9
 42.23705E-9
 42.28185E-9
 42.31403E-9
 42.32228E-9
 42.32896E-9
 42.3297E-9
 42.32996E-9
 42.33055E-9
 42.33067E-9
 42.33087E-9
 42.33095E-9
 42.33097E-9
 42.33105E-9
 42.33106E-9
 42.33109E-9
 42.33109E-9
 42.3311E-9
 42.3311E-9
 42.3311E-9
 42.3311E-9
 42.33111E-9
 42.33111E-9
 42.33111E-9
 42.33111E-9
 42.33111E-9
 42.33111E-9
 42.33111E-9
 42.33111E-9
 42.33111E-9
 42.33111E-9
 42.33111E-9
 42.33111E-9
 42.33111E-9
 42.33111E-9
 42.33111E-9
 42.33111E-9
 42.33111E-9
 42.33111E-9
 42.33111E-9
 42.33111E-9
 42.33111E-9
 42.33111E-9
 42.33111E-9
 42.33111E-9
 42.33111E-9
 42.33111E-9
 42.33111E-9
 42.33111E-9
 42.33111E-9
 42.33111E-9
 42.33111E-9
 10.36778E-9
 11.18843E-9
 10.52515E-9
 10.68077E-9
 10.68159E-9
 10.68167E-9
 10.6818E-9
 10.6818E-9
 10.68179E-9
 10.68179E-9
 10.68179E-9
 10.68179E-9
 10.68179E-9
 10.68179E-9
 10.68179E-9
 10.68179E-9
</dep>
<dep B.Vt time>
 10.68179E-9
 10.68179E-9
 10.68179E-9
 1.25
 1.556144
 1.621396
 1.686648
 1.730826
 1.775004
 1.79804
 1.818565
 1.828828
 1.845344
 1.850344
 1.855344
 1.860344
 1.863301
 1.866257
 1.869213
 1.87217
 1.875126
 1.879681
 1.884236
 1.888792
 1.893347
 1.897902
 1.902457
 1.907012
 1.911568
 1.918801
 1.926033
 1.937633
 1.949233
 1.972171
 2.006578
 2.066447
 2.161078
 2.255708
 2.400145
 2.544581
 2.817405
 3.09023
 3.567672
 4.045115
 5.
 5.
 5.
 5.
 5.
 5.
 5.
 5.
 5.
 5.
 5.
 5.
 5.
 5.
 5.
 5.
 5.
 5.
 5.
 5.
 5.
 5.
 5.
 5.
 5.
 5.
 5.
 5.
 5.
 5.
 5.
 5.
 5.
 5.
 5.
 5.
 5.
 5.
 5.
 5.
 5.
 5.
 5.
 5.
 5.
 5.
 5.
 5.
 5.
 5.
 5.
 5.
 5.
 5.
 5.
 5.
 5.
 5.
 5.
 5.
 5.
 5.
 5.
 5.
 5.
 5.
 5.
 5.
 5.
 5.
 5.
 5.
 5.
 5.
 5.
 5.
 5.
 5.
 5.
 5.
 5.
 5.
 5.
 5.
 5.
 5.
 5.
 5.
 5.
 5.
 5.
 5.
 5.
 16.3706E-9
 8.431176E-9
 10.85389E-9
 10.68094E-9
 10.6783E-9
 10.68166E-9
 10.68182E-9
 10.68179E-9
 10.68179E-9
 10.68179E-9
 10.68179E-9
 10.68179E-9
 10.68179E-9
 10.68179E-9
 10.68179E-9
 10.68179E-9
 10.68179E-9
 10.68179E-9
 10.68179E-9
 75.45579E-9
 32.85288E-9
 41.2825E-9
 42.48309E-9
 42.34422E-9
 42.33555E-9
 42.33069E-9
 42.33107E-9
 42.33111E-9
 42.33111E-9
 42.33111E-9
 42.33111E-9
 42.33111E-9
 42.33111E-9
 42.33111E-9
 42.33111E-9
 42.33111E-9
 42.33111E-9
 42.33111E-9
 1.25
 1.411838
 1.48803
 1.549179
 1.610328
 1.671478
 1.732627
 1.793777
 1.854926
 1.916076
 1.944256
 1.972436
 1.994862
 2.000088
 2.005315
 2.010541
 2.015767
 2.020993
 2.026219
 2.031445
 2.036671
 2.041898
 2.047124
 2.05235
 2.057576
 2.062802
 2.070805
 2.078809
 2.086812
 2.094815
 2.110955
 2.127095
 2.154456
 2.19757
 2.269427
 2.341285
 2.481217
 2.621149
 2.859034
 3.09692
 3.57269
 4.04846
 4.52423
 5.
 5.
 5.
 5.
 5.
 5.
 5.
 5.
 5.
 5.
 5.
 5.
 5.
 5.
 5.
 5.
 5.
 5.
 5.
 5.
 5.
 5.
 5.
 5.
 5.
 5.
 5.
 5.
 5.
 5.
 5.
 5.
 5.
 5.
 5.
 5.
 5.
 5.
 5.
 5.
 5.
 5.
 5.
 5.
 5.
 5.
 5.
 5.
 5.
 5.
 5.
 5.
 5.
 5.
 5.
 5.
 5.
 5.
 5.
 5.
 5.
 5.
 5.
 5.
 5.
 5.
 5.
 5.
 5.
 5.
 5.
 5.
 5.
 5.
 5.
 5.
 5.
 5.
 5.
 5.
 5.
 5.
 5.
 5.
 5.
 5.
 5.
 5.
 5.
 5.
 5.
 5.
 5.
 5.
 5.
 5.
 5.
 16.3706E-9
 8.462505E-9
 10.84868E-9
 10.67951E-9
 10.68094E-9
 10.68165E-9
 10.68183E-9
 10.68179E-9
 10.68179E-9
 10.68179E-9
 10.68179E-9
 10.68179E-9
 10.68179E-9
 10.68179E-9
 10.68179E-9
 10.68179E-9
</dep>
<dep _net0.Vt time>
 5.
 5.
 5.
 5.
 5.
 5.
 5.
 5.
 5.
 5.
 5.
 5.
 5.
 5.
 5.
 5.
 5.
 5.
 5.
 5.
 5.
 5.
 5.
 5.
 5.
 5.
 5.
 5.
 5.
 5.
 5.
 5.
 5.
 5.
 5.
 5.
 5.
 5.
 5.
 5.
 5.
 5.
 5.
 5.
 5.
 5.
 5.
 5.
 5.
 5.
 5.
 5.
 5.
 5.
 5.
 5.
 5.
 5.
 5.
 5.
 5.
 5.
 5.
 5.
 5.
 5.
 5.
 5.
 5.
 5.
 5.
 5.
 5.
 5.
 5.
 5.
 5.
 5.
 5.
 5.
 5.
 5.
 5.
 5.
 5.
 5.
 5.
 5.
 5.
 5.
 5.
 5.
 5.
 5.
 5.
 5.
 5.
 5.
 5.
 5.
 5.
 5.
 5.
 5.
 5.
 5.
 5.
 5.
 5.
 5.
 5.
 5.
 5.
 5.
 5.
 5.
 5.
 5.
 5.
 5.
 5.
 5.
 5.
 5.
 5.
 5.
 5.
 5.
 5.
 5.
 5.
 5.
 5.
 5.
 5.
 5.
 5.
 5.
 5.
 5.
 5.
 5.
 5.
 5.
 5.
 5.
 5.
 5.
 5.
 5.
 5.
 5.
 5.
 5.
 5.
 5.
 5.
 5.
 5.
 5.
 5.
 5.
 5.
 5.
 5.
 5.
 5.
 5.
 5.
 5.
 5.
 5.
 5.
 5.
 5.
 5.
 5.
 5.
 5.
 5.
 5.
 5.
 5.
 5.
 5.
 5.
 5.
 5.
 5.
 5.
 5.
 5.
 5.
 5.
 5.
 5.
 5.
 5.
 5.
 5.
 5.
 5.
 5.
 5.
 5.
 5.
 5.
 5.
 5.
 5.
 5.
 5.
 5.
 5.
 5.
 5.
 5.
 5.
 5.
 5.
 5.
 5.
 5.
 5.
 5.
 5.
 5.
 5.
 5.
 5.
 5.
 5.
 5.
 5.
 5.
 5.
 5.
 5.
 5.
 5.
 5.
 5.
 5.
 5.
 5.
 5.
 5.
 5.
 5.
 5.
 5.
 5.
 5.
 5.
 5.
 5.
 5.
 5.
 5.
 5.
 5.
 5.
 5.
 5.
 5.
 5.
 5.
 5.
 5.
 5.
 5.
 5.
 5.
 5.
 5.
 5.
 5.
 5.
 5.
 5.
 5.
 5.
 5.
 5.
 5.
 5.
 5.
 5.
 5.
 5.
 5.
 5.
 5.
 5.
 5.
 5.
 5.
 5.
 5.
 5.
 5.
 5.
 5.
 5.
 5.
 5.
 5.
 5.
 5.
 5.
 5.
 5.
 5.
 5.
 5.
 5.
 5.
 5.
 5.
 5.
 5.
 5.
 5.
 5.
 5.
 5.
 5.
 5.
 5.
 5.
 5.
</dep>
<dep out.Vt time>
 4.490445
 4.492677
 4.492523
 4.58499
 3.271399
 2.680687
 1.854496
 1.228634
 0.6131726
 0.3232171
 0.1109976
 0.05337311
 0.03154838
 0.03202069
 0.03374689
 0.03508447
 0.0356559
 0.03602026
 0.0362634
 0.03643912
 0.03657971
 0.03676703
 0.03694943
 0.03718951
 0.0375941
 0.03811329
 0.03869773
 0.03917444
 0.03947857
 0.03965936
 0.03964182
 0.03944581
 0.03920222
 0.03876965
 0.03822892
 0.03752083
 0.0367894
 0.03634181
 0.03597297
 0.03573998
 0.03546765
 0.03524312
 0.0349953
 0.03479055
 0.03455405
 0.0315582
 0.03217828
 0.03235272
 0.03237195
 0.03236609
 0.03236375
 0.03236387
 0.03236392
 0.03236392
 0.03236392
 0.03236391
 0.0323639
 0.03236388
 0.03236386
 0.03236385
 0.03236384
 0.03236384
 0.03236384
 0.03236384
 0.03236384
 0.03236384
 0.03236384
 0.03236384
 0.03236384
 0.03236384
 0.03236384
 0.03236384
 0.0309892
 0.03098043
-0.0951034
 0.02060629
 0.3225627
 0.5948623
 0.8905727
 1.338431
 1.969457
 2.313043
 2.583396
 2.797124
 2.96684
 3.177516
 3.328753
 3.483729
 3.58226
 3.673339
 3.727357
 3.757341
 3.777192
 3.800931
 3.812567
 3.822251
 3.834119
 3.843471
 3.855968
 3.865911
 3.87426
 3.886515
 3.896381
 3.909818
 3.920451
 3.933481
 3.943862
 3.956888
 3.96727
 3.98042
 3.990884
 4.004032
 4.014498
 4.027649
 4.038118
 4.051267
 4.061735
 4.074902
 4.085382
 4.09851
 4.108964
 4.122065
 4.132502
 4.145656
 4.156125
 4.169195
 4.17961
 4.192666
 4.203071
 4.215807
 4.226004
 4.238312
 4.248231
 4.260956
 4.271136
 4.283412
 4.293292
 4.292165
 4.293211
 4.293407
 4.293808
 4.293824
 4.293795
 4.293798
 4.293813
 4.293837
 4.293886
 4.293977
 4.294326
 4.295005
 4.29752
 4.302772
 4.321114
 4.334588
 4.345395
 4.354273
 4.355975
 4.354066
 4.355274
 4.355218
 4.355191
 4.355188
 4.355187
 4.355192
 4.355196
 4.355202
 4.355212
 4.355243
 4.355301
 4.355492
 4.356045
 4.357664
 4.361712
 4.370494
 4.377956
 4.46904
 4.448472
 4.340317
 4.083963
 3.641528
 3.036724
 2.320162
 1.557557
 0.8338326
 0.2364594
 0.06645748
 0.02813843
 0.02945662
 0.03119666
 0.0325616
 0.03334598
 0.03373949
 0.03394762
 0.03404995
 0.03411642
 0.03417993
 0.03426029
 0.0343801
 0.03456779
 0.03483882
 0.03513668
 0.03555403
 0.0357964
 0.03589566
 0.03587256
 0.03569708
 0.03548855
 0.03519221
 0.03485423
 0.03450724
 0.03429765
 0.03409946
 0.03398766
 0.03387821
 0.03379287
 0.03367392
 0.03357287
 0.03350424
 0.03344924
 0.03190877
 0.03228584
 0.03236578
 0.03236874
 0.03236406
 0.03236391
 0.03236397
 0.03236398
 0.03236397
 0.03236396
 0.03236391
 0.03236388
 0.03236386
 0.03236385
 0.03236384
 0.03236384
 0.03236384
 0.03236384
 0.03236384
 0.03236384
 0.03236384
 0.03236384
 0.03236384
 0.03236384
 0.03236384
 0.03236384
 0.0309892
 0.03098043
-0.09510341
 0.02060629
 0.3225628
 0.5948626
 0.8905732
 1.338433
 1.969458
 2.313043
 2.583396
 2.797124
 2.96684
 3.177517
 3.328753
 3.48373
 3.582261
 3.67334
 3.727358
 3.757342
 3.777193
 3.800931
 3.812568
 3.822252
 3.83412
 3.843472
 3.855969
 3.865912
 3.874261
 3.886516
 3.896382
 3.909821
 3.920455
 3.933484
 3.943865
 3.956894
 3.967278
 3.98043
 3.990896
 4.004045
 4.014511
 4.027665
 4.038135
 4.051297
 4.061772
 4.074931
 4.085406
 4.098568
 4.109044
 4.122191
 4.132657
 4.145824
 4.156302
 4.169411
 4.179851
 4.192979
 4.203429
 4.216518
 4.226939
 4.239785
 4.250046
 4.262926
 4.273201
 4.286169
 4.296485
 4.30835
 4.317939
 4.330696
 4.340827
 4.349261
 4.348171
 4.349224
 4.34936
 4.349786
 4.3498
 4.349768
 4.349762
 4.349768
 4.349777
 4.349793
 4.349821
 4.349935
 4.350131
 4.351382
 4.353199
 4.354954
</dep>
