<Qucs Dataset>
default plugins: ignored
;: already installed, replacing
stashing as ;:0
*: already installed, replacing
stashing as *:0
': already installed, replacing
stashing as ':0
": already installed, replacing
stashing as ":0
store: already installed, replacing
stashing as store:0
alarm: already installed, replacing
stashing as alarm:0
iplot: already installed, replacing
stashing as iplot:0
plot: already installed, replacing
stashing as plot:0
iprint: already installed, replacing
stashing as iprint:0
print: already installed, replacing
stashing as print:0
probe: already installed, replacing
stashing as probe:0
d: already installed, replacing
stashing as d:0
diode: already installed, replacing
stashing as diode:0
npn: already installed, replacing
stashing as npn:0
pnp: already installed, replacing
stashing as pnp:0
npn1: already installed, replacing
stashing as npn1:0
pnp1: already installed, replacing
stashing as pnp1:0
Q: already installed, replacing
stashing as Q:0
bjt: already installed, replacing
stashing as bjt:0
L: already installed, replacing
stashing as L:0
Gnucap   System status
iterations: op=0, dc=0, tran=230, fourier=0, total=323
transient timesteps: accepted=61, rejected=32, total=93
transient timesteps: accepted=0, rejected=0, total=0
nodes: user=1, subckt=0, model=0, total=1
dctran density=100.0%, ac density=100.0%

<indep time 61>
 0.
 1.E-9
 2.E-9
 0.001000003
 0.001000004
 0.001000015
 0.001000015
 0.001000015
 0.001000015
 0.002000002
 0.002000003
 0.002005121
 0.002006401
 0.002006721
 0.002007041
 0.002895147
 0.003000005
 0.003000006
 0.00300001
 0.00300001
 0.00300001
 0.00300001
 0.004000004
 0.004000005
 0.00400512
 0.004006399
 0.004006719
 0.004007038
 0.005000007
 0.005000008
 0.005000015
 0.005000016
 0.005000016
 0.005000016
 0.006000006
 0.006000007
 0.006005116
 0.006006393
 0.006006712
 0.006007031
 0.007000009
 0.00700001
 0.007000017
 0.007000017
 0.007000017
 0.007000017
 0.008000008
 0.008000009
 0.008005098
 0.00800637
 0.008006688
 0.008007006
 0.008505255
 0.009000011
 0.009000012
 0.009000017
 0.009000017
 0.009000017
 0.009000017
 0.00900002
 0.01
</indep>
<dep _net1.Vt time>
 0.
 1.
 1.
 1.
 0.
 0.
 0.
 0.
 0.
 0.
 1.
 1.
 1.
 1.
 1.
 1.
 1.
 0.
 0.
 0.
 0.
 0.
 0.
 1.
 1.
 1.
 1.
 1.
 1.
 0.
 0.
 0.
 0.
 0.
 0.
 1.
 1.
 1.
 1.
 1.
 1.
 0.
 0.
 0.
 0.
 0.
 0.
 1.
 1.
 1.
 1.
 1.
 1.
 1.
 960.037E-12
 0.
 0.
 0.
 0.
 0.
 0.
</dep>
<dep Pr1.Vt time>
 0.
 1.
 1.
 1.
 0.
 0.
 0.
 0.
 0.
 0.
 1.
 1.
 1.
 1.
 1.
 1.
 1.
 0.
 0.
 0.
 0.
 0.
 0.
 1.
 1.
 1.
 1.
 1.
 1.
 0.
 0.
 0.
 0.
 0.
 0.
 1.
 1.
 1.
 1.
 1.
 1.
 0.
 0.
 0.
 0.
 0.
 0.
 1.
 1.
 1.
 1.
 1.
 1.
 1.
 960.037E-12
 0.
 0.
 0.
 0.
 0.
 0.
</dep>
