<Qucs Dataset>
default plugins: ignored
Gnucap   System status
iterations: op=0, dc=0, tran=229, fourier=0, total=322
transient timesteps: accepted=61, rejected=32, total=93
transient timesteps: accepted=0, rejected=0, total=0
nodes: user=1, subckt=0, model=0, total=1
dctran density=100.0%, ac density=100.0%

<indep time 61>
 0.
 1.E-9
 2.E-9
 0.001000003
 0.001000004
 0.001000017
 0.001000018
 0.001000018
 0.001000018
 0.002000002
 0.002000003
 0.002005429
 0.002006737
 0.002007096
 0.002007454
 0.003000005
 0.003000006
 0.003000015
 0.003000016
 0.003000016
 0.003000016
 0.004000004
 0.004000005
 0.004005425
 0.004006732
 0.00400709
 0.004007448
 0.005000007
 0.005000008
 0.005000016
 0.005000016
 0.005000016
 0.005000016
 0.005000023
 0.006000006
 0.006000007
 0.006005423
 0.00600673
 0.006007087
 0.006007445
 0.007000009
 0.00700001
 0.007000017
 0.007000018
 0.007000018
 0.007000018
 0.007000022
 0.008000008
 0.008000009
 0.008005419
 0.008006725
 0.008007082
 0.00800744
 0.008671627
 0.009000011
 0.009000012
 0.009000017
 0.009000017
 0.009000017
 0.009000017
 0.01
</indep>
<dep _net1.Vt time>
 0.
 1.
 1.
 1.
 0.
 0.
 0.
 0.
 0.
 0.
 1.
 1.
 1.
 1.
 1.
 1.
 0.
 0.
 0.
 0.
 0.
 0.
 1.
 1.
 1.
 1.
 1.
 1.
 309.515E-12
 0.
 0.
 0.
 0.
 0.
 0.
 1.
 1.
 1.
 1.
 1.
 1.
 743.196E-12
 0.
 0.
 0.
 0.
 0.
 0.
 1.
 1.
 1.
 1.
 1.
 1.
 1.
 0.
 0.
 0.
 0.
 0.
 0.
</dep>
<dep Pr1.Vt time>
 0.
 1.
 1.
 1.
 0.
 0.
 0.
 0.
 0.
 0.
 1.
 1.
 1.
 1.
 1.
 1.
 0.
 0.
 0.
 0.
 0.
 0.
 1.
 1.
 1.
 1.
 1.
 1.
 309.515E-12
 0.
 0.
 0.
 0.
 0.
 0.
 1.
 1.
 1.
 1.
 1.
 1.
 743.196E-12
 0.
 0.
 0.
 0.
 0.
 0.
 1.
 1.
 1.
 1.
 1.
 1.
 1.
 0.
 0.
 0.
 0.
 0.
 0.
</dep>
