<Qucs Dataset>
default plugins: ignored
Gnucap   System status
iterations: op=0, dc=0, tran=232, fourier=0, total=325
transient timesteps: accepted=61, rejected=32, total=93
transient timesteps: accepted=0, rejected=0, total=0
nodes: user=2, subckt=0, model=2, total=4
dctran density=50.0%, ac density=50.0%

<indep time 61>
 0.
 1.01E-9
 2.02E-9
 3.03E-9
 4.04E-9
 5.05E-9
 0.001000001
 0.001000002
 0.001000004
 0.001000004
 0.001000004
 0.001000004
 0.002000002
 0.002000003
 0.002005434
 0.002006745
 0.002007105
 0.002007464
 0.003000003
 0.003000004
 0.003000006
 0.003000006
 0.003000006
 0.003000006
 0.004000004
 0.004000005
 0.004005436
 0.004006747
 0.004007107
 0.004007466
 0.005000005
 0.005000006
 0.005000008
 0.005000008
 0.005000008
 0.005000008
 0.006000006
 0.006000007
 0.006005438
 0.006006749
 0.006007109
 0.006007468
 0.007000007
 0.007000008
 0.00700001
 0.00700001
 0.00700001
 0.00700001
 0.008000008
 0.008000009
 0.00800544
 0.008006751
 0.008007111
 0.00800747
 0.009000009
 0.00900001
 0.009000012
 0.009000012
 0.009000012
 0.009000012
 0.01
</indep>
<dep _net0.Vt time>
 0.
 0.4999999
 0.4999999
 0.4999999
 0.4999999
 0.4999999
 0.4999999
 0.
 0.
 0.
 0.
 0.
 0.
 0.4999999
 0.4999999
 0.4999999
 0.4999999
 0.4999999
 0.4999999
 0.
 0.
 0.
 0.
 0.
 0.
 0.4999999
 0.4999999
 0.4999999
 0.4999999
 0.4999999
 0.4999999
 0.
 0.
 0.
 0.
 0.
 0.
 0.4999999
 0.4999999
 0.4999999
 0.4999999
 0.4999999
 0.4999999
 0.
 0.
 0.
 0.
 0.
 0.
 0.4999999
 0.4999999
 0.4999999
 0.4999999
 0.4999999
 0.4999999
 0.
 0.
 0.
 0.
 0.
 0.
</dep>
<dep _net1.Vt time>
 0.
 0.9999999
 0.9999999
 0.9999999
 0.9999999
 0.9999999
 0.9999999
 0.
 0.
 0.
 0.
 0.
 0.
 0.9999999
 0.9999999
 0.9999999
 0.9999999
 0.9999999
 0.9999999
 0.
 0.
 0.
 0.
 0.
 0.
 0.9999999
 0.9999999
 0.9999999
 0.9999999
 0.9999999
 0.9999999
 0.
 0.
 0.
 0.
 0.
 0.
 0.9999999
 0.9999999
 0.9999999
 0.9999999
 0.9999999
 0.9999999
 0.
 0.
 0.
 0.
 0.
 0.
 0.9999999
 0.9999999
 0.9999999
 0.9999999
 0.9999999
 0.9999999
 0.
 0.
 0.
 0.
 0.
 0.
</dep>
<dep Pr1.Vt time>
 0.
 0.4999999
 0.4999999
 0.4999999
 0.4999999
 0.4999999
 0.4999999
 0.
 0.
 0.
 0.
 0.
 0.
 0.4999999
 0.4999999
 0.4999999
 0.4999999
 0.4999999
 0.4999999
 0.
 0.
 0.
 0.
 0.
 0.
 0.4999999
 0.4999999
 0.4999999
 0.4999999
 0.4999999
 0.4999999
 0.
 0.
 0.
 0.
 0.
 0.
 0.4999999
 0.4999999
 0.4999999
 0.4999999
 0.4999999
 0.4999999
 0.
 0.
 0.
 0.
 0.
 0.
 0.4999999
 0.4999999
 0.4999999
 0.4999999
 0.4999999
 0.4999999
 0.
 0.
 0.
 0.
 0.
 0.
</dep>
<dep Pr0.Vt time>
 0.
 0.9999999
 0.9999999
 0.9999999
 0.9999999
 0.9999999
 0.9999999
 0.
 0.
 0.
 0.
 0.
 0.
 0.9999999
 0.9999999
 0.9999999
 0.9999999
 0.9999999
 0.9999999
 0.
 0.
 0.
 0.
 0.
 0.
 0.9999999
 0.9999999
 0.9999999
 0.9999999
 0.9999999
 0.9999999
 0.
 0.
 0.
 0.
 0.
 0.
 0.9999999
 0.9999999
 0.9999999
 0.9999999
 0.9999999
 0.9999999
 0.
 0.
 0.
 0.
 0.
 0.
 0.9999999
 0.9999999
 0.9999999
 0.9999999
 0.9999999
 0.9999999
 0.
 0.
 0.
 0.
 0.
 0.
</dep>
