<Qucs Dataset>
default plugins: ignored
Gnucap   System status
iterations: op=0, dc=0, tran=63, fourier=0, total=84
transient timesteps: accepted=21, rejected=0, total=21
transient timesteps: accepted=0, rejected=0, total=0
nodes: user=1, subckt=0, model=2, total=3
dctran density=55.6%, ac density=55.6%

<indep time 21>
 0.
 1.E-9
 0.001000001
 0.001000002
 0.002000002
 0.002000003
 0.003000003
 0.003000004
 0.004000004
 0.004000005
 0.005000005
 0.005000006
 0.006000006
 0.006000007
 0.007000007
 0.007000008
 0.008000008
 0.008000009
 0.009000009
 0.00900001
 0.01
</indep>
<dep _net1.Vt time>
 0.
 1.
 1.
 0.
 0.
 1.
 1.
 0.
 0.
 1.
 1.
 0.
 0.
 1.
 1.
 0.
 0.
 1.
 1.
 0.
 0.
</dep>
<dep Pr1.Vt time>
 0.
 1.
 1.
-145.519E-18
-145.519E-18
 1.
 1.
-145.519E-18
-145.519E-18
 1.
 1.
-145.519E-18
-145.519E-18
 1.
 1.
-145.519E-18
-145.519E-18
 1.
 1.
-145.519E-18
-145.519E-18
</dep>
