<Qucs Dataset>
default plugins: ignored
clear: already installed, replacing
stashing as clear:0
;: already installed, replacing
stashing as ;:0
*: already installed, replacing
stashing as *:0
': already installed, replacing
stashing as ':0
": already installed, replacing
stashing as ":0
T: already installed, replacing
stashing as T:0
tline: already installed, replacing
stashing as tline:0
.SP:SP1 Type="l ... p="1e9" Points="17" Noise="no" NoiseIP="1" NoiseOP="2" s
                                        ^ ? what's this (incomplete)?
# Eqn:Eqn1 Attenuation2="dB(S[2,1])" Reflect="dB(S[1,1])" Attenuation3
^ ? # Eqn: no match
Gnucap   System status
iterations: op=3, dc=0, tran=0, fourier=0, total=23
transient timesteps: accepted=0, rejected=0, total=0
transient timesteps: accepted=0, rejected=0, total=0
nodes: user=4, subckt=3, model=0, total=7
dctran density=55.1%, ac density=63.3%

<indep frequency 17>
 1.
 62.5E+6
 125.E+6
 187.5E+6
 250.E+6
 312.5E+6
 375.E+6
 437.5E+6
 500.E+6
 562.5E+6
 625.E+6
 687.5E+6
 750.E+6
 812.5E+6
 875.E+6
 937.5E+6
 1.E+9
</indep>
<dep S[1,1] frequency>
-0.3333333+j 1.540657E-6
-0.3112547+j 0.1152406
-0.2485806+j 0.2133978
-0.1553882+j 0.2802732
-0.04654239+j 0.3069563
 0.06087835+j 0.2913294
 0.1505777+j 0.2383908
 0.2099427+j 0.1592965
 0.2323127+j 0.06923983
 0.2181502-j 0.01548674
 0.1748206-j 0.08070936
 0.114943-j 0.117221
 0.05358196-j 0.1226225
 0.004845636-j 0.1016852
-0.02135108-j 0.06507051
-0.02157169-j 0.02663624
 408.7161E-6+j 59.7882E-6
</dep>
<dep S[1,2] frequency>
 0.6666667-j 2.034526E-6
 0.650411-j 0.1479376
 0.6023-j 0.2890836
 0.5242956-j 0.4168511
 0.4196475-j 0.5250731
 0.292851-j 0.6082341
 0.1495693-j 0.6617228
-0.003499173-j 0.6821012
-0.1588255-j 0.6673775
-0.3083439-j 0.6172596
-0.4438403-j 0.5333551
-0.5574311-j 0.4192783
-0.642105-j 0.2806198
-0.6922836-j 0.1247465
-0.7043351+j 0.03958539
-0.67697+j 0.2027909
-0.6114499+j 0.3551464
</dep>
<dep S[1,3] frequency>
 0.6666667-j 2.034526E-6
 0.650411-j 0.1479376
 0.6023-j 0.2890836
 0.5242956-j 0.4168511
 0.4196475-j 0.5250731
 0.292851-j 0.6082341
 0.1495693-j 0.6617228
-0.003499173-j 0.6821012
-0.1588255-j 0.6673775
-0.3083439-j 0.6172596
-0.4438403-j 0.5333551
-0.5574311-j 0.4192783
-0.642105-j 0.2806198
-0.6922836-j 0.1247465
-0.7043351+j 0.03958539
-0.67697+j 0.2027909
-0.6114499+j 0.3551464
</dep>
<dep S[2,1] frequency>
 0.6666667-j 2.034565E-6
 0.650411-j 0.1479376
 0.6023-j 0.2890836
 0.5242956-j 0.4168511
 0.4196475-j 0.5250731
 0.292851-j 0.6082341
 0.1495693-j 0.6617228
-0.003499173-j 0.6821012
-0.1588255-j 0.6673775
-0.3083439-j 0.6172596
-0.4438403-j 0.5333551
-0.5574311-j 0.4192783
-0.642105-j 0.2806198
-0.6922836-j 0.1247465
-0.7043351+j 0.03958539
-0.67697+j 0.2027909
-0.6114499+j 0.3551464
</dep>
<dep S[2,2] frequency>
-0.3333333+j 1.974187E-6
-0.2987165+j 0.1139557
-0.2186906+j 0.1835056
-0.1338085+j 0.2030084
-0.06601762+j 0.1903422
-0.01918419+j 0.1629641
 0.009990752+j 0.1313825
 0.02598634+j 0.1008604
 0.03264627+j 0.07378841
 0.03295354+j 0.0511266
 0.02920111+j 0.03311905
 0.02318587+j 0.01961884
 0.01634368+j 0.01022949
 0.00982476+j 0.004367471
 0.004525547+j 0.001296392
 0.00109434+j 156.6037E-6
-75.36338E-6+j 57.83161E-9
</dep>
<dep S[2,3] frequency>
 0.6666667-j 2.468018E-6
 0.6291949-j 0.1446789
 0.5406782-j 0.2439612
 0.4418927-j 0.2912277
 0.3551627-j 0.3034062
 0.2848906-j 0.2970504
 0.2284777-j 0.2818371
 0.182311-j 0.2623025
 0.1435725-j 0.2402524
 0.1104484-j 0.2162484
 0.08192698-j 0.1903666
 0.05755764-j 0.1625634
 0.03725147-j 0.1328462
 0.02112835-j 0.1013483
 0.009399859-j 0.06834953
 0.002280648-j 0.03426579
-75.21565E-6+j 384.584E-6
</dep>
<dep S[3,1] frequency>
 0.6666667-j 2.034448E-6
 0.650411-j 0.1479376
 0.6023-j 0.2890836
 0.5242956-j 0.4168511
 0.4196475-j 0.5250731
 0.292851-j 0.6082341
 0.1495693-j 0.6617228
-0.003499173-j 0.6821012
-0.1588255-j 0.6673775
-0.3083439-j 0.6172596
-0.4438403-j 0.5333551
-0.5574311-j 0.4192783
-0.642105-j 0.2806198
-0.6922836-j 0.1247465
-0.7043351+j 0.03958539
-0.67697+j 0.2027909
-0.6114499+j 0.3551464
</dep>
<dep S[3,2] frequency>
 0.6666667-j 2.468047E-6
 0.6291949-j 0.1446789
 0.5406782-j 0.2439612
 0.4418927-j 0.2912277
 0.3551627-j 0.3034062
 0.2848906-j 0.2970504
 0.2284777-j 0.2818371
 0.182311-j 0.2623025
 0.1435725-j 0.2402524
 0.1104484-j 0.2162484
 0.08192698-j 0.1903666
 0.05755764-j 0.1625634
 0.03725147-j 0.1328462
 0.02112835-j 0.1013483
 0.009399859-j 0.06834953
 0.002280648-j 0.03426579
-75.21565E-6+j 384.584E-6
</dep>
<dep S[3,3] frequency>
-0.3333333+j 1.9741E-6
-0.2987165+j 0.1139557
-0.2186906+j 0.1835056
-0.1338085+j 0.2030084
-0.06601762+j 0.1903422
-0.01918419+j 0.1629641
 0.009990752+j 0.1313825
 0.02598634+j 0.1008604
 0.03264627+j 0.07378841
 0.03295354+j 0.0511266
 0.02920111+j 0.03311905
 0.02318587+j 0.01961884
 0.01634368+j 0.01022949
 0.00982476+j 0.004367471
 0.004525547+j 0.001296392
 0.00109434+j 156.6037E-6
-75.36338E-6+j 57.83164E-9
</dep>
#Freq                      vr(_net0)                 vr(_net1)                 vr(_net2)                 vr(_net3)                 vi(_net0)                 vi(_net1)                 vi(_net2)                 vi(_net3)                
 1.                        19.999999994740305098     19.999999994755345511     19.999999994723861362     19.999999994723863139    -25.284553360378909658E-6 -25.284553354894754306E-6 -25.28455335096422285E-6  -25.284553350964205087E-6 
 500.000000500000219E+6    9.1466162490905702497     15.531832373627696419     10.173932870696511532     10.173932870696511532    -12.655152605112709451    -15.722867007503400493    -8.338415414846643614     -8.3384154148466400613    
 1.0000000000000006661E+9 -2.2249107522020534766    -5.0314290579764122668     3.8839952514378524028     3.8839952514378541792     7.1035251594676065423    -22.791883418924463455     3.5553100572779117172     3.5553100572779117172    
